Time Stamp,ID,Extended,Dir,Bus,LEN,D1,D2,D3,D4,D5,D6,D7,D8
13259255,00000358,false,Rx,0,8,89,1A,00,00,8E,01,00,00,
13268779,00000109,false,Rx,0,8,00,00,00,00,00,00,00,00,
13269016,00000357,false,Rx,0,8,00,00,00,02,D3,01,00,00,
13359199,00000358,false,Rx,0,8,89,1A,00,00,8E,01,00,00,
13361622,000007DF,false,Rx,0,8,03,2A,07,D2,55,55,55,55,
13361909,000007E8,false,Rx,0,8,07,6A,07,D2,00,00,00,00,
13368746,00000109,false,Rx,0,8,00,00,00,00,00,00,00,00,
13368997,00000357,false,Rx,0,8,00,00,00,02,D3,01,00,00,
13459268,00000358,false,Rx,0,8,89,1A,00,00,8E,01,00,00,
13468745,00000109,false,Rx,0,8,00,00,00,00,00,00,00,00,
13468991,00000357,false,Rx,0,8,00,00,00,02,D3,01,00,00,
13559265,00000358,false,Rx,0,8,89,1A,00,00,8E,01,00,00,
13568746,00000109,false,Rx,0,8,00,00,00,00,00,00,00,00,
13569000,00000357,false,Rx,0,8,00,00,00,02,D3,01,00,00,
13659184,00000358,false,Rx,0,8,89,1A,00,00,8E,01,00,00,
13668742,00000109,false,Rx,0,8,00,00,00,00,00,00,00,00,
13668995,00000357,false,Rx,0,8,00,00,00,02,D3,01,00,00,
13759163,00000358,false,Rx,0,8,89,1A,00,00,8E,01,00,00,
13768874,00000109,false,Rx,0,8,00,00,00,00,00,00,00,00,
13768995,00000357,false,Rx,0,8,00,00,00,02,D3,01,00,00,
13859241,00000358,false,Rx,0,8,89,1A,00,00,8E,01,00,00,
13868736,00000109,false,Rx,0,8,00,00,00,00,00,00,00,00,
13868993,00000357,false,Rx,0,8,00,00,00,02,D3,01,00,00,
13959186,00000358,false,Rx,0,8,89,1A,00,00,8E,01,00,00,
13968732,00000109,false,Rx,0,8,00,00,00,00,00,00,00,00,
13968983,00000357,false,Rx,0,8,00,00,00,02,D3,01,00,00,
14059243,00000358,false,Rx,0,8,89,1A,00,00,8E,01,00,00,
14068734,00000109,false,Rx,0,8,00,00,00,00,00,00,00,00,
14068988,00000357,false,Rx,0,8,00,00,00,02,D3,01,00,00,
14159151,00000358,false,Rx,0,8,89,1A,00,00,8E,01,00,00,
14168725,00000109,false,Rx,0,8,00,00,00,00,00,00,00,00,
14168971,00000357,false,Rx,0,8,00,00,00,02,D3,01,00,00,
14259181,00000358,false,Rx,0,8,89,1A,00,00,8E,01,00,00,
14268722,00000109,false,Rx,0,8,00,00,00,00,00,00,00,00,
14268972,00000357,false,Rx,0,8,00,00,00,02,D3,01,00,00,
14359217,00000358,false,Rx,0,8,89,1A,00,00,8E,01,00,00,
14368750,00000109,false,Rx,0,8,00,00,00,00,00,00,00,00,
14368980,00000357,false,Rx,0,8,00,00,00,02,D3,01,00,00,
14459253,00000358,false,Rx,0,8,89,1A,00,00,8E,01,00,00,
14468718,00000109,false,Rx,0,8,00,00,00,00,00,00,00,00,
14468964,00000357,false,Rx,0,8,00,00,00,02,D3,01,00,00,
14559224,00000358,false,Rx,0,8,89,1A,00,00,8E,01,00,00,
14568721,00000109,false,Rx,0,8,00,00,00,00,00,00,00,00,
14568977,00000357,false,Rx,0,8,00,00,00,02,D3,01,00,00,
14659144,00000358,false,Rx,0,8,89,1A,00,00,8E,01,00,00,
14668716,00000109,false,Rx,0,8,00,00,00,00,00,00,00,00,
14668962,00000357,false,Rx,0,8,00,00,00,02,D3,01,00,00,
14759179,00000358,false,Rx,0,8,89,1A,00,00,8E,01,00,00,
14768712,00000109,false,Rx,0,8,00,00,00,00,00,00,00,00,
14768966,00000357,false,Rx,0,8,00,00,00,02,D3,01,00,00,
14859210,00000358,false,Rx,0,8,89,1A,00,00,8E,01,00,00,
14868709,00000109,false,Rx,0,8,00,00,00,00,00,00,00,00,
14868965,00000357,false,Rx,0,8,00,00,00,02,D3,01,00,00,
14959182,00000358,false,Rx,0,8,89,1A,00,00,8E,01,00,00,
14968709,00000109,false,Rx,0,8,00,00,00,00,00,00,00,00,
14968955,00000357,false,Rx,0,8,00,00,00,02,D3,01,00,00,
15059226,00000358,false,Rx,0,8,89,1A,00,00,8E,01,00,00,
15068707,00000109,false,Rx,0,8,00,00,00,00,00,00,00,00,
15068960,00000357,false,Rx,0,8,00,00,00,02,D3,01,00,00,
15159138,00000358,false,Rx,0,8,89,1A,00,00,8E,01,00,00,
15168702,00000109,false,Rx,0,8,00,00,00,00,00,00,00,00,
15168944,00000357,false,Rx,0,8,00,00,00,02,D3,01,00,00,
15259088,00000358,false,Rx,0,8,89,1A,00,00,8E,01,00,00,
15268755,00000109,false,Rx,0,8,00,00,00,00,00,00,00,00,
15268943,00000357,false,Rx,0,8,00,00,00,02,D3,01,00,00,
15359219,00000358,false,Rx,0,8,89,1A,00,00,8E,01,00,00,
15361619,000007DF,false,Rx,0,8,03,2A,07,D2,55,55,55,55,
15361917,000007E8,false,Rx,0,8,07,6A,07,D2,00,00,00,00,
15368696,00000109,false,Rx,0,8,00,00,00,00,00,00,00,00,
15368945,00000357,false,Rx,0,8,00,00,00,02,D3,01,00,00,
15459251,00000358,false,Rx,0,8,89,1A,00,00,8E,01,00,00,
15468741,00000109,false,Rx,0,8,00,00,00,00,00,00,00,00,
15468938,00000357,false,Rx,0,8,00,00,00,02,D3,01,00,00,
15559219,00000358,false,Rx,0,8,89,1A,00,00,8E,01,00,00,
15568738,00000109,false,Rx,0,8,00,00,00,00,00,00,00,00,
15568944,00000357,false,Rx,0,8,00,00,00,02,D3,01,00,00,
15659201,00000358,false,Rx,0,8,89,1A,00,00,8E,01,00,00,
15668745,00000109,false,Rx,0,8,00,00,00,00,00,00,00,00,
15668927,00000357,false,Rx,0,8,00,00,00,02,D3,01,00,00,
15759097,00000358,false,Rx,0,8,89,1A,00,00,8E,01,00,00,
15768751,00000109,false,Rx,0,8,00,00,00,00,00,00,00,00,
15768930,00000357,false,Rx,0,8,00,00,00,02,D3,01,00,00,
15859193,00000358,false,Rx,0,8,89,1A,00,00,8E,01,00,00,
15868698,00000109,false,Rx,0,8,00,00,00,00,00,00,00,00,
15868937,00000357,false,Rx,0,8,00,00,00,02,D3,01,00,00,
15959172,00000358,false,Rx,0,8,89,1A,00,00,8E,01,00,00,
15968700,00000109,false,Rx,0,8,00,00,00,00,00,00,00,00,
15968946,00000357,false,Rx,0,8,00,00,00,02,D3,01,00,00,
16059203,00000358,false,Rx,0,8,89,1A,00,00,8E,01,00,00,
16068764,00000109,false,Rx,0,8,00,00,00,00,00,00,00,00,
16068985,00000357,false,Rx,0,8,00,00,00,02,D3,01,00,00,
16159177,00000358,false,Rx,0,8,89,1A,00,00,8E,01,00,00,
16168673,00000109,false,Rx,0,8,00,00,00,00,00,00,00,00,
16168925,00000357,false,Rx,0,8,00,00,00,02,D3,01,00,00,
16259129,00000358,false,Rx,0,8,89,1A,00,00,8E,01,00,00,
16268684,00000109,false,Rx,0,8,00,00,00,00,00,00,00,00,
16268921,00000357,false,Rx,0,8,00,00,00,02,D3,01,00,00,
18446744073175616476,00000358,false,Rx,0,8,89,1A,00,00,8E,01,00,00,
18446744073175625985,00000109,false,Rx,0,8,00,00,00,00,00,00,00,00,
18446744073175626201,00000357,false,Rx,0,8,00,00,00,02,D3,01,00,00,
18446744073175716507,00000358,false,Rx,0,8,89,1A,00,00,8E,01,00,00,
18446744073175725967,00000109,false,Rx,0,8,00,00,00,00,00,00,00,00,
18446744073175726197,00000357,false,Rx,0,8,00,00,00,02,D3,01,00,00,
18446744073175816448,00000358,false,Rx,0,8,89,1A,00,00,8E,01,00,00,
18446744073175825985,00000109,false,Rx,0,8,00,00,00,00,00,00,00,00,
18446744073175826200,00000357,false,Rx,0,8,00,00,00,02,D3,01,00,00,
18446744073175916469,00000358,false,Rx,0,8,89,1A,00,00,8E,01,00,00,
18446744073175925947,00000109,false,Rx,0,8,00,00,00,00,00,00,00,00,
18446744073175926188,00000357,false,Rx,0,8,00,00,00,02,D3,01,00,00,
18446744073176016379,00000358,false,Rx,0,8,89,1A,00,00,8E,01,00,00,
18446744073176025935,00000109,false,Rx,0,8,00,00,00,00,00,00,00,00,
18446744073176026180,00000357,false,Rx,0,8,00,00,00,02,D3,01,00,00,
18446744073176116469,00000358,false,Rx,0,8,89,1A,00,00,8E,01,00,00,
18446744073176125933,00000109,false,Rx,0,8,00,00,00,00,00,00,00,00,
18446744073176126184,00000357,false,Rx,0,8,00,00,00,02,D3,01,00,00,
18446744073176216416,00000358,false,Rx,0,8,89,1A,00,00,8E,01,00,00,
18446744073176225933,00000109,false,Rx,0,8,00,00,00,00,00,00,00,00,
18446744073176226176,00000357,false,Rx,0,8,00,00,00,02,D3,01,00,00,
18446744073176316463,00000358,false,Rx,0,8,89,1A,00,00,8E,01,00,00,
18446744073176325933,00000109,false,Rx,0,8,00,00,00,00,00,00,00,00,
18446744073176326187,00000357,false,Rx,0,8,00,00,00,02,D3,01,00,00,
18446744073176416386,00000358,false,Rx,0,8,89,1A,00,00,8E,01,00,00,
18446744073176425931,00000109,false,Rx,0,8,00,00,00,00,00,00,00,00,
18446744073176426177,00000357,false,Rx,0,8,00,00,00,02,D3,01,00,00,
18446744073176516380,00000358,false,Rx,0,8,89,1A,00,00,8E,01,00,00,
18446744073176525924,00000109,false,Rx,0,8,00,00,00,00,00,00,00,00,
18446744073176526174,00000357,false,Rx,0,8,00,00,00,02,D3,01,00,00,
18446744073176616449,00000358,false,Rx,0,8,89,1A,00,00,8E,01,00,00,
18446744073176618910,000007DF,false,Rx,0,8,03,2A,07,D2,55,55,55,55,
18446744073176619197,000007E8,false,Rx,0,8,07,6A,07,D2,00,00,00,00,
18446744073176625918,00000109,false,Rx,0,8,00,00,00,00,00,00,00,00,
18446744073176626170,00000357,false,Rx,0,8,00,00,00,02,D3,01,00,00,
18446744073176716470,00000358,false,Rx,0,8,89,1A,00,00,8E,01,00,00,
18446744073176725917,00000109,false,Rx,0,8,00,00,00,00,00,00,00,00,
18446744073176726174,00000357,false,Rx,0,8,00,00,00,02,D3,01,00,00,
18446744073176816430,00000358,false,Rx,0,8,89,1A,00,00,8E,01,00,00,
18446744073176825914,00000109,false,Rx,0,8,00,00,00,00,00,00,00,00,
18446744073176826165,00000357,false,Rx,0,8,00,00,00,02,D3,01,00,00,
18446744073176916453,00000358,false,Rx,0,8,89,1A,00,00,8E,01,00,00,
18446744073176925918,00000109,false,Rx,0,8,00,00,00,00,00,00,00,00,
18446744073176926179,00000357,false,Rx,0,8,00,00,00,02,D3,01,00,00,
18446744073177016389,00000358,false,Rx,0,8,89,1A,00,00,8E,01,00,00,
18446744073177025916,00000109,false,Rx,0,8,00,00,00,00,00,00,00,00,
18446744073177026160,00000357,false,Rx,0,8,00,00,00,02,D3,01,00,00,
18446744073177116397,00000423,false,Rx,0,8,07,1D,00,02,B2,80,B2,D8,
18446744073177116482,00000358,false,Rx,0,8,89,1A,00,00,8E,01,00,00,
18446744073177121495,00000155,false,Rx,0,8,FF,4F,FF,94,FF,F8,03,FF,
18446744073177121739,00000424,false,Rx,0,8,FF,FF,FF,FF,7F,7F,AA,7F,
18446744073177121980,00000425,false,Rx,0,8,1D,FF,4C,FF,FF,FF,FD,FF,
18446744073177122202,000004AE,false,Rx,0,8,D2,B2,3C,A0,88,5A,78,FE,
18446744073177122372,00000659,false,Rx,0,4,FF,FF,FF,FF,00,00,00,00,
18446744073177122562,000004AF,false,Rx,0,5,FF,FF,FF,D0,00,00,00,00,
18446744073177125905,00000109,false,Rx,0,8,00,00,00,00,00,00,00,00,
18446744073177126155,00000357,false,Rx,0,8,00,00,00,02,D3,01,00,00,
18446744073177132664,00000155,false,Rx,0,8,FF,4F,FF,94,FF,F8,03,FF,
18446744073177136092,00000445,false,Rx,0,7,80,DF,55,65,04,82,00,00,
18446744073177142605,00000155,false,Rx,0,8,FF,4F,FF,94,FF,F8,03,FF,
18446744073177152636,00000155,false,Rx,0,8,FF,4F,FF,94,FF,F8,03,FF,
18446744073177162692,00000155,false,Rx,0,8,FF,4F,FF,94,FF,F8,03,FF,
18446744073177172884,00000155,false,Rx,0,8,FF,4F,FF,94,FF,F8,03,FF,
18446744073177183222,00000155,false,Rx,0,8,FF,4F,FF,94,FF,F8,03,FF,
18446744073177193371,00000155,false,Rx,0,8,FF,4F,FF,94,FF,F8,03,FF,
18446744073177203308,00000155,false,Rx,0,8,FF,4F,FF,94,FF,F8,03,FF,
18446744073177206925,00000630,false,Rx,0,8,00,00,00,00,00,00,00,00,
18446744073177211925,0000062D,false,Rx,0,8,00,00,00,00,00,00,00,00,
18446744073177213749,00000155,false,Rx,0,8,FF,4F,FF,94,FF,F8,03,FF,
18446744073177216215,00000423,false,Rx,0,8,07,1D,00,02,B2,80,B2,D8,
18446744073177216458,00000358,false,Rx,0,8,89,A3,00,00,8E,01,00,00,
18446744073177216924,000006BD,false,Rx,0,8,00,00,00,00,00,00,00,00,
18446744073177221568,00000155,false,Rx,0,8,FF,4F,FF,94,FF,F8,03,FF,
18446744073177222822,00000398,false,Rx,0,8,00,00,4C,4C,00,00,00,00,
18446744073177222875,00000424,false,Rx,0,8,FF,FF,FF,FF,7F,7F,AA,7F,
18446744073177222922,00000425,false,Rx,0,8,1D,FF,4C,FF,FF,FF,FD,FF,
18446744073177225914,00000109,false,Rx,0,8,00,00,00,00,00,00,00,00,
18446744073177226151,00000357,false,Rx,0,8,00,00,00,02,D3,01,00,00,
18446744073177231582,00000155,false,Rx,0,8,FF,4F,FF,94,FF,F8,03,FF,
18446744073177236060,00000445,false,Rx,0,7,80,DF,AA,65,04,82,00,00,
18446744073177240590,00000377,false,Rx,0,8,00,00,00,00,28,28,28,20,
18446744073177241601,00000155,false,Rx,0,8,FF,4F,FF,94,FF,F8,03,FF,
18446744073177250569,0000038A,false,Rx,0,8,3C,3B,00,00,04,00,00,00,
18446744073177251703,00000155,false,Rx,0,8,FF,4F,FF,94,FF,F8,03,FF,
18446744073177260614,00000377,false,Rx,0,8,00,00,00,00,28,28,28,20,
18446744073177261629,00000155,false,Rx,0,8,FF,4F,FF,94,FF,F8,03,FF,
18446744073177270563,00000389,false,Rx,0,8,1D,00,00,3B,3B,00,00,00,
18446744073177271667,00000155,false,Rx,0,8,FF,4F,FF,94,FF,F8,03,FF,
18446744073177280639,00000377,false,Rx,0,8,04,C7,00,00,3C,3D,3B,20,
18446744073177281629,00000155,false,Rx,0,8,FF,4F,FF,94,FF,F8,03,FF,
18446744073177290573,00000569,false,Rx,0,8,0A,00,00,00,00,00,00,00,
18446744073177291662,00000155,false,Rx,0,8,FF,4F,FF,94,FF,F8,03,FF,
18446744073177300605,00000377,false,Rx,0,8,04,C7,00,00,3C,3D,3B,20,
18446744073177301596,00000155,false,Rx,0,8,FF,4F,FF,94,FF,F8,03,FF,
18446744073177310578,00000568,false,Rx,0,8,00,02,80,00,00,00,08,80,
18446744073177311586,00000155,false,Rx,0,8,FF,4F,FF,94,FF,F8,03,FF,
18446744073177316219,00000423,false,Rx,0,8,07,1D,00,02,B2,80,B2,D8,
18446744073177316450,00000358,false,Rx,0,8,89,A3,3A,00,8E,01,00,00,
18446744073177320557,00000377,false,Rx,0,8,04,C7,00,00,3C,3D,3B,20,
18446744073177321589,00000155,false,Rx,0,8,FF,4F,FF,94,FF,F8,03,FF,
18446744073177321837,00000424,false,Rx,0,8,11,40,FF,FF,7F,6C,AA,7F,
18446744073177322072,00000398,false,Rx,0,8,00,00,00,4C,4C,00,00,00,
18446744073177322310,00000425,false,Rx,0,8,1D,FF,44,9C,43,FF,FD,FF,
18446744073177325906,00000109,false,Rx,0,8,00,00,00,00,00,00,00,00,
18446744073177326149,00000357,false,Rx,0,8,00,00,00,02,D3,01,00,00,
18446744073177330572,00000563,false,Rx,0,8,00,00,00,02,02,00,00,00,
18446744073177331596,00000155,false,Rx,0,8,FF,4F,FF,94,FF,F8,03,FF,
18446744073177336245,00000445,false,Rx,0,7,80,DF,AA,65,04,82,00,00,
18446744073177340601,00000377,false,Rx,0,8,04,C7,00,00,3C,3D,3B,20,
18446744073177341608,00000155,false,Rx,0,8,FF,4F,FF,94,FF,F8,03,FF,
18446744073177350657,0000038A,false,Rx,0,8,3C,3B,00,00,04,00,00,00,
18446744073177351633,00000155,false,Rx,0,8,FF,4F,FF,94,FF,F8,03,FF,
18446744073177360608,00000377,false,Rx,0,8,04,C7,00,00,3C,3D,3B,20,
18446744073177361652,00000155,false,Rx,0,8,FF,4F,FF,94,FF,F8,03,FF,
18446744073177370560,00000389,false,Rx,0,8,22,00,00,3B,3B,00,00,00,
18446744073177371616,00000155,false,Rx,0,8,FF,4F,FF,94,FF,F8,03,FF,
18446744073177380659,00000377,false,Rx,0,8,04,C7,00,00,3C,3D,3B,20,
18446744073177381653,00000155,false,Rx,0,8,FF,4F,FF,94,FF,F8,03,FF,
18446744073177390570,00000664,false,Rx,0,8,01,83,06,32,F3,00,00,00,
18446744073177391614,00000155,false,Rx,0,8,FF,4F,FF,94,FF,F8,03,FF,
18446744073177400554,00000377,false,Rx,0,8,04,C7,00,00,3C,3D,3B,20,
18446744073177401651,00000155,false,Rx,0,8,FF,4F,FF,94,FF,F8,03,FF,
18446744073177410562,00000663,false,Rx,0,8,00,39,34,38,31,41,30,31,
18446744073177411615,00000155,false,Rx,0,8,FF,4F,FF,94,FF,F8,03,FF,
18446744073177416211,00000423,false,Rx,0,8,07,1D,00,02,B2,80,B2,D8,
18446744073177416459,00000358,false,Rx,0,8,89,A3,44,00,8E,01,00,00,
18446744073177420563,00000377,false,Rx,0,8,04,C7,00,00,3C,3D,3B,20,
18446744073177421579,00000155,false,Rx,0,8,FF,4F,FF,94,FF,F8,03,FF,
18446744073177421827,00000424,false,Rx,0,8,11,40,FF,FF,7F,6C,AA,7F,
18446744073177422064,00000398,false,Rx,0,8,00,00,00,4C,4C,00,00,00,
18446744073177422301,00000425,false,Rx,0,8,1D,FF,44,9C,43,FF,FD,FF,
18446744073177425898,00000109,false,Rx,0,8,00,00,00,00,00,00,00,00,
18446744073177426141,00000357,false,Rx,0,8,00,00,00,02,D3,01,00,00,
18446744073177431564,00000155,false,Rx,0,8,FF,4F,FF,94,FF,F8,03,FF,
18446744073177436019,00000445,false,Rx,0,7,80,DF,AA,65,04,82,00,00,
18446744073177440556,00000377,false,Rx,0,8,04,C7,00,00,3C,3D,3B,20,
18446744073177441586,00000155,false,Rx,0,8,FF,4F,FF,94,FF,F8,03,FF,
18446744073177450569,0000038A,false,Rx,0,8,3C,3B,00,00,04,00,00,00,
18446744073177451622,00000155,false,Rx,0,8,FF,4F,FF,94,FF,F8,03,FF,
18446744073177460600,00000377,false,Rx,0,8,04,C7,00,00,3C,3D,3B,20,
18446744073177461627,00000155,false,Rx,0,8,FF,4F,FF,94,FF,F8,03,FF,
18446744073177470576,00000389,false,Rx,0,8,4A,00,00,3B,3B,00,00,00,
18446744073177471647,00000155,false,Rx,0,8,FF,4F,FF,94,FF,F8,03,FF,
18446744073177480576,00000377,false,Rx,0,8,04,C7,00,00,3C,3D,3B,20,
18446744073177481648,00000155,false,Rx,0,8,FF,4F,FF,94,FF,F8,03,FF,
18446744073177490635,00000569,false,Rx,0,8,0A,00,00,00,00,00,00,00,
18446744073177491623,00000155,false,Rx,0,8,FF,4F,FF,94,FF,F8,03,FF,
18446744073177500555,00000377,false,Rx,0,8,04,C5,00,00,3C,3D,3B,20,
18446744073177501577,00000155,false,Rx,0,8,FF,4F,FF,94,FF,F8,03,FF,
18446744073177510575,00000568,false,Rx,0,8,00,02,80,00,00,00,08,80,
18446744073177511573,00000155,false,Rx,0,8,FF,4F,FF,94,FF,F8,03,FF,
18446744073177516210,00000423,false,Rx,0,8,07,1D,00,02,B2,80,B2,D8,
18446744073177516447,00000358,false,Rx,0,8,89,A3,94,00,8E,01,00,00,
18446744073177520556,00000377,false,Rx,0,8,04,C5,00,00,3C,3D,3B,20,
18446744073177521573,00000155,false,Rx,0,8,FF,4F,FF,94,FF,F8,03,FF,
18446744073177521816,00000424,false,Rx,0,8,11,40,FF,FF,7F,6C,AA,7F,
18446744073177522060,00000398,false,Rx,0,8,00,00,00,4C,4C,00,00,00,
18446744073177522298,00000425,false,Rx,0,8,1D,FF,44,9C,43,FF,FD,FF,
18446744073177525894,00000109,false,Rx,0,8,00,00,00,00,00,00,00,00,
18446744073177526144,00000357,false,Rx,0,8,00,00,00,02,D3,01,00,00,
18446744073177530571,00000563,false,Rx,0,8,00,00,00,02,02,00,00,00,
18446744073177531583,00000155,false,Rx,0,8,FF,4F,FF,94,FF,F8,03,FF,
18446744073177536012,00000445,false,Rx,0,7,80,DF,AA,65,04,82,00,00,
18446744073177540556,00000377,false,Rx,0,8,04,C5,00,00,3C,3D,3B,20,
18446744073177541577,00000155,false,Rx,0,8,FF,4F,FF,94,FF,F8,03,FF,
18446744073177550651,0000038A,false,Rx,0,8,3C,3B,00,00,04,00,00,00,
18446744073177551623,00000155,false,Rx,0,8,FF,4F,FF,94,FF,F8,03,FF,
18446744073177560558,00000377,false,Rx,0,8,04,C5,00,00,3C,3D,3B,20,
18446744073177561649,00000155,false,Rx,0,8,FF,4F,FF,94,FF,F8,03,FF,
18446744073177570612,00000389,false,Rx,0,8,67,00,00,3B,3B,00,00,00,
18446744073177571610,00000155,false,Rx,0,8,FF,4F,FF,94,FF,F8,03,FF,
18446744073177580580,00000377,false,Rx,0,8,04,C5,00,00,3C,3D,3B,20,
18446744073177581646,00000155,false,Rx,0,8,FF,4F,FF,94,FF,F8,03,FF,
18446744073177591798,00000155,false,Rx,0,8,FF,4F,FF,94,FF,F8,03,FF,
18446744073177600580,00000377,false,Rx,0,8,04,C5,00,00,3C,3D,3B,20,
18446744073177601612,00000155,false,Rx,0,8,FF,4F,FF,94,FF,F8,03,FF,
18446744073177611548,00000155,false,Rx,0,8,FF,4F,FF,94,FF,F8,03,FF,
18446744073177616206,00000423,false,Rx,0,8,07,1D,00,02,5D,80,5D,D8,
18446744073177616441,00000358,false,Rx,0,8,89,A3,CE,00,8E,01,00,00,
18446744073177620555,00000377,false,Rx,0,8,04,C5,00,00,3C,3D,3B,20,
18446744073177621575,00000155,false,Rx,0,8,FF,4F,FF,94,FF,F8,03,FF,
18446744073177621815,00000424,false,Rx,0,8,11,40,FF,FF,7F,6C,55,7F,
18446744073177622059,00000398,false,Rx,0,8,00,00,00,4C,4C,00,00,00,
18446744073177622295,00000425,false,Rx,0,8,1D,FF,44,9C,43,FF,FD,FF,
18446744073177625894,00000109,false,Rx,0,8,00,00,00,00,00,00,00,00,
18446744073177626137,00000357,false,Rx,0,8,00,00,00,02,D3,01,00,00,
18446744073177631660,00000155,false,Rx,0,8,FF,4F,FF,94,FF,F8,03,FF,
18446744073177636121,00000445,false,Rx,0,7,80,DF,55,65,04,82,00,00,
18446744073177640600,00000377,false,Rx,0,8,04,C5,00,00,3C,3D,3B,20,
18446744073177641576,00000155,false,Rx,0,8,FF,4F,FF,94,FF,F8,03,FF,
18446744073177650624,0000038A,false,Rx,0,8,3C,3B,00,00,04,00,00,00,
18446744073177651621,00000155,false,Rx,0,8,FF,4F,FF,94,FF,F8,03,FF,
18446744073177660587,00000377,false,Rx,0,8,04,C5,00,00,3C,3D,3B,20,
18446744073177661643,00000155,false,Rx,0,8,FF,4F,FF,94,FF,F8,03,FF,
18446744073177670598,00000389,false,Rx,0,8,7C,00,00,3B,3B,00,00,00,
18446744073177671644,00000155,false,Rx,0,8,FF,4F,FF,94,FF,F8,03,FF,
18446744073177680563,00000377,false,Rx,0,8,04,C5,00,00,3C,3D,3B,20,
18446744073177681621,00000155,false,Rx,0,8,FF,4F,FF,94,FF,F8,03,FF,
18446744073177690576,00000569,false,Rx,0,8,0A,00,00,00,00,00,00,00,
18446744073177691639,00000155,false,Rx,0,8,FF,4F,FF,94,FF,F8,03,FF,
18446744073177700561,00000377,false,Rx,0,8,04,C5,00,00,3C,3D,3B,20,
18446744073177701569,00000155,false,Rx,0,8,FF,4F,FF,94,FF,F8,03,FF,
18446744073177706915,00000630,false,Rx,0,8,00,00,00,00,00,00,00,00,
18446744073177710577,00000568,false,Rx,0,8,00,02,80,00,00,00,08,80,
18446744073177711567,00000155,false,Rx,0,8,FF,4F,FF,94,FF,F8,03,FF,
18446744073177711915,0000062D,false,Rx,0,8,00,00,00,00,00,00,00,00,
18446744073177716203,00000423,false,Rx,0,8,07,1D,00,02,5D,80,5D,D8,
18446744073177716447,00000358,false,Rx,0,8,89,A3,F8,00,8E,01,00,00,
18446744073177716909,000006BD,false,Rx,0,8,00,00,00,00,00,00,00,00,
18446744073177720559,00000377,false,Rx,0,8,04,C5,00,00,3C,3D,3B,20,
18446744073177721568,00000155,false,Rx,0,8,FF,4F,FF,94,FF,F8,03,FF,
18446744073177721810,00000424,false,Rx,0,8,11,40,FF,FF,7F,6C,55,7F,
18446744073177722052,00000398,false,Rx,0,8,00,00,00,4C,4C,00,00,00,
18446744073177722286,00000425,false,Rx,0,8,1D,FF,44,9C,43,FF,FD,FF,
18446744073177725888,00000109,false,Rx,0,8,00,00,00,00,00,00,00,00,
18446744073177726138,00000357,false,Rx,0,8,00,00,00,02,D3,01,00,00,
18446744073177730576,00000563,false,Rx,0,8,00,20,00,02,02,00,00,00,
18446744073177731590,00000155,false,Rx,0,8,FF,4F,FF,94,FF,F8,03,FF,
18446744073177736042,00000445,false,Rx,0,7,80,DF,55,65,04,82,00,00,
18446744073177740560,00000377,false,Rx,0,8,04,C5,00,00,3C,3D,3B,20,
18446744073177741695,00000155,false,Rx,0,8,FF,47,CC,54,FF,F8,02,B0,
18446744073177750575,0000038A,false,Rx,0,8,3C,3B,00,00,04,00,00,00,
18446744073177751495,00000155,false,Rx,0,8,FF,47,CC,54,FF,F8,02,B0,
18446744073177760559,00000377,false,Rx,0,8,04,C5,00,00,3C,3D,3B,20,
18446744073177761346,00000155,false,Rx,0,8,FF,47,CC,54,FF,F8,02,B1,
18446744073177770596,00000389,false,Rx,0,8,8C,00,00,3B,3B,00,00,00,
18446744073177771387,00000155,false,Rx,0,8,FF,47,CC,54,FF,F8,02,B0,
18446744073177780562,00000377,false,Rx,0,8,04,C5,00,00,3C,3D,3B,20,
18446744073177781345,00000155,false,Rx,0,8,FF,47,CC,54,FF,F8,02,B1,
18446744073177791330,00000155,false,Rx,0,8,FF,47,CD,54,FF,F8,02,B0,
18446744073177800615,00000377,false,Rx,0,8,04,C5,00,00,3C,3D,3B,20,
18446744073177801376,00000155,false,Rx,0,8,FF,47,CD,54,FF,F8,02,B1,
18446744073177811293,00000155,false,Rx,0,8,5E,47,CD,54,27,F0,02,B1,
18446744073177816202,00000423,false,Rx,0,8,07,1D,00,02,5D,80,5D,D8,
18446744073177816446,00000358,false,Rx,0,8,89,19,18,01,8E,01,00,00,
18446744073177820562,00000377,false,Rx,0,8,04,C5,00,00,3C,3D,3B,20,
18446744073177821300,00000155,false,Rx,0,8,5E,47,CD,54,27,F0,02,B1,
18446744073177821540,00000424,false,Rx,0,8,11,40,56,7C,39,6C,55,3B,
18446744073177821759,00000425,false,Rx,0,8,24,52,44,9C,42,06,E1,02,
18446744073177822012,00000398,false,Rx,0,8,00,00,00,4C,4C,00,00,00,
18446744073177825889,00000109,false,Rx,0,8,00,00,00,00,00,00,00,00,
18446744073177826131,00000357,false,Rx,0,8,00,00,00,02,D3,01,00,00,
18446744073177831289,00000155,false,Rx,0,8,5E,47,CD,54,27,F0,02,B0,
18446744073177836034,00000445,false,Rx,0,7,80,DF,55,65,04,82,00,00,
18446744073177840558,00000377,false,Rx,0,8,04,C5,00,00,3C,3D,3B,20,
18446744073177841307,00000155,false,Rx,0,8,5E,47,CD,54,27,F0,02,B1,
18446744073177850714,0000038A,false,Rx,0,8,3C,3B,00,00,04,00,00,00,
18446744073177851345,00000155,false,Rx,0,8,5E,47,CD,54,27,F0,02,B1,
41593192,00000155,false,Rx,0,8,5E,47,A4,54,27,D8,02,B0,
41593777,0000038A,false,Rx,0,8,3D,3B,00,00,04,00,00,00,
41603084,00000155,false,Rx,0,8,5E,47,A4,54,27,D8,02,B0,
41603763,00000377,false,Rx,0,8,05,9F,01,C2,3E,3E,3E,22,
41613118,00000155,false,Rx,0,8,5E,47,A4,54,27,D8,02,B0,
41613765,00000389,false,Rx,0,8,AC,00,00,3B,3B,40,00,00,
41623087,00000155,false,Rx,0,8,5E,47,A4,54,27,D8,02,B0,
41623759,00000377,false,Rx,0,8,05,9D,01,C2,3E,3E,3E,22,
41633083,00000155,false,Rx,0,8,5E,47,A4,54,27,D8,02,B0,
41633775,00000569,false,Rx,0,8,AA,80,82,02,00,00,00,00,
41634027,00000664,false,Rx,0,8,02,83,06,32,F3,00,00,00,
41643067,00000155,false,Rx,0,8,5E,47,A4,54,27,D8,02,B0,
41643798,00000377,false,Rx,0,8,05,9D,01,BD,3E,3E,3E,22,
41653074,00000155,false,Rx,0,8,5E,47,A4,54,27,D8,02,B0,
41653782,00000568,false,Rx,0,8,00,02,80,0A,00,00,A8,AA,
41654041,00000663,false,Rx,0,8,02,00,00,00,00,00,00,00,
41658387,00000423,false,Rx,0,8,07,1D,00,02,5D,80,5D,D8,
41658617,00000188,false,Rx,0,8,03,50,A2,4D,00,00,00,00,
41658846,00000285,false,Rx,0,8,00,00,B6,21,90,FE,0C,10,
41659078,00000358,false,Rx,0,8,89,19,58,01,8E,01,00,00,
41663048,00000155,false,Rx,0,8,5E,47,A4,54,27,D8,02,B0,
41663284,00000424,false,Rx,0,8,11,40,56,7C,39,6C,55,3B,
41663509,00000425,false,Rx,0,8,24,52,44,9C,42,04,E1,01,
41663764,00000377,false,Rx,0,8,05,9D,01,C2,3E,3E,3E,22,
41664057,00000398,false,Rx,0,8,01,49,2B,4B,4C,70,00,00,
41667973,00000109,false,Rx,0,8,00,00,00,00,00,00,00,00,
41668226,00000357,false,Rx,0,8,00,00,00,02,D3,01,00,00,
41673064,00000155,false,Rx,0,8,5E,47,A4,54,27,D8,02,B0,
41673758,00000563,false,Rx,0,8,AA,AA,AA,AA,82,2A,00,00,
41676897,00000445,false,Rx,0,7,80,55,55,65,04,82,00,00,
41683051,00000155,false,Rx,0,8,5E,47,A4,54,27,D8,02,B0,
41683756,00000377,false,Rx,0,8,05,9D,01,BD,3E,3E,3E,22,
41693091,00000155,false,Rx,0,8,5E,47,A4,54,27,D8,02,B0,
41693774,0000038A,false,Rx,0,8,3D,3B,00,00,04,00,00,00,
41703123,00000155,false,Rx,0,8,5E,47,A3,54,27,D8,02,B0,
41703760,00000377,false,Rx,0,8,05,9D,01,BD,3E,3E,3E,22,
41713078,00000155,false,Rx,0,8,5E,47,A4,54,27,D8,02,B0,
41713764,00000389,false,Rx,0,8,AC,00,00,3B,3B,40,00,00,
41723083,00000155,false,Rx,0,8,5E,47,A4,54,27,D8,02,B0,
41723756,00000377,false,Rx,0,8,05,9D,01,BD,3E,3E,3E,22,
41733119,00000155,false,Rx,0,8,5E,47,A4,54,27,D8,02,B0,
41743091,00000155,false,Rx,0,8,5E,47,A3,54,27,D8,02,B0,
41743759,00000377,false,Rx,0,8,05,9D,01,BD,3E,3E,3E,22,
41753043,00000155,false,Rx,0,8,5E,47,A4,54,27,D8,02,B0,
41758409,00000423,false,Rx,0,8,07,1D,00,02,5D,80,5D,D8,
41758610,00000188,false,Rx,0,8,03,50,A2,4D,00,00,00,00,
41758839,00000285,false,Rx,0,8,00,00,B6,21,90,FE,0C,10,
41759080,00000358,false,Rx,0,8,89,19,58,01,8E,01,00,00,
41763043,00000155,false,Rx,0,8,5E,47,A4,54,27,D8,02,B0,
41763279,00000424,false,Rx,0,8,11,40,56,7C,39,6C,55,3B,
41763505,00000425,false,Rx,0,8,24,52,44,9C,42,04,E1,01,
41763766,00000377,false,Rx,0,8,05,9D,01,C2,3E,3E,3E,22,
41764051,00000398,false,Rx,0,8,01,4A,2C,4B,4C,70,00,00,
41767971,00000109,false,Rx,0,8,00,00,00,00,00,00,00,00,
41768222,00000357,false,Rx,0,8,00,00,00,02,D3,01,00,00,
41773067,00000155,false,Rx,0,8,5E,47,A3,54,27,D8,02,B0,
41776842,00000445,false,Rx,0,7,80,55,55,65,04,82,00,00,
41783097,00000155,false,Rx,0,8,5E,47,A4,54,27,D8,02,B0,
41783759,00000377,false,Rx,0,8,05,9D,01,BD,3E,3E,3E,22,
41793132,00000155,false,Rx,0,8,5E,47,A3,54,27,D8,02,B0,
41793785,0000038A,false,Rx,0,8,3D,3B,00,00,04,00,00,00,
41803082,00000155,false,Rx,0,8,5E,47,A4,54,27,D8,02,B0,
41803762,00000377,false,Rx,0,8,05,9D,01,C2,3E,3E,3E,22,
41813110,00000155,false,Rx,0,8,5E,47,A4,54,27,D8,02,B0,
41813768,00000389,false,Rx,0,8,AB,00,00,3B,3B,40,00,00,
41823120,00000155,false,Rx,0,8,5E,47,A3,54,27,D8,02,B0,
41823762,00000377,false,Rx,0,8,05,9D,01,BD,3E,3E,3E,22,
41833078,00000155,false,Rx,0,8,5E,47,A3,54,27,D8,02,B0,
41833804,00000569,false,Rx,0,8,AA,80,82,02,00,00,00,00,
41843169,00000155,false,Rx,0,8,5E,47,A4,54,27,D8,02,B0,
41843758,00000377,false,Rx,0,8,05,9D,01,BD,3E,3E,3E,22,
41853038,00000155,false,Rx,0,8,5E,47,A4,54,27,D8,02,B0,
41853772,00000568,false,Rx,0,8,00,02,80,0A,00,00,A8,AA,
41858379,00000423,false,Rx,0,8,07,1D,00,02,5D,80,5D,D8,
41858613,00000188,false,Rx,0,8,03,50,A2,4D,00,00,00,00,
41858839,00000285,false,Rx,0,8,00,00,B6,21,90,FE,0C,10,
41859079,00000358,false,Rx,0,8,89,19,56,01,8E,01,00,00,
41863059,00000155,false,Rx,0,8,5E,47,A3,54,27,D8,02,B0,
41863279,00000424,false,Rx,0,8,11,40,56,7C,39,6C,55,3B,
41863504,00000425,false,Rx,0,8,24,52,44,9C,42,04,E1,00,
41863728,000004AE,false,Rx,0,8,D2,B2,3C,A0,88,5A,78,84,
41863969,00000377,false,Rx,0,8,05,9D,01,C2,3E,3E,3E,22,
41864198,00000398,false,Rx,0,8,01,4A,2C,4B,4C,70,00,00,
41864384,000004AF,false,Rx,0,5,65,39,4B,50,00,00,00,00,
41864539,00000659,false,Rx,0,4,2B,33,C4,30,00,00,00,00,
41867967,00000109,false,Rx,0,8,00,00,00,00,00,00,00,00,
41868216,00000357,false,Rx,0,8,00,00,00,02,D3,01,00,00,
41873061,00000155,false,Rx,0,8,5E,47,A4,54,27,D8,02,B0,
41873782,00000563,false,Rx,0,8,AA,AA,AA,AA,82,2A,00,00,
41876815,00000445,false,Rx,0,7,80,55,55,65,04,82,00,00,
41883046,00000155,false,Rx,0,8,5E,47,A3,54,27,D8,02,B0,
41883756,00000377,false,Rx,0,8,05,9D,01,BD,3E,3E,3E,22,
41893082,00000155,false,Rx,0,8,5E,47,A4,54,27,D8,02,B0,
41893780,0000038A,false,Rx,0,8,3D,3B,00,00,04,00,00,00,
41903107,00000155,false,Rx,0,8,5E,47,A4,54,27,D8,02,B0,
41903769,00000377,false,Rx,0,8,05,9D,01,C2,3E,3E,3E,22,
41913112,00000155,false,Rx,0,8,5E,47,A3,54,27,D8,02,B0,
41913771,00000389,false,Rx,0,8,AB,00,00,3B,3B,40,00,00,
41923087,00000155,false,Rx,0,8,5E,47,A3,54,27,D8,02,B0,
41923776,00000377,false,Rx,0,8,05,9D,01,C2,3E,3E,3E,22,
41933206,00000155,false,Rx,0,8,5E,47,A3,54,27,D8,02,B0,
41943075,00000155,false,Rx,0,8,5E,47,A3,54,27,D8,02,B0,
41943768,00000377,false,Rx,0,8,05,9D,01,C2,3E,3E,3E,22,
41949064,00000630,false,Rx,0,8,00,00,00,00,00,00,00,00,
41953045,00000155,false,Rx,0,8,5E,47,A3,54,27,D8,02,B0,
41954063,0000062D,false,Rx,0,8,00,00,00,00,00,00,00,00,
41958364,00000423,false,Rx,0,8,07,1D,00,02,5D,80,5D,D8,
41958603,00000188,false,Rx,0,8,03,50,A2,4D,00,00,00,00,
41958844,00000285,false,Rx,0,8,00,00,B6,21,90,FE,0C,10,
41959085,00000358,false,Rx,0,8,89,19,56,01,8E,01,00,00,
41959319,000006BD,false,Rx,0,8,00,00,00,00,00,00,00,00,
41963065,00000155,false,Rx,0,8,5E,47,A3,54,27,D8,02,B0,
41963275,00000424,false,Rx,0,8,11,40,56,7C,39,6C,55,3B,
41963501,00000425,false,Rx,0,8,24,52,44,9C,42,04,E1,00,
41963768,00000377,false,Rx,0,8,05,9D,01,C2,3E,3E,3E,22,
41964051,00000398,false,Rx,0,8,01,4B,2C,4B,4C,70,00,00,
41967969,00000109,false,Rx,0,8,00,00,00,00,00,00,00,00,
41968214,00000357,false,Rx,0,8,00,00,00,02,D3,01,00,00,
41973050,00000155,false,Rx,0,8,5E,47,A3,54,27,D8,02,B0,
41976819,00000445,false,Rx,0,7,80,55,55,65,04,82,00,00,
41983087,00000155,false,Rx,0,8,5E,47,A3,54,27,D8,02,B0,
41983778,00000377,false,Rx,0,8,05,9D,01,C2,3E,3E,3E,22,
41993150,00000155,false,Rx,0,8,5E,47,A3,54,27,D8,02,B0,
41993783,0000038A,false,Rx,0,8,3D,3B,00,00,04,00,00,00,
42003079,00000155,false,Rx,0,8,5E,47,A3,54,27,D8,02,B0,
42003761,00000377,false,Rx,0,8,05,9D,01,C2,3E,3E,3E,22,
42013103,00000155,false,Rx,0,8,5E,47,A3,54,27,D8,02,AF,
42013773,00000389,false,Rx,0,8,AC,00,00,3B,3B,40,00,00,
42023071,00000155,false,Rx,0,8,5E,47,A3,54,27,D8,02,AF,
42023767,00000377,false,Rx,0,8,05,9D,01,BD,3E,3E,3E,22,
42033067,00000155,false,Rx,0,8,5E,47,A3,54,27,D8,02,AF,
42033783,00000569,false,Rx,0,8,AA,80,82,02,00,00,00,00,
42043072,00000155,false,Rx,0,8,5E,47,A3,54,27,D8,02,AE,
42043765,00000377,false,Rx,0,8,05,9D,01,C2,3E,3E,3E,22,
42053030,00000155,false,Rx,0,8,5E,47,A3,54,27,D8,02,AE,
42053783,00000568,false,Rx,0,8,00,02,80,0A,00,00,A8,AA,
42058362,00000423,false,Rx,0,8,07,1D,00,02,B2,80,B2,D8,
42058602,00000188,false,Rx,0,8,03,50,A2,4D,00,00,00,00,
42058838,00000285,false,Rx,0,8,00,00,B6,21,90,FE,0C,10,
42059068,00000358,false,Rx,0,8,89,19,58,01,8E,01,00,00,
42063040,00000155,false,Rx,0,8,5E,47,A3,54,27,D8,02,AE,
42063269,00000424,false,Rx,0,8,11,40,56,7C,39,6C,AA,3B,
42063506,00000425,false,Rx,0,8,24,52,44,9C,42,04,E1,00,
42063794,00000377,false,Rx,0,8,05,9D,01,C2,3E,3E,3E,22,
42064041,00000398,false,Rx,0,8,01,4C,2D,4B,4C,70,00,00,
42067978,00000109,false,Rx,0,8,00,00,00,00,00,00,00,00,
42068211,00000357,false,Rx,0,8,00,00,00,02,D3,01,00,00,
42073039,00000155,false,Rx,0,8,5E,47,A3,54,27,D8,02,AE,
42073766,00000563,false,Rx,0,8,AA,AA,AA,AA,82,2A,00,00,
42076797,00000445,false,Rx,0,7,80,55,AA,65,04,82,00,00,
42083045,00000155,false,Rx,0,8,5E,47,A3,54,27,D8,02,AE,
42083849,00000377,false,Rx,0,8,05,9D,01,C2,3E,3E,3E,22,
42093217,00000155,false,Rx,0,8,5E,47,A3,54,27,D8,02,AE,
42093792,0000038A,false,Rx,0,8,3D,3B,00,00,04,00,00,00,
42103111,00000155,false,Rx,0,8,5E,47,A3,54,27,D8,02,AE,
42103769,00000377,false,Rx,0,8,05,9D,01,C2,3E,3E,3E,22,
42113102,00000155,false,Rx,0,8,5E,47,A3,54,27,D8,02,AE,
42113772,00000389,false,Rx,0,8,AC,00,00,3B,3B,40,00,00,
42123079,00000155,false,Rx,0,8,5E,47,A2,54,27,D8,02,AE,
42123776,00000377,false,Rx,0,8,05,9D,01,C2,3E,3E,3E,22,
42133098,00000155,false,Rx,0,8,5E,47,A3,54,27,D8,02,AE,
42133784,00000664,false,Rx,0,8,02,83,06,32,F3,00,00,00,
42143067,00000155,false,Rx,0,8,5E,47,A2,54,27,D8,02,AE,
42143769,00000377,false,Rx,0,8,05,9D,01,C2,3E,3E,3E,22,
42153031,00000155,false,Rx,0,8,5E,47,A2,54,27,D8,02,AE,
42153771,00000663,false,Rx,0,8,00,39,34,38,31,41,30,31,
42158360,00000423,false,Rx,0,8,07,1D,00,02,B2,80,B2,D8,
42158600,00000188,false,Rx,0,8,03,50,A2,4D,00,00,00,00,
42158850,00000285,false,Rx,0,8,00,00,B6,21,90,FE,0C,10,
42159067,00000358,false,Rx,0,8,89,19,58,01,8E,01,00,00,
42163031,00000155,false,Rx,0,8,5E,47,A2,54,27,D8,02,AE,
42163266,00000424,false,Rx,0,8,11,40,56,7C,39,6C,AA,3B,
42163500,00000425,false,Rx,0,8,24,52,44,9C,42,02,E1,00,
42163774,00000377,false,Rx,0,8,05,9D,01,C2,3E,3E,3E,22,
42164042,00000398,false,Rx,0,8,01,4C,2D,4B,4C,70,00,00,
42167991,00000109,false,Rx,0,8,00,00,00,00,00,00,00,00,
42168229,00000357,false,Rx,0,8,00,00,00,02,D3,01,00,00,
42173034,00000155,false,Rx,0,8,5E,47,A3,54,27,D8,02,AE,
42176786,00000445,false,Rx,0,7,80,55,AA,65,04,82,00,00,
42183045,00000155,false,Rx,0,8,5E,47,A2,54,27,D8,02,AE,
42183769,00000377,false,Rx,0,8,05,9D,01,C2,3E,3E,3E,22,
42193122,00000155,false,Rx,0,8,5E,47,A2,54,27,D8,02,AE,
42193784,0000038A,false,Rx,0,8,3D,3B,00,00,04,00,00,00,
42203064,00000155,false,Rx,0,8,5E,47,A2,54,27,D8,02,AE,
42203768,00000377,false,Rx,0,8,05,9D,01,BD,3E,3E,3E,22,
42213072,00000155,false,Rx,0,8,5E,47,A2,54,27,D8,02,AE,
42213772,00000389,false,Rx,0,8,AB,00,00,3B,3B,40,00,00,
42223142,00000155,false,Rx,0,8,5E,47,A2,54,27,D8,02,AE,
42223773,00000377,false,Rx,0,8,05,9D,01,C2,3E,3E,3E,22,
42233064,00000155,false,Rx,0,8,5E,47,A2,54,27,D8,02,AE,
42233791,00000569,false,Rx,0,8,AA,80,82,02,00,00,00,00,
42243029,00000155,false,Rx,0,8,5E,47,A2,54,27,D8,02,AE,
42243774,00000377,false,Rx,0,8,05,9F,01,C2,3E,3E,3E,22,
42253025,00000155,false,Rx,0,8,5E,47,A2,54,27,D8,02,AE,
42253787,00000568,false,Rx,0,8,00,02,80,0A,00,00,A8,AA,
42258357,00000423,false,Rx,0,8,07,1D,00,02,B2,80,B2,D8,
42258603,00000188,false,Rx,0,8,03,50,A2,4D,00,00,00,00,
42258830,00000285,false,Rx,0,8,00,00,B6,21,90,FE,0C,10,
42259063,00000358,false,Rx,0,8,89,19,56,01,8E,01,00,00,
42263027,00000155,false,Rx,0,8,5E,47,A2,54,27,D8,02,AE,
42263265,00000424,false,Rx,0,8,11,40,56,7C,39,6C,AA,3B,
42263488,00000425,false,Rx,0,8,24,52,44,9C,42,04,E1,00,
42263781,00000377,false,Rx,0,8,05,9F,01,C2,3E,3E,3E,22,
42264037,00000398,false,Rx,0,8,01,4D,2D,4B,4C,70,00,00,
42267989,00000109,false,Rx,0,8,00,00,00,00,00,00,00,00,
42268201,00000357,false,Rx,0,8,00,00,00,02,D3,01,00,00,
42273056,00000155,false,Rx,0,8,5E,47,A2,54,27,D8,02,AE,
42273774,00000563,false,Rx,0,8,AA,AA,AA,AA,82,2A,00,00,
42276776,00000445,false,Rx,0,7,80,55,AA,65,04,82,00,00,
42283029,00000155,false,Rx,0,8,5E,47,A2,54,27,D8,02,AE,
42283791,00000377,false,Rx,0,8,05,9F,01,C2,3E,3E,3E,22,
42293179,00000155,false,Rx,0,8,5E,47,A2,54,27,D8,02,AE,
42293783,0000038A,false,Rx,0,8,3D,3B,00,00,04,00,00,00,
42303100,00000155,false,Rx,0,8,5E,47,A2,54,27,D8,02,AE,
42303773,00000377,false,Rx,0,8,05,9F,01,C2,3E,3E,3E,22,
42313058,00000155,false,Rx,0,8,5E,47,A2,54,27,D8,02,AE,
42313775,00000389,false,Rx,0,8,AB,00,00,3B,3B,40,00,00,
42323064,00000155,false,Rx,0,8,5E,47,A2,54,27,D8,02,AE,
42323771,00000377,false,Rx,0,8,05,9D,01,C2,3E,3E,3E,22,
42333094,00000155,false,Rx,0,8,5E,47,A2,54,27,D8,02,AE,
42343055,00000155,false,Rx,0,8,5E,47,A1,54,27,D8,02,AE,
42343813,00000377,false,Rx,0,8,05,9D,01,C2,3E,3E,3E,22,
42353148,00000155,false,Rx,0,8,5E,47,A2,54,27,D8,02,AE,
42358352,00000423,false,Rx,0,8,07,1D,00,02,B2,80,B2,D8,
42358595,00000188,false,Rx,0,8,03,50,A2,4D,00,00,00,00,
42358826,00000285,false,Rx,0,8,00,00,B6,21,90,FE,0C,10,
42359068,00000358,false,Rx,0,8,89,19,56,01,8E,01,00,00,
42361558,000007DF,false,Rx,0,8,03,2A,07,DC,55,55,55,55,
42361842,000007E8,false,Rx,0,8,07,6A,07,DC,FF,FF,FE,80,
42363050,00000155,false,Rx,0,8,5E,47,A1,54,27,D8,02,AE,
42363286,00000424,false,Rx,0,8,11,40,56,7C,39,6C,AA,3B,
42363508,00000425,false,Rx,0,8,24,52,44,9C,42,04,E1,00,
42363789,00000766,false,Rx,0,8,03,7F,2A,80,FF,FF,FF,FF,
42364027,00000377,false,Rx,0,8,05,9D,01,BD,3E,3E,3E,22,
42364266,00000398,false,Rx,0,8,01,4E,2E,4B,4C,70,00,00,
42367981,00000109,false,Rx,0,8,00,00,00,00,00,00,00,00,
42368202,00000357,false,Rx,0,8,00,00,00,02,D3,01,00,00,
42373134,00000155,false,Rx,0,8,5E,47,A2,54,27,D8,02,AE,
42376822,00000445,false,Rx,0,7,80,55,AA,65,04,82,00,00,
42383150,00000155,false,Rx,0,8,5E,47,A2,54,27,D8,02,AE,
42383776,00000377,false,Rx,0,8,05,9D,01,BD,3E,3E,3E,22,
42393194,00000155,false,Rx,0,8,5E,47,A2,54,27,D8,02,AE,
42393792,0000038A,false,Rx,0,8,3D,3B,00,00,04,00,00,00,
42403050,00000155,false,Rx,0,8,5E,47,A1,54,27,D8,02,AE,
42403774,00000377,false,Rx,0,8,05,9D,01,BD,3E,3E,3E,22,
42413086,00000155,false,Rx,0,8,5E,47,A1,54,27,D8,02,AE,
42413774,00000389,false,Rx,0,8,AB,00,00,3B,3B,40,00,00,
42423108,00000155,false,Rx,0,8,5E,47,A1,54,27,D8,02,AE,
42423813,00000377,false,Rx,0,8,05,9D,01,C2,3E,3E,3E,22,
42433060,00000155,false,Rx,0,8,5E,47,A2,54,27,D8,02,AE,
42433795,00000569,false,Rx,0,8,AA,80,82,02,00,00,00,00,
42443020,00000155,false,Rx,0,8,5E,47,A2,54,27,D8,02,AE,
42443775,00000377,false,Rx,0,8,05,9D,01,BD,3E,3E,3E,22,
42449050,00000630,false,Rx,0,8,00,00,00,00,00,00,00,00,
42453014,00000155,false,Rx,0,8,5E,47,A1,54,27,D8,02,AE,
42453786,00000568,false,Rx,0,8,00,02,80,0A,00,00,A8,AA,
42454058,0000062D,false,Rx,0,8,00,00,00,00,00,00,00,00,
42458358,00000423,false,Rx,0,8,07,1D,00,02,B2,80,B2,D8,
42458598,00000188,false,Rx,0,8,03,50,A2,4D,00,00,00,00,
42458825,00000285,false,Rx,0,8,00,00,B6,21,90,FE,0C,10,
42459059,00000358,false,Rx,0,8,89,19,56,01,8E,01,00,00,
42459345,000006BD,false,Rx,0,8,00,00,00,00,00,00,00,00,
42463015,00000155,false,Rx,0,8,5E,47,A1,54,27,D8,02,AE,
42463257,00000424,false,Rx,0,8,11,40,56,7C,39,6C,AA,3B,
42463480,00000425,false,Rx,0,8,24,52,44,9C,42,02,E1,00,
42463785,00000377,false,Rx,0,8,05,9D,01,C2,3E,3E,3E,22,
42464033,00000398,false,Rx,0,8,01,4F,2F,4B,4C,70,00,00,
42467954,00000109,false,Rx,0,8,00,00,00,00,00,00,00,00,
42468202,00000357,false,Rx,0,8,00,00,00,02,D3,01,00,00,
42473052,00000155,false,Rx,0,8,5E,47,A2,54,27,D8,02,AE,
42473797,00000563,false,Rx,0,8,AA,AA,AA,AA,82,2A,00,00,
42476763,00000445,false,Rx,0,7,80,55,AA,65,04,82,00,00,
42483026,00000155,false,Rx,0,8,5E,47,A1,54,27,D8,02,AE,
42483791,00000377,false,Rx,0,8,05,9D,01,C2,3E,3E,3E,22,
42493204,00000155,false,Rx,0,8,5E,47,A1,54,27,D8,02,AE,
42493812,0000038A,false,Rx,0,8,3D,3B,00,00,04,00,00,00,
42503136,00000155,false,Rx,0,8,5E,47,A1,54,27,D8,02,AE,
42503780,00000377,false,Rx,0,8,05,9D,01,C2,3E,3E,3E,22,
42513048,00000155,false,Rx,0,8,5E,47,A1,54,27,D8,02,AE,
42513782,00000389,false,Rx,0,8,AB,00,00,3B,3B,40,00,00,
42523052,00000155,false,Rx,0,8,5E,47,A1,54,27,D8,02,AE,
42523778,00000377,false,Rx,0,8,05,9D,01,C2,3E,3E,3E,22,
42533085,00000155,false,Rx,0,8,5E,47,A0,54,27,D8,02,AE,
42543089,00000155,false,Rx,0,8,5E,47,A0,54,27,D8,02,AE,
42543780,00000377,false,Rx,0,8,05,9D,01,BD,3E,3E,3E,22,
42553011,00000155,false,Rx,0,8,5E,47,A1,54,27,D8,02,AE,
42558346,00000423,false,Rx,0,8,07,1D,00,02,5D,80,5D,D8,
42558593,00000188,false,Rx,0,8,03,50,A2,4D,00,00,00,00,
42558819,00000285,false,Rx,0,8,00,00,B6,21,90,FE,0C,10,
42559057,00000358,false,Rx,0,8,89,19,56,01,8E,01,00,00,
42563012,00000155,false,Rx,0,8,5E,47,A0,54,27,D8,02,AE,
42563251,00000424,false,Rx,0,8,11,40,56,7C,39,6C,55,3B,
42563476,00000425,false,Rx,0,8,24,52,44,9C,42,02,E1,00,
42563784,00000377,false,Rx,0,8,05,9D,01,C2,3E,3E,3E,22,
42564035,00000398,false,Rx,0,8,01,4F,2F,4B,4C,70,00,00,
42567949,00000109,false,Rx,0,8,00,00,00,00,00,00,00,00,
42568200,00000357,false,Rx,0,8,00,00,00,02,D3,01,00,00,
42573020,00000155,false,Rx,0,8,5E,47,A1,54,27,D8,02,AE,
42576773,00000445,false,Rx,0,7,80,55,55,65,04,82,00,00,
42583035,00000155,false,Rx,0,8,5E,47,A1,54,27,D8,02,AE,
42583773,00000377,false,Rx,0,8,05,9D,01,BD,3E,3E,3E,22,
42593076,00000155,false,Rx,0,8,5E,47,A1,54,27,D8,02,AE,
42593801,0000038A,false,Rx,0,8,3D,3B,00,00,04,00,00,00,
42603220,00000155,false,Rx,0,8,5E,47,A1,54,27,D8,02,AE,
42603795,00000377,false,Rx,0,8,05,9D,01,BD,3E,3E,3E,22,
42613110,00000155,false,Rx,0,8,5E,47,A1,54,27,D8,02,AE,
42613787,00000389,false,Rx,0,8,AB,00,00,3B,3B,40,00,00,
42623091,00000155,false,Rx,0,8,5E,47,A1,54,27,D8,02,AE,
42623773,00000377,false,Rx,0,8,05,9D,01,BD,3E,3E,3E,22,
42633042,00000155,false,Rx,0,8,5E,47,A1,54,27,D8,02,AE,
42633795,00000569,false,Rx,0,8,AA,80,82,02,00,00,00,00,
42634055,00000664,false,Rx,0,8,02,83,06,32,F3,00,00,00,
42643008,00000155,false,Rx,0,8,5E,47,A1,54,27,D8,02,AE,
42643778,00000377,false,Rx,0,8,05,9D,01,C2,3E,3E,3E,22,
42653007,00000155,false,Rx,0,8,5E,47,A1,54,27,D8,02,AE,
42653788,00000568,false,Rx,0,8,00,02,80,0A,00,00,A8,AA,
42654055,00000663,false,Rx,0,8,01,33,30,30,00,00,00,00,
42658344,00000423,false,Rx,0,8,07,1D,00,02,5D,80,5D,D8,
42658586,00000188,false,Rx,0,8,03,50,A2,4D,00,00,00,00,
42658823,00000285,false,Rx,0,8,00,00,B6,21,90,FE,0C,10,
42659053,00000358,false,Rx,0,8,89,19,56,01,8E,01,00,00,
42663009,00000155,false,Rx,0,8,5E,47,A1,54,27,D8,02,AE,
42663244,00000424,false,Rx,0,8,11,40,56,7C,39,6C,55,3B,
42663471,00000425,false,Rx,0,8,24,52,44,9C,42,02,E1,00,
42663796,00000377,false,Rx,0,8,05,9D,01,C2,3E,3E,3E,22,
42664032,00000398,false,Rx,0,8,01,50,2F,4B,4C,70,00,00,
42668000,00000109,false,Rx,0,8,00,00,00,00,00,00,00,00,
42668188,00000357,false,Rx,0,8,00,00,00,02,D3,01,00,00,
42673035,00000155,false,Rx,0,8,5E,47,A0,54,27,D8,02,AE,
42673781,00000563,false,Rx,0,8,AA,AA,AA,AA,82,2A,00,00,
42676770,00000445,false,Rx,0,7,80,55,55,65,04,82,00,00,
42683043,00000155,false,Rx,0,8,5E,47,A0,54,27,D8,02,AE,
42683779,00000377,false,Rx,0,8,05,9F,01,BD,3E,3E,3E,22,
42693062,00000155,false,Rx,0,8,5E,47,A0,54,27,D8,02,AE,
42693798,0000038A,false,Rx,0,8,3D,3B,00,00,04,00,00,00,
42703130,00000155,false,Rx,0,8,5E,47,A0,54,27,D8,02,AE,
42703773,00000377,false,Rx,0,8,05,9D,01,BD,3E,3E,3E,22,
42713040,00000155,false,Rx,0,8,5E,47,A0,54,27,D8,02,AE,
42713783,00000389,false,Rx,0,8,AB,00,00,3B,3B,40,00,00,
42723044,00000155,false,Rx,0,8,5E,47,A0,54,27,D8,02,AE,
42723780,00000377,false,Rx,0,8,05,9D,01,BD,3E,3E,3E,22,
42733078,00000155,false,Rx,0,8,5E,47,A0,54,27,D8,02,AE,
42743048,00000155,false,Rx,0,8,5E,47,A0,54,27,D8,02,AE,
42743776,00000377,false,Rx,0,8,05,9D,01,C2,3E,3E,3E,22,
42753004,00000155,false,Rx,0,8,5E,47,A0,54,27,D8,02,AE,
42758342,00000423,false,Rx,0,8,07,1D,00,02,5D,80,5D,D8,
42758586,00000188,false,Rx,0,8,03,50,A2,4D,00,00,00,00,
42758815,00000285,false,Rx,0,8,00,00,B6,21,90,FE,0C,10,
42759053,00000358,false,Rx,0,8,89,19,56,01,8E,01,00,00,
42763005,00000155,false,Rx,0,8,5E,47,A0,54,27,D8,02,AE,
42763244,00000424,false,Rx,0,8,11,40,56,7C,39,6C,55,3B,
42763468,00000425,false,Rx,0,8,24,52,44,9C,42,02,E1,00,
42763783,00000377,false,Rx,0,8,05,9D,01,C2,3E,3E,3E,22,
42764033,00000398,false,Rx,0,8,01,52,30,4B,4C,70,00,00,
42767942,00000109,false,Rx,0,8,00,00,00,00,00,00,00,00,
42768195,00000357,false,Rx,0,8,00,00,00,02,D3,01,00,00,
42773011,00000155,false,Rx,0,8,5E,47,A0,54,27,D8,02,AE,
42776757,00000445,false,Rx,0,7,80,55,55,65,04,82,00,00,
42783045,00000155,false,Rx,0,8,5E,47,A0,54,27,D8,02,AE,
42783775,00000377,false,Rx,0,8,05,9D,01,BD,3E,3E,3E,22,
42793086,00000155,false,Rx,0,8,5E,47,A0,54,27,D8,02,AE,
42793804,0000038A,false,Rx,0,8,3D,3B,00,00,04,00,00,00,
42803108,00000155,false,Rx,0,8,5E,47,A0,54,27,D8,02,AE,
42803782,00000377,false,Rx,0,8,05,9D,01,BD,3E,3E,3E,22,
42813071,00000155,false,Rx,0,8,5E,47,A0,54,27,D8,02,AE,
42813790,00000389,false,Rx,0,8,AB,00,00,3B,3B,40,00,00,
42823040,00000155,false,Rx,0,8,5E,47,A0,54,27,D8,02,AE,
42823777,00000377,false,Rx,0,8,05,9D,01,BD,3E,3E,3E,22,
42833035,00000155,false,Rx,0,8,5E,47,A0,54,27,D8,02,AE,
42833801,00000569,false,Rx,0,8,AA,80,82,02,00,00,00,00,
42843005,00000155,false,Rx,0,8,5E,47,9F,54,27,D8,02,AE,
42843785,00000377,false,Rx,0,8,05,9D,01,C2,3E,3E,3E,22,
42853001,00000155,false,Rx,0,8,5E,47,9F,54,27,D8,02,AE,
42853837,00000568,false,Rx,0,8,00,02,80,0A,00,00,A8,AA,
42858452,00000423,false,Rx,0,8,07,1D,00,02,5D,80,5D,D8,
42858578,00000188,false,Rx,0,8,03,50,A2,4D,00,00,00,00,
42858816,00000285,false,Rx,0,8,00,00,B6,21,90,FE,0C,10,
42859065,00000358,false,Rx,0,8,89,19,56,01,8E,01,00,00,
42863012,00000155,false,Rx,0,8,5E,47,9F,54,27,D8,02,AE,
42863240,00000424,false,Rx,0,8,11,40,56,7C,39,6C,55,3B,
42863466,00000425,false,Rx,0,8,24,52,44,9C,42,02,E1,00,
42863785,00000377,false,Rx,0,8,05,9D,01,C2,3E,3E,3E,22,
42864024,00000398,false,Rx,0,8,01,53,31,4B,4C,70,00,00,
42867940,00000109,false,Rx,0,8,00,00,00,00,00,00,00,00,
42868191,00000357,false,Rx,0,8,00,00,00,02,D3,01,00,00,
42873011,00000155,false,Rx,0,8,5E,47,9F,54,27,D8,02,AE,
42873785,00000563,false,Rx,0,8,AA,AA,AA,AA,82,2A,00,00,
42876748,00000445,false,Rx,0,7,80,55,55,65,04,82,00,00,
42883020,00000155,false,Rx,0,8,5E,47,9F,54,27,D8,02,AE,
42883799,00000377,false,Rx,0,8,05,9F,01,C2,3E,3E,3E,22,
42893091,00000155,false,Rx,0,8,5E,47,9F,54,27,D8,02,AE,
42893799,0000038A,false,Rx,0,8,3D,3B,00,00,04,00,00,00,
42903089,00000155,false,Rx,0,8,5E,47,9F,54,27,D8,02,AE,
42903788,00000377,false,Rx,0,8,05,9D,01,C2,3E,3E,3E,22,
42913108,00000155,false,Rx,0,8,5E,47,9F,54,27,D8,02,AE,
42913792,00000389,false,Rx,0,8,AB,00,00,3B,3B,40,00,00,
42923050,00000155,false,Rx,0,8,5E,47,9F,54,27,D8,02,AE,
42923786,00000377,false,Rx,0,8,05,9D,01,C2,3E,3E,3E,22,
42933160,00000155,false,Rx,0,8,5E,47,9F,54,27,D8,02,AE,
42943034,00000155,false,Rx,0,8,5E,47,9F,54,27,D8,02,AE,
42943790,00000377,false,Rx,0,8,05,9D,01,C2,3E,3E,3E,22,
42949054,00000630,false,Rx,0,8,00,00,00,00,00,00,00,00,
42952998,00000155,false,Rx,0,8,5E,47,9F,54,27,D8,02,AE,
42954041,0000062D,false,Rx,0,8,00,00,00,00,00,00,00,00,
42958341,00000423,false,Rx,0,8,07,1D,00,02,5D,80,5D,D8,
42958578,00000188,false,Rx,0,8,03,50,A2,4D,00,00,00,00,
42958824,00000285,false,Rx,0,8,00,00,B6,21,90,FE,0C,10,
42959052,00000358,false,Rx,0,8,89,19,56,01,8E,01,00,00,
42959295,000006BD,false,Rx,0,8,00,00,00,00,00,00,00,00,
42963004,00000155,false,Rx,0,8,5E,47,9F,54,27,D8,02,AE,
42963237,00000424,false,Rx,0,8,11,40,56,7C,39,6C,55,3B,
42963460,00000425,false,Rx,0,8,24,52,44,9C,42,04,E1,00,
42963787,00000377,false,Rx,0,8,05,9D,01,C2,3E,3E,3E,22,
42964031,00000398,false,Rx,0,8,01,53,31,4B,4C,70,00,00,
42967939,00000109,false,Rx,0,8,00,00,00,00,00,00,00,00,
42968186,00000357,false,Rx,0,8,00,00,00,02,D3,01,00,00,
42973005,00000155,false,Rx,0,8,5E,47,9F,54,27,D8,02,AE,
42976738,00000445,false,Rx,0,7,80,55,55,65,04,82,00,00,
42983003,00000155,false,Rx,0,8,5E,47,9F,54,27,D8,02,AE,
42983796,00000377,false,Rx,0,8,05,9D,01,C2,3E,3E,3E,22,
42993096,00000155,false,Rx,0,8,5E,47,9F,54,27,D8,02,AE,
42993802,0000038A,false,Rx,0,8,3D,3B,00,00,04,00,00,00,
43003049,00000155,false,Rx,0,8,5E,47,9F,54,27,D8,02,AE,
43003788,00000377,false,Rx,0,8,05,9D,01,C2,3E,3E,3E,22,
43013095,00000155,false,Rx,0,8,5E,47,9F,54,27,D8,02,AE,
43013794,00000389,false,Rx,0,8,AB,00,00,3B,3B,40,00,00,
43023072,00000155,false,Rx,0,8,5E,47,9F,54,27,D8,02,AE,
43023786,00000377,false,Rx,0,8,05,9D,01,BD,3E,3E,3E,22,
43033026,00000155,false,Rx,0,8,5E,47,9E,54,27,D8,02,AF,
43033810,00000569,false,Rx,0,8,AA,80,82,02,00,00,00,00,
43043069,00000155,false,Rx,0,8,5E,47,9F,54,27,D8,02,AF,
43043792,00000377,false,Rx,0,8,05,9F,01,C2,3E,3E,3E,22,
43052993,00000155,false,Rx,0,8,5E,47,9F,54,27,D8,02,AF,
43053800,00000568,false,Rx,0,8,00,02,80,0A,00,00,A8,AA,
43058338,00000423,false,Rx,0,8,07,1D,00,02,5D,80,5D,D8,
43058582,00000188,false,Rx,0,8,03,50,A2,4D,00,00,00,00,
43058812,00000285,false,Rx,0,8,00,00,B6,21,90,FE,0C,10,
43059045,00000358,false,Rx,0,8,89,19,56,01,8E,01,00,00,
43062991,00000155,false,Rx,0,8,5E,47,9E,54,27,D8,02,AF,
43063231,00000424,false,Rx,0,8,11,40,56,7C,39,6C,55,3B,
43063454,00000425,false,Rx,0,8,24,52,44,9C,42,02,E1,00,
43063791,00000377,false,Rx,0,8,05,9D,01,C2,3E,3E,3E,22,
43064024,00000398,false,Rx,0,8,01,54,32,4B,4C,70,00,00,
43067937,00000109,false,Rx,0,8,00,00,00,00,00,00,00,00,
43068184,00000357,false,Rx,0,8,00,00,00,02,D3,01,00,00,
43072999,00000155,false,Rx,0,8,5E,47,9F,54,27,D8,02,AF,
43073795,00000563,false,Rx,0,8,AA,AA,AA,AA,82,2A,00,00,
43076725,00000445,false,Rx,0,7,80,55,55,65,04,82,00,00,
43082997,00000155,false,Rx,0,8,5E,47,9F,54,27,D8,02,AF,
43083789,00000377,false,Rx,0,8,05,9D,01,C2,3E,3E,3E,22,
43093060,00000155,false,Rx,0,8,5E,47,9F,54,27,D8,02,AF,
43093810,0000038A,false,Rx,0,8,3D,3B,00,00,04,00,00,00,
43103095,00000155,false,Rx,0,8,5E,47,9F,54,27,D8,02,AF,
43103826,00000377,false,Rx,0,8,05,9D,01,BD,3E,3E,3E,22,
43113165,00000155,false,Rx,0,8,5E,47,9F,54,27,D8,02,AF,
43113793,00000389,false,Rx,0,8,AB,00,00,3B,3B,40,00,00,
43123076,00000155,false,Rx,0,8,5E,47,9E,54,27,D8,02,B0,
43123803,00000377,false,Rx,0,8,05,9D,01,C2,3E,3E,3E,22,
43133057,00000155,false,Rx,0,8,5E,47,9E,54,27,D8,02,B0,
43133797,00000664,false,Rx,0,8,02,83,06,32,F3,00,00,00,
43143060,00000155,false,Rx,0,8,5E,47,9E,54,27,D8,02,B0,
43143790,00000377,false,Rx,0,8,05,9D,01,C2,3E,3E,3E,22,
43152988,00000155,false,Rx,0,8,5E,47,9E,54,27,D8,02,B0,
43153807,00000663,false,Rx,0,8,02,00,00,00,00,00,00,00,
43158336,00000423,false,Rx,0,8,07,1D,00,02,B2,80,B2,D8,
43158574,00000188,false,Rx,0,8,03,50,A2,4D,00,00,00,00,
43158816,00000285,false,Rx,0,8,00,00,B6,21,90,FE,0C,10,
43159040,00000358,false,Rx,0,8,89,19,56,01,8E,01,00,00,
43162988,00000155,false,Rx,0,8,5E,47,9E,54,27,D8,02,B0,
43163224,00000424,false,Rx,0,8,11,40,56,7C,39,6C,AA,3B,
43163451,00000425,false,Rx,0,8,24,52,44,9C,42,02,E1,00,
43163807,00000377,false,Rx,0,8,05,9D,01,BD,3E,3E,3E,22,
43164029,00000398,false,Rx,0,8,01,56,32,4B,4C,70,00,00,
43167932,00000109,false,Rx,0,8,00,00,00,00,00,00,00,00,
43168180,00000357,false,Rx,0,8,00,00,00,02,D3,01,00,00,
43172996,00000155,false,Rx,0,8,5E,47,9E,54,27,D8,02,B0,
43176758,00000445,false,Rx,0,7,80,55,AA,65,04,82,00,00,
43182999,00000155,false,Rx,0,8,5E,47,9E,54,27,D8,02,B0,
43183790,00000377,false,Rx,0,8,05,9D,01,C2,3E,3E,3E,22,
43193057,00000155,false,Rx,0,8,5E,47,9E,54,27,D8,02,B0,
43193811,0000038A,false,Rx,0,8,3D,3B,00,00,04,00,00,00,
43203028,00000155,false,Rx,0,8,5E,47,9E,54,27,D8,02,B0,
43203790,00000377,false,Rx,0,8,05,9F,01,BD,3E,3E,3E,22,
43213123,00000155,false,Rx,0,8,5E,47,9E,54,27,D8,02,B0,
43213794,00000389,false,Rx,0,8,AB,00,00,3B,3B,40,00,00,
43223023,00000155,false,Rx,0,8,5E,47,9E,54,27,D8,02,B0,
43223789,00000377,false,Rx,0,8,05,9D,01,BD,3E,3E,3E,22,
43233021,00000155,false,Rx,0,8,5E,47,9E,54,27,D8,02,B0,
43233817,00000569,false,Rx,0,8,AA,80,82,02,00,00,00,00,
43242986,00000155,false,Rx,0,8,5E,47,9E,54,27,D8,02,B0,
43243792,00000377,false,Rx,0,8,05,9D,01,C2,3E,3E,3E,22,
43252984,00000155,false,Rx,0,8,5E,47,9E,54,27,D8,02,B0,
43253799,00000568,false,Rx,0,8,00,02,80,0A,00,00,A8,AA,
43258333,00000423,false,Rx,0,8,07,1D,00,02,B2,80,B2,D8,
43258573,00000188,false,Rx,0,8,03,50,A2,4D,00,00,00,00,
43258806,00000285,false,Rx,0,8,00,00,B6,21,90,FE,0C,10,
43259063,00000358,false,Rx,0,8,89,19,56,01,8E,01,00,00,
43262984,00000155,false,Rx,0,8,5E,47,9E,54,27,D8,02,AF,
43263223,00000424,false,Rx,0,8,11,40,56,7C,39,6C,AA,3B,
43263448,00000425,false,Rx,0,8,24,52,44,9C,42,02,E1,00,
43263792,00000377,false,Rx,0,8,05,9D,01,C2,3E,3E,3E,22,
43264034,00000398,false,Rx,0,8,01,57,33,4B,4C,70,00,00,
43267929,00000109,false,Rx,0,8,00,00,00,00,00,00,00,00,
43268178,00000357,false,Rx,0,8,00,00,00,02,D3,01,00,00,
43272991,00000155,false,Rx,0,8,5E,47,9D,54,27,D8,02,B0,
43273792,00000563,false,Rx,0,8,AA,AA,AA,AA,82,2A,00,00,
43276705,00000445,false,Rx,0,7,80,55,AA,65,04,82,00,00,
43282986,00000155,false,Rx,0,8,5E,47,9D,54,27,D8,02,B0,
43283792,00000377,false,Rx,0,8,05,9D,01,C2,3E,3E,3E,22,
43293093,00000155,false,Rx,0,8,5E,47,9D,54,27,D8,02,B0,
43293829,0000038A,false,Rx,0,8,3D,3B,00,00,04,00,00,00,
43303059,00000155,false,Rx,0,8,5E,47,9D,54,27,D8,02,B0,
43303795,00000377,false,Rx,0,8,05,9D,01,C2,3E,3E,3E,22,
43313070,00000155,false,Rx,0,8,5E,47,9D,54,27,D8,02,B0,
43313834,00000389,false,Rx,0,8,AB,00,00,3B,3B,40,00,00,
43323023,00000155,false,Rx,0,8,5E,47,9D,54,27,D8,02,B0,
43323793,00000377,false,Rx,0,8,05,9D,01,BD,3E,3E,3E,22,
43333049,00000155,false,Rx,0,8,5E,47,9D,54,27,D8,02,AF,
43343015,00000155,false,Rx,0,8,5E,47,9D,54,27,D8,02,B0,
43343795,00000377,false,Rx,0,8,05,9D,01,BD,3E,3E,3E,22,
43352979,00000155,false,Rx,0,8,5E,47,9D,54,27,D8,02,B0,
43358469,00000423,false,Rx,0,8,07,1D,00,02,B2,80,B2,D8,
43358562,00000188,false,Rx,0,8,03,50,A2,4D,00,00,00,00,
43358812,00000285,false,Rx,0,8,00,00,B6,21,90,FE,0C,10,
43359043,00000358,false,Rx,0,8,89,19,56,01,8E,01,00,00,
43361563,000007DF,false,Rx,0,8,03,2A,07,D2,55,55,55,55,
43361839,000007E8,false,Rx,0,8,07,6A,07,D2,00,00,00,20,
43363025,00000155,false,Rx,0,8,5E,47,9D,54,27,D8,02,B0,
43363269,00000424,false,Rx,0,8,11,40,56,7C,39,6C,AA,3B,
43363484,00000425,false,Rx,0,8,24,52,44,9C,42,02,E1,00,
43363819,00000766,false,Rx,0,8,03,7F,2A,80,FF,FF,FF,FF,
43364063,00000398,false,Rx,0,8,01,58,34,4B,4C,70,00,00,
43364299,00000377,false,Rx,0,8,05,9D,01,C2,3E,3E,3E,22,
43367927,00000109,false,Rx,0,8,00,00,00,00,00,00,00,00,
43368176,00000357,false,Rx,0,8,00,00,00,02,D3,01,00,00,
43373089,00000155,false,Rx,0,8,5E,47,9D,54,27,D8,02,AF,
43376745,00000445,false,Rx,0,7,80,55,AA,65,04,82,00,00,
43383110,00000155,false,Rx,0,8,5E,47,9D,54,27,D8,02,B0,
43383839,00000377,false,Rx,0,8,05,9D,01,BD,3E,3E,3E,22,
43393032,00000155,false,Rx,0,8,5E,47,9D,54,27,D8,02,B0,
43393822,0000038A,false,Rx,0,8,3D,3B,00,00,04,00,00,00,
43403032,00000155,false,Rx,0,8,5E,47,9D,54,27,D8,02,B0,
43403802,00000377,false,Rx,0,8,05,9D,01,BD,3E,3E,3E,22,
43413066,00000155,false,Rx,0,8,5E,47,9D,54,27,D8,02,B0,
43413803,00000389,false,Rx,0,8,AB,00,00,3B,3B,40,00,00,
43423076,00000155,false,Rx,0,8,5E,47,9D,54,27,D8,02,B0,
43423798,00000377,false,Rx,0,8,05,9D,01,C2,3E,3E,3E,22,
43433011,00000155,false,Rx,0,8,5E,47,9D,54,27,D8,02,B0,
43433814,00000569,false,Rx,0,8,AA,80,82,02,00,00,00,00,
43442979,00000155,false,Rx,0,8,5E,47,9D,54,27,D8,02,B0,
43443795,00000377,false,Rx,0,8,05,9F,01,BD,3E,3E,3E,22,
43449027,00000630,false,Rx,0,8,00,00,00,00,00,00,00,00,
43452973,00000155,false,Rx,0,8,5E,47,9D,54,27,D8,02,AF,
43453807,00000568,false,Rx,0,8,00,02,80,0A,00,00,A8,AA,
43454060,0000062D,false,Rx,0,8,00,00,00,00,00,00,00,00,
43458329,00000423,false,Rx,0,8,07,1D,00,02,B2,80,B2,D8,
43458569,00000188,false,Rx,0,8,03,50,A2,4D,00,00,00,00,
43458803,00000285,false,Rx,0,8,00,00,B6,21,90,FE,0C,10,
43459036,00000358,false,Rx,0,8,89,19,56,01,8E,01,00,00,
43459289,000006BD,false,Rx,0,8,00,00,00,00,00,00,00,00,
43462974,00000155,false,Rx,0,8,5E,47,9D,54,27,D8,02,B0,
43463217,00000424,false,Rx,0,8,11,40,56,7C,39,6C,AA,3B,
43463437,00000425,false,Rx,0,8,24,52,44,9C,42,02,E1,00,
43463797,00000377,false,Rx,0,8,05,9D,01,C2,3E,3E,3E,22,
43464043,00000398,false,Rx,0,8,01,58,34,4B,4C,70,00,00,
43467927,00000109,false,Rx,0,8,00,00,00,00,00,00,00,00,
43468173,00000357,false,Rx,0,8,00,00,00,02,D3,01,00,00,
43473037,00000155,false,Rx,0,8,5E,47,9C,54,27,D8,02,B0,
43473817,00000563,false,Rx,0,8,AA,AA,AA,AA,82,2A,00,00,
43476680,00000445,false,Rx,0,7,80,55,AA,65,04,82,00,00,
43482992,00000155,false,Rx,0,8,5E,47,9C,54,27,D8,02,B0,
43483796,00000377,false,Rx,0,8,05,9F,01,BD,3E,3E,3E,22,
43493284,00000155,false,Rx,0,8,5E,47,9D,54,27,D8,02,B0,
43493817,0000038A,false,Rx,0,8,3D,3B,00,00,04,00,00,00,
43503092,00000155,false,Rx,0,8,5E,47,9C,54,27,D8,02,B0,
43503803,00000377,false,Rx,0,8,05,9F,01,C2,3E,3E,3E,22,
43513028,00000155,false,Rx,0,8,5E,47,9C,54,27,D8,02,B0,
43513805,00000389,false,Rx,0,8,AB,00,00,3B,3B,40,00,00,
43523075,00000155,false,Rx,0,8,5E,47,9C,54,27,D8,02,B0,
43523797,00000377,false,Rx,0,8,05,9F,01,C2,3E,3E,3E,22,
43533044,00000155,false,Rx,0,8,5E,47,9C,54,27,D8,02,B0,
43543058,00000155,false,Rx,0,8,5E,47,9C,54,27,D8,02,B0,
43543803,00000377,false,Rx,0,8,05,9F,01,C2,3E,3E,3E,22,
43552973,00000155,false,Rx,0,8,5E,47,9C,54,27,D8,02,B0,
43558322,00000423,false,Rx,0,8,07,1D,00,02,B2,80,B2,D8,
43558570,00000188,false,Rx,0,8,03,50,A2,4D,00,00,00,00,
43558796,00000285,false,Rx,0,8,00,00,B6,21,90,FE,0C,10,
43559033,00000358,false,Rx,0,8,89,19,56,01,8E,01,00,00,
43562974,00000155,false,Rx,0,8,5E,47,9D,54,27,D8,02,B0,
43563212,00000424,false,Rx,0,8,11,40,56,7C,39,6C,AA,3B,
43563437,00000425,false,Rx,0,8,24,52,44,9C,42,02,E1,00,
43563793,00000377,false,Rx,0,8,05,9F,01,C2,3E,3E,3E,22,
43564046,00000398,false,Rx,0,8,01,58,34,4B,4C,70,00,00,
43567921,00000109,false,Rx,0,8,00,00,00,00,00,00,00,00,
43568170,00000357,false,Rx,0,8,00,00,00,02,D3,01,00,00,
43572978,00000155,false,Rx,0,8,5E,47,9D,54,27,D8,02,B0,
43576667,00000445,false,Rx,0,7,80,55,AA,65,04,82,00,00,
43582974,00000155,false,Rx,0,8,5E,47,9D,54,27,D8,02,B0,
43583799,00000377,false,Rx,0,8,05,9F,01,C2,3E,3E,3E,22,
43593016,00000155,false,Rx,0,8,5E,47,9D,54,27,D8,02,B0,
43593814,0000038A,false,Rx,0,8,3D,3B,00,00,04,00,00,00,
43603032,00000155,false,Rx,0,8,5E,47,9C,54,27,D8,02,AF,
43603811,00000377,false,Rx,0,8,05,9F,01,BD,3E,3E,3E,22,
43613177,00000155,false,Rx,0,8,5E,47,9C,54,27,D8,02,B0,
43613808,00000389,false,Rx,0,8,AB,00,00,3B,3B,40,00,00,
43623101,00000155,false,Rx,0,8,5E,47,9D,54,27,D8,02,B0,
43623802,00000377,false,Rx,0,8,05,9F,01,BD,3E,3E,3E,22,
43633038,00000155,false,Rx,0,8,5E,47,9D,54,27,D8,02,B0,
43633816,00000569,false,Rx,0,8,AA,80,82,02,00,00,00,00,
43634069,00000664,false,Rx,0,8,02,83,06,32,F3,00,00,00,
43642968,00000155,false,Rx,0,8,5E,47,9D,54,27,D8,02,B0,
43643797,00000377,false,Rx,0,8,05,9F,01,C2,3E,3E,3E,22,
43652969,00000155,false,Rx,0,8,5E,47,9D,54,27,D8,02,B0,
43653819,00000568,false,Rx,0,8,00,02,80,0A,00,00,A8,AA,
43654073,00000663,false,Rx,0,8,00,39,34,38,31,41,30,31,
43658322,00000423,false,Rx,0,8,07,1D,00,02,5D,80,5D,D8,
43658565,00000188,false,Rx,0,8,03,50,A2,4D,00,00,00,00,
43658795,00000285,false,Rx,0,8,00,00,B6,21,90,FE,0C,10,
43659037,00000358,false,Rx,0,8,89,19,56,01,8E,01,00,00,
43662967,00000155,false,Rx,0,8,5E,47,9D,54,27,D8,02,B0,
43663210,00000424,false,Rx,0,8,11,40,56,7C,39,6C,55,3B,
43663436,00000425,false,Rx,0,8,24,52,44,9C,42,02,E1,00,
43663802,00000377,false,Rx,0,8,05,9F,01,C2,3E,3E,3E,22,
43664046,00000398,false,Rx,0,8,01,58,34,4B,4C,70,00,00,
43667921,00000109,false,Rx,0,8,00,00,00,00,00,00,00,00,
43668169,00000357,false,Rx,0,8,00,00,00,02,D3,01,00,00,
43672976,00000155,false,Rx,0,8,5E,47,9D,54,27,D8,02,B0,
43673804,00000563,false,Rx,0,8,AA,AA,AA,AA,82,2A,00,00,
43676658,00000445,false,Rx,0,7,80,55,55,65,04,82,00,00,
43683012,00000155,false,Rx,0,8,5E,47,9D,54,27,D8,02,B0,
43683795,00000377,false,Rx,0,8,05,9F,01,C2,3E,3E,3E,22,
43693018,00000155,false,Rx,0,8,5E,47,9D,54,27,D8,02,B0,
43693815,0000038A,false,Rx,0,8,3D,3B,00,00,04,00,00,00,
43703067,00000155,false,Rx,0,8,5E,47,9D,54,27,D8,02,B0,
43703803,00000377,false,Rx,0,8,05,9F,01,C2,3E,3E,3E,22,
43713000,00000155,false,Rx,0,8,5E,47,9D,54,27,D8,02,B0,
43713805,00000389,false,Rx,0,8,AB,00,00,3B,3B,40,00,00,
43723048,00000155,false,Rx,0,8,5E,47,9D,54,27,D8,02,B0,
43723835,00000377,false,Rx,0,8,05,9F,01,BD,3E,3E,3E,22,
43733036,00000155,false,Rx,0,8,5E,47,9D,54,27,D8,02,B0,
43743003,00000155,false,Rx,0,8,5E,47,9D,54,27,D8,02,B0,
43743804,00000377,false,Rx,0,8,05,9F,01,C2,3E,3E,3E,22,
43752964,00000155,false,Rx,0,8,5E,47,9D,54,27,D8,02,B0,
43758318,00000423,false,Rx,0,8,07,1D,00,02,5D,80,5D,D8,
43758561,00000188,false,Rx,0,8,03,50,A2,4D,00,00,00,00,
43758791,00000285,false,Rx,0,8,00,00,B6,21,90,FE,0C,10,
43759041,00000358,false,Rx,0,8,89,19,56,01,8E,01,00,00,
43762963,00000155,false,Rx,0,8,5E,47,9D,54,27,D8,02,B0,
43763201,00000424,false,Rx,0,8,11,40,56,7C,39,6C,55,3B,
43763427,00000425,false,Rx,0,8,24,52,44,9C,42,02,E1,00,
43763801,00000377,false,Rx,0,8,05,9F,01,BD,3E,3E,3E,22,
43764047,00000398,false,Rx,0,8,01,57,33,4B,4C,70,00,00,
43767915,00000109,false,Rx,0,8,00,00,00,00,00,00,00,00,
43768164,00000357,false,Rx,0,8,00,00,00,02,D3,01,00,00,
43772972,00000155,false,Rx,0,8,5E,47,9D,54,27,D8,02,B0,
43776643,00000445,false,Rx,0,7,80,55,55,65,04,82,00,00,
43782965,00000155,false,Rx,0,8,5E,47,9D,54,27,D8,02,B0,
43783803,00000377,false,Rx,0,8,05,9F,01,C2,3E,3E,3E,22,
43793056,00000155,false,Rx,0,8,5E,47,9D,54,27,D8,02,B0,
43793829,0000038A,false,Rx,0,8,3D,3B,00,00,04,00,00,00,
43803000,00000155,false,Rx,0,8,5E,47,9D,54,27,D8,02,B0,
43803824,00000377,false,Rx,0,8,05,9F,01,C2,3E,3E,3E,22,
43813065,00000155,false,Rx,0,8,5E,47,9D,54,27,D8,02,B0,
43813811,00000389,false,Rx,0,8,AB,00,00,3B,3B,40,00,00,
43823050,00000155,false,Rx,0,8,5E,47,9E,54,27,D8,02,B0,
43823810,00000377,false,Rx,0,8,05,9F,01,C2,3E,3E,3E,22,
43833053,00000155,false,Rx,0,8,5E,47,9E,54,27,D8,02,B0,
43833821,00000569,false,Rx,0,8,AA,80,82,02,00,00,00,00,
43842960,00000155,false,Rx,0,8,5E,47,9E,54,27,D8,02,B0,
43843809,00000377,false,Rx,0,8,05,9F,01,C2,3E,3E,3E,22,
43852958,00000155,false,Rx,0,8,5E,47,9E,54,27,D8,02,B0,
43853821,00000568,false,Rx,0,8,00,02,80,0A,00,00,A8,AA,
43858318,00000423,false,Rx,0,8,07,1D,00,02,5D,80,5D,D8,
43858562,00000188,false,Rx,0,8,03,50,A2,4D,00,00,00,00,
43858792,00000285,false,Rx,0,8,00,00,B6,21,90,FE,0C,10,
43859025,00000358,false,Rx,0,8,89,19,56,01,8E,01,00,00,
43862961,00000155,false,Rx,0,8,5E,47,9E,54,27,D8,02,B0,
43863204,00000424,false,Rx,0,8,11,40,56,7C,39,6C,55,3B,
43863424,00000425,false,Rx,0,8,24,52,44,9C,42,02,E1,00,
43863810,00000377,false,Rx,0,8,05,9F,01,BD,3E,3E,3E,22,
43864054,00000398,false,Rx,0,8,01,56,33,4B,4C,70,00,00,
43868051,00000109,false,Rx,0,8,00,00,00,00,00,00,00,00,
43868182,00000357,false,Rx,0,8,00,00,00,02,D3,01,00,00,
43872992,00000155,false,Rx,0,8,5E,47,9E,54,27,D8,02,B0,
43873805,00000563,false,Rx,0,8,AA,AA,AA,AA,82,2A,00,00,
43876635,00000445,false,Rx,0,7,80,55,55,65,04,82,00,00,
43882963,00000155,false,Rx,0,8,5E,47,9E,54,27,D8,02,B0,
43883803,00000377,false,Rx,0,8,05,9D,01,BD,3E,3E,3E,22,
43893003,00000155,false,Rx,0,8,5E,47,9E,54,27,D8,02,B0,
43893815,0000038A,false,Rx,0,8,3D,3B,00,00,04,00,00,00,
43903029,00000155,false,Rx,0,8,5E,47,9E,54,27,D8,02,B0,
43903803,00000377,false,Rx,0,8,05,9F,01,BD,3E,3E,3E,22,
43913017,00000155,false,Rx,0,8,5E,47,9E,54,27,D8,02,B0,
43913811,00000389,false,Rx,0,8,AB,00,00,3B,3B,40,00,00,
43923010,00000155,false,Rx,0,8,5E,47,9E,54,27,D8,02,B0,
43923808,00000377,false,Rx,0,8,05,9F,01,BD,3E,3E,3E,22,
43933123,00000155,false,Rx,0,8,5E,47,9E,54,27,D8,02,B0,
43943021,00000155,false,Rx,0,8,5E,47,9E,54,27,D8,02,B0,
43943804,00000377,false,Rx,0,8,05,9D,01,C2,3E,3E,3E,22,
43949015,00000630,false,Rx,0,8,00,00,00,00,00,00,00,00,
43952960,00000155,false,Rx,0,8,5E,47,9F,54,27,D8,02,B0,
43954014,0000062D,false,Rx,0,8,00,00,00,00,00,00,00,00,
43958317,00000423,false,Rx,0,8,07,1D,00,02,5D,80,5D,D8,
43958559,00000188,false,Rx,0,8,03,50,A2,4D,00,00,00,00,
43958790,00000285,false,Rx,0,8,00,00,B6,21,90,FE,0C,10,
43959025,00000358,false,Rx,0,8,89,19,56,01,8E,01,00,00,
43959272,000006BD,false,Rx,0,8,00,00,00,00,00,00,00,00,
43962958,00000155,false,Rx,0,8,5E,47,9F,54,27,D8,02,B0,
43963200,00000424,false,Rx,0,8,11,40,56,7C,39,6C,55,3B,
43963422,00000425,false,Rx,0,8,24,52,44,9C,42,02,E1,00,
43963809,00000377,false,Rx,0,8,05,9F,01,C2,3E,3E,3E,22,
43964055,00000398,false,Rx,0,8,01,54,32,4B,4C,70,00,00,
43967909,00000109,false,Rx,0,8,00,00,00,00,00,00,00,00,
43968158,00000357,false,Rx,0,8,00,00,00,02,D3,01,00,00,
43972966,00000155,false,Rx,0,8,5E,47,9F,54,27,D8,02,B0,
43976625,00000445,false,Rx,0,7,80,55,55,65,04,82,00,00,
43982971,00000155,false,Rx,0,8,5E,47,9F,54,27,D8,02,B0,
43983818,00000377,false,Rx,0,8,05,9F,01,C2,3E,3E,3E,22,
43993113,00000155,false,Rx,0,8,5E,47,9F,54,27,D8,02,B0,
43993832,0000038A,false,Rx,0,8,3D,3B,00,00,04,00,00,00,
44002995,00000155,false,Rx,0,8,5E,47,9E,54,27,D8,02,B0,
44003812,00000377,false,Rx,0,8,05,9F,01,C2,3E,3E,3E,22,
44013029,00000155,false,Rx,0,8,5E,47,9E,54,27,D8,02,AF,
44013810,00000389,false,Rx,0,8,AB,00,00,3B,3B,40,00,00,
44023026,00000155,false,Rx,0,8,5E,47,9E,54,27,D8,02,AF,
44023812,00000377,false,Rx,0,8,05,9F,01,BD,3E,3E,3E,22,
44033054,00000155,false,Rx,0,8,5E,47,9F,54,27,D8,02,AE,
44033824,00000569,false,Rx,0,8,AA,80,82,02,00,00,00,00,
44043008,00000155,false,Rx,0,8,5E,47,9F,54,27,D8,02,AE,
44043817,00000377,false,Rx,0,8,05,9D,01,BD,3E,3E,3E,22,
44052952,00000155,false,Rx,0,8,5E,47,9F,54,27,D8,02,AE,
44053819,00000568,false,Rx,0,8,00,02,80,0A,00,00,A8,AA,
44058315,00000423,false,Rx,0,8,07,1D,00,02,5D,80,5D,D8,
44058558,00000188,false,Rx,0,8,03,50,A2,4D,00,00,00,00,
44058788,00000285,false,Rx,0,8,00,00,B6,21,90,FE,0C,10,
44059021,00000358,false,Rx,0,8,89,19,56,01,8E,01,00,00,
44062953,00000155,false,Rx,0,8,5E,47,9F,54,27,D8,02,AE,
44063195,00000424,false,Rx,0,8,11,40,56,7C,39,6C,55,3B,
44063416,00000425,false,Rx,0,8,24,52,44,9C,42,02,E1,00,
44063810,00000377,false,Rx,0,8,05,9D,01,BD,3E,3E,3E,22,
44064052,00000398,false,Rx,0,8,01,53,31,4B,4C,70,00,00,
44067912,00000109,false,Rx,0,8,00,00,00,00,00,00,00,00,
44068160,00000357,false,Rx,0,8,00,00,00,02,D3,01,00,00,
44072963,00000155,false,Rx,0,8,5E,47,9F,54,27,D8,02,AE,
44073811,00000563,false,Rx,0,8,AA,AA,AA,AA,82,2A,00,00,
44076654,00000445,false,Rx,0,7,80,55,55,65,04,82,00,00,
44082956,00000155,false,Rx,0,8,5E,47,9F,54,27,D8,02,AE,
44083814,00000377,false,Rx,0,8,05,9F,01,C2,3E,3E,3E,22,
44092995,00000155,false,Rx,0,8,5E,47,9F,54,27,D8,02,AE,
44093826,0000038A,false,Rx,0,8,3D,3B,00,00,04,00,00,00,
44103027,00000155,false,Rx,0,8,5E,47,9F,54,27,D8,02,AE,
44103813,00000377,false,Rx,0,8,05,9F,01,BD,3E,3E,3E,22,
44113005,00000155,false,Rx,0,8,5E,47,9F,54,27,D8,02,AE,
44113894,00000389,false,Rx,0,8,AB,00,00,3B,3B,40,00,00,
44123091,00000155,false,Rx,0,8,5E,47,9F,54,27,D8,02,AE,
44123819,00000377,false,Rx,0,8,05,9F,01,C2,3E,3E,3E,22,
44133081,00000155,false,Rx,0,8,5E,47,9F,54,27,D8,02,AE,
44133846,00000664,false,Rx,0,8,02,83,06,32,F3,00,00,00,
44143033,00000155,false,Rx,0,8,5E,47,9F,54,27,D8,02,AE,
44143812,00000377,false,Rx,0,8,05,9F,01,C2,3E,3E,3E,22,
44152948,00000155,false,Rx,0,8,5E,47,9F,54,27,D8,02,AE,
44153824,00000663,false,Rx,0,8,01,33,30,30,00,00,00,00,
44158312,00000423,false,Rx,0,8,07,1D,00,02,5D,80,5D,D8,
44158553,00000188,false,Rx,0,8,03,50,A2,4D,00,00,00,00,
44158785,00000285,false,Rx,0,8,00,00,B6,21,90,FE,0C,10,
44159038,00000358,false,Rx,0,8,89,19,56,01,8E,01,00,00,
44162950,00000155,false,Rx,0,8,5E,47,9F,54,27,D8,02,AE,
44163188,00000424,false,Rx,0,8,11,40,56,7C,39,6C,55,3B,
44163413,00000425,false,Rx,0,8,24,52,44,9C,42,02,E1,00,
44163810,00000377,false,Rx,0,8,05,9F,01,BD,3E,3E,3E,22,
44164055,00000398,false,Rx,0,8,01,52,30,4B,4C,70,00,00,
44167904,00000109,false,Rx,0,8,00,00,00,00,00,00,00,00,
44168157,00000357,false,Rx,0,8,00,00,00,02,D3,01,00,00,
44172956,00000155,false,Rx,0,8,5E,47,9F,54,27,D8,02,AE,
44176642,00000445,false,Rx,0,7,80,55,55,65,04,82,00,00,
44182953,00000155,false,Rx,0,8,5E,47,9F,54,27,D8,02,AE,
44183808,00000377,false,Rx,0,8,05,9D,01,BD,3E,3E,3E,22,
44193033,00000155,false,Rx,0,8,5E,47,A0,54,27,D8,02,AE,
44193836,0000038A,false,Rx,0,8,3D,3B,00,00,04,00,00,00,
44202992,00000155,false,Rx,0,8,5E,47,A0,54,27,D8,02,AE,
44203813,00000377,false,Rx,0,8,05,9D,01,BD,3E,3E,3E,22,
44213021,00000155,false,Rx,0,8,5E,47,A0,54,27,D8,02,AE,
44213837,00000389,false,Rx,0,8,AB,00,00,3B,3B,40,00,00,
44223000,00000155,false,Rx,0,8,5E,47,A0,54,27,D8,02,AE,
44223814,00000377,false,Rx,0,8,05,9D,01,BD,3E,3E,3E,22,
44232992,00000155,false,Rx,0,8,5E,47,A0,54,27,D8,02,AE,
44233839,00000569,false,Rx,0,8,AA,80,82,02,00,00,00,00,
44243007,00000155,false,Rx,0,8,5E,47,A0,54,27,D8,02,AE,
44243813,00000377,false,Rx,0,8,05,9F,01,BD,3E,3E,3E,22,
44252943,00000155,false,Rx,0,8,5E,47,A0,54,27,D8,02,AE,
44253824,00000568,false,Rx,0,8,00,02,80,0A,00,00,A8,AA,
44258310,00000423,false,Rx,0,8,07,1D,00,02,B2,80,B2,D8,
44258551,00000188,false,Rx,0,8,03,50,A2,4D,00,00,00,00,
44258839,00000285,false,Rx,0,8,00,00,B6,21,90,FE,0C,10,
44259023,00000358,false,Rx,0,8,89,19,56,01,8E,01,00,00,
44262943,00000155,false,Rx,0,8,5E,47,A0,54,27,D8,02,AE,
44263177,00000424,false,Rx,0,8,11,40,56,7C,39,6C,AA,3B,
44263405,00000425,false,Rx,0,8,24,52,44,9C,42,04,E1,00,
44263811,00000377,false,Rx,0,8,05,9D,01,BD,3E,3E,3E,22,
44264048,00000398,false,Rx,0,8,01,51,30,4B,4C,70,00,00,
44267905,00000109,false,Rx,0,8,00,00,00,00,00,00,00,00,
44268153,00000357,false,Rx,0,8,00,00,00,02,D3,01,00,00,
44272955,00000155,false,Rx,0,8,5E,47,A0,54,27,D8,02,AE,
44273822,00000563,false,Rx,0,8,AA,AA,AA,AA,82,2A,00,00,
44276615,00000445,false,Rx,0,7,80,55,AA,65,04,82,00,00,
44282951,00000155,false,Rx,0,8,5E,47,A0,54,27,D8,02,AE,
44283813,00000377,false,Rx,0,8,05,9D,01,BD,3E,3E,3E,22,
44293051,00000155,false,Rx,0,8,5E,47,A0,54,27,D8,02,AE,
44293830,0000038A,false,Rx,0,8,3D,3B,00,00,04,00,00,00,
44303015,00000155,false,Rx,0,8,5E,47,A0,54,27,D8,02,AE,
44303808,00000377,false,Rx,0,8,05,9F,01,BD,3E,3E,3E,22,
44312976,00000155,false,Rx,0,8,5E,47,A0,54,27,D8,02,AE,
44313817,00000389,false,Rx,0,8,AB,00,00,3B,3B,40,00,00,
44323019,00000155,false,Rx,0,8,5E,47,A0,54,27,D8,02,AE,
44323811,00000377,false,Rx,0,8,05,9D,01,BD,3E,3E,3E,22,
44333020,00000155,false,Rx,0,8,5E,47,A0,54,27,D8,02,AE,
44343087,00000155,false,Rx,0,8,5E,47,A0,54,27,D8,02,AE,
44343807,00000377,false,Rx,0,8,05,9D,01,BD,3E,3E,3E,22,
44352937,00000155,false,Rx,0,8,5E,47,A1,54,27,D8,02,AE,
44358305,00000423,false,Rx,0,8,07,1D,00,02,B2,80,B2,D8,
44358552,00000188,false,Rx,0,8,03,50,A2,4D,00,00,00,00,
44358778,00000285,false,Rx,0,8,00,00,B6,21,90,FE,0C,10,
44359022,00000358,false,Rx,0,8,89,19,56,01,8E,01,00,00,
44363023,00000155,false,Rx,0,8,5E,47,A0,54,27,D8,02,AE,
44363197,00000424,false,Rx,0,8,11,40,56,7C,39,6C,AA,3B,
44363419,00000425,false,Rx,0,8,24,52,44,9C,42,04,E1,00,
44363823,00000377,false,Rx,0,8,05,9D,01,BD,3E,3E,3E,22,
44364049,00000398,false,Rx,0,8,01,50,2F,4B,4C,70,00,00,
44367948,00000109,false,Rx,0,8,00,00,00,00,00,00,00,00,
44368150,00000357,false,Rx,0,8,00,00,00,02,D3,01,00,00,
44373062,00000155,false,Rx,0,8,5E,47,A1,54,27,D8,02,AE,
44376727,00000445,false,Rx,0,7,80,55,AA,65,04,82,00,00,
44383050,00000155,false,Rx,0,8,5E,47,A1,54,27,D8,02,AE,
44383839,00000377,false,Rx,0,8,05,9D,01,BD,3E,3E,3E,22,
44393066,00000155,false,Rx,0,8,5E,47,A1,54,27,D8,02,AE,
44393834,0000038A,false,Rx,0,8,3D,3B,00,00,04,00,00,00,
44402976,00000155,false,Rx,0,8,5E,47,A0,54,27,D8,02,AE,
44403822,00000377,false,Rx,0,8,05,9D,01,BD,3E,3E,3E,22,
44413005,00000155,false,Rx,0,8,5E,47,A1,54,27,D8,02,AE,
44413822,00000389,false,Rx,0,8,AC,00,00,3B,3B,40,00,00,
44423040,00000155,false,Rx,0,8,5E,47,A1,54,27,D8,02,AE,
44423810,00000377,false,Rx,0,8,05,9D,01,BD,3E,3E,3E,22,
44432974,00000155,false,Rx,0,8,5E,47,A1,54,27,D8,02,AE,
44433845,00000569,false,Rx,0,8,AA,80,82,02,00,00,00,00,
44442996,00000155,false,Rx,0,8,5E,47,A1,54,27,D8,02,AE,
44443843,00000377,false,Rx,0,8,05,9D,01,BD,3E,3E,3E,22,
44449002,00000630,false,Rx,0,8,00,00,00,00,00,00,00,00,
44452932,00000155,false,Rx,0,8,5E,47,A1,54,27,D8,02,AE,
44453828,00000568,false,Rx,0,8,00,02,80,0A,00,00,A8,AA,
44454085,0000062D,false,Rx,0,8,00,00,00,00,00,00,00,00,
44458302,00000423,false,Rx,0,8,07,1D,00,02,B2,80,B2,D8,
44458548,00000188,false,Rx,0,8,03,50,A2,4D,00,00,00,00,
44458782,00000285,false,Rx,0,8,00,00,B6,21,90,FE,0C,10,
44459016,00000358,false,Rx,0,8,89,19,58,01,8E,01,00,00,
44459261,000006BD,false,Rx,0,8,00,00,00,00,00,00,00,00,
44462934,00000155,false,Rx,0,8,5E,47,A1,54,27,D8,02,AE,
44463168,00000424,false,Rx,0,8,11,40,56,7C,39,6C,AA,3B,
44463402,00000425,false,Rx,0,8,24,52,44,9C,42,02,E1,00,
44463809,00000377,false,Rx,0,8,05,9D,01,C2,3E,3E,3E,22,
44464049,00000398,false,Rx,0,8,01,4F,2F,4B,4C,70,00,00,
44467897,00000109,false,Rx,0,8,00,00,00,00,00,00,00,00,
44468147,00000357,false,Rx,0,8,00,00,00,02,D3,01,00,00,
44472983,00000155,false,Rx,0,8,5E,47,A1,54,27,D8,02,AE,
44473842,00000563,false,Rx,0,8,AA,AA,AA,AA,82,2A,00,00,
44476616,00000445,false,Rx,0,7,80,55,AA,65,04,82,00,00,
44482939,00000155,false,Rx,0,8,5E,47,A1,54,27,D8,02,AE,
44483829,00000377,false,Rx,0,8,05,9F,01,BD,3E,3E,3E,22,
44493117,00000155,false,Rx,0,8,5E,47,A1,54,27,D8,02,AE,
44493835,0000038A,false,Rx,0,8,3D,3B,00,00,04,00,00,00,
44503002,00000155,false,Rx,0,8,5E,47,A1,54,27,D8,02,AE,
44503814,00000377,false,Rx,0,8,05,9F,01,BD,3E,3E,3E,22,
44512965,00000155,false,Rx,0,8,5E,47,A1,54,27,D8,02,AE,
44513826,00000389,false,Rx,0,8,AB,00,00,3B,3B,40,00,00,
44523012,00000155,false,Rx,0,8,5E,47,A1,54,27,D8,02,AE,
44523820,00000377,false,Rx,0,8,05,9D,01,BD,3E,3E,3E,22,
44533001,00000155,false,Rx,0,8,5E,47,A1,54,27,D8,02,AE,
44543060,00000155,false,Rx,0,8,5E,47,A2,54,27,D8,02,AE,
44543818,00000377,false,Rx,0,8,05,9D,01,BD,3E,3E,3E,22,
44552930,00000155,false,Rx,0,8,5E,47,A1,54,27,D8,02,AE,
44558300,00000423,false,Rx,0,8,07,1D,00,02,B2,80,B2,D8,
44558542,00000188,false,Rx,0,8,03,50,A2,4D,00,00,00,00,
44558772,00000285,false,Rx,0,8,00,00,B6,21,90,FE,0C,10,
44559017,00000358,false,Rx,0,8,89,19,56,01,8E,01,00,00,
44562930,00000155,false,Rx,0,8,5E,47,A1,54,27,D8,02,AE,
44563168,00000424,false,Rx,0,8,11,40,56,7C,39,6C,AA,3B,
44563393,00000425,false,Rx,0,8,24,52,44,9C,42,02,E1,00,
44563819,00000377,false,Rx,0,8,05,9D,01,C2,3E,3E,3E,22,
44564062,00000398,false,Rx,0,8,01,4E,2E,4B,4C,70,00,00,
44567895,00000109,false,Rx,0,8,00,00,00,00,00,00,00,00,
44568143,00000357,false,Rx,0,8,00,00,00,02,D3,01,00,00,
44572937,00000155,false,Rx,0,8,5E,47,A1,54,27,D8,02,AE,
44576613,00000445,false,Rx,0,7,80,55,AA,65,04,82,00,00,
44582935,00000155,false,Rx,0,8,5E,47,A1,54,27,D8,02,AE,
44583817,00000377,false,Rx,0,8,05,9D,01,BD,3E,3E,3E,22,
44592973,00000155,false,Rx,0,8,5E,47,A1,54,27,D8,02,AE,
44593843,0000038A,false,Rx,0,8,3D,3B,00,00,04,00,00,00,
44602963,00000155,false,Rx,0,8,5E,47,A1,54,27,D8,02,AE,
44603819,00000377,false,Rx,0,8,05,9D,01,BD,3E,3E,3E,22,
44612997,00000155,false,Rx,0,8,5E,47,A1,54,27,D8,02,AE,
44613841,00000389,false,Rx,0,8,AB,00,00,3B,3B,40,00,00,
44623050,00000155,false,Rx,0,8,5E,47,A1,54,27,D8,02,AE,
44623823,00000377,false,Rx,0,8,05,9D,01,BD,3E,3E,3E,22,
44627638,00000603,false,Rx,0,8,40,00,21,05,00,00,00,00,
44627847,00000583,false,Rx,0,8,43,00,21,05,40,00,00,00,
44628169,00000603,false,Rx,0,8,40,00,21,06,00,00,00,00,
44628422,00000583,false,Rx,0,8,43,00,21,06,20,01,00,00,
44628684,00000603,false,Rx,0,8,40,00,21,4E,00,00,00,00,
44628927,00000583,false,Rx,0,8,43,00,21,4E,20,00,00,00,
44629184,00000603,false,Rx,0,8,40,00,21,27,00,00,00,00,
44629437,00000583,false,Rx,0,8,43,00,21,27,80,00,00,00,
44629697,00000603,false,Rx,0,8,40,00,21,25,00,00,00,00,
44629942,00000583,false,Rx,0,8,43,00,21,25,A0,00,00,00,
44630212,00000603,false,Rx,0,8,40,00,21,46,00,00,00,00,
44630460,00000583,false,Rx,0,8,43,00,21,46,00,00,00,00,
44630750,00000603,false,Rx,0,8,40,00,21,47,00,00,00,00,
44630971,00000583,false,Rx,0,8,43,00,21,47,20,00,00,00,
44631235,00000603,false,Rx,0,8,40,00,21,48,00,00,00,00,
44631482,00000583,false,Rx,0,8,43,00,21,48,00,00,00,00,
44631744,00000603,false,Rx,0,8,40,00,21,49,00,00,00,00,
44631998,00000583,false,Rx,0,8,43,00,21,49,00,00,00,00,
44632256,00000603,false,Rx,0,8,40,00,21,4A,00,00,00,00,
44632509,00000583,false,Rx,0,8,43,00,21,4A,00,00,00,00,
44632770,00000603,false,Rx,0,8,40,00,21,59,00,00,00,00,
44633018,00000583,false,Rx,0,8,43,00,21,59,00,00,00,00,
44633248,00000155,false,Rx,0,8,5E,47,A1,54,27,D8,02,AE,
44633490,00000603,false,Rx,0,8,40,00,21,60,00,00,00,00,
44633801,00000583,false,Rx,0,8,43,00,21,60,00,00,00,00,
44634049,00000569,false,Rx,0,8,AA,80,82,02,00,00,00,00,
44634290,00000603,false,Rx,0,8,40,00,21,61,00,00,00,00,
44634529,00000664,false,Rx,0,8,02,83,06,32,F3,00,00,00,
44634768,00000583,false,Rx,0,8,43,00,21,61,00,00,00,00,
44635048,00000603,false,Rx,0,8,40,00,21,6B,00,00,00,00,
44635313,00000583,false,Rx,0,8,43,00,21,6B,20,00,00,00,
44635541,00000603,false,Rx,0,8,40,00,21,86,00,00,00,00,
44635797,00000583,false,Rx,0,8,43,00,21,86,00,00,00,00,
44636058,00000603,false,Rx,0,8,40,00,21,6C,00,00,00,00,
44636307,00000583,false,Rx,0,8,43,00,21,6C,00,00,00,00,
44636579,00000603,false,Rx,0,8,40,00,21,81,00,00,00,00,
44636824,00000583,false,Rx,0,8,43,00,21,81,00,00,00,00,
44637084,00000603,false,Rx,0,8,40,00,21,07,00,00,00,00,
44637335,00000583,false,Rx,0,8,43,00,21,07,60,43,00,00,
44637617,00000603,false,Rx,0,8,40,00,21,08,00,00,00,00,
44637846,00000583,false,Rx,0,8,43,00,21,08,00,33,01,00,
44638112,00000603,false,Rx,0,8,40,00,21,09,00,00,00,00,
44638502,00000583,false,Rx,0,8,43,00,21,09,40,28,00,00,
44638626,00000603,false,Rx,0,8,40,00,21,0A,00,00,00,00,
44638867,00000583,false,Rx,0,8,43,00,21,0A,A0,93,00,00,
44639128,00000603,false,Rx,0,8,40,00,21,3C,00,00,00,00,
44639370,00000583,false,Rx,0,8,43,00,21,3C,80,BB,00,00,
44639633,00000603,false,Rx,0,8,40,00,21,7E,00,00,00,00,
44639879,00000583,false,Rx,0,8,43,00,21,7E,80,0C,00,00,
44640144,00000603,false,Rx,0,8,40,00,21,3D,00,00,00,00,
44640393,00000583,false,Rx,0,8,43,00,21,3D,00,00,00,00,
44640659,00000603,false,Rx,0,8,40,00,21,7A,00,00,00,00,
44640907,00000583,false,Rx,0,8,43,00,21,7A,80,FD,FF,FF,
44641167,00000603,false,Rx,0,8,40,00,21,44,00,00,00,00,
44641424,00000583,false,Rx,0,8,43,00,21,44,20,00,00,00,
44641684,00000603,false,Rx,0,8,40,00,21,0B,00,00,00,00,
44641937,00000583,false,Rx,0,8,43,00,21,0B,20,00,00,00,
44642195,00000603,false,Rx,0,8,40,00,21,0C,00,00,00,00,
44642445,00000583,false,Rx,0,8,43,00,21,0C,20,00,00,00,
44642710,00000603,false,Rx,0,8,40,00,21,7F,00,00,00,00,
44642966,00000583,false,Rx,0,8,43,00,21,7F,00,00,00,00,
44643192,00000155,false,Rx,0,8,5E,47,A1,54,27,D8,02,AE,
44643456,00000603,false,Rx,0,8,40,00,21,0D,00,00,00,00,
44643801,00000583,false,Rx,0,8,43,00,21,0D,20,00,00,00,
44644036,00000377,false,Rx,0,8,05,9D,01,BD,3E,3E,3E,22,
44644280,00000603,false,Rx,0,8,40,00,21,0E,00,00,00,00,
44644535,00000583,false,Rx,0,8,43,00,21,0E,00,C4,09,00,
44644800,00000603,false,Rx,0,8,40,00,21,0F,00,00,00,00,
44645078,00000583,false,Rx,0,8,43,00,21,0F,00,E8,03,00,
44645304,00000603,false,Rx,0,8,40,00,21,11,00,00,00,00,
44645559,00000583,false,Rx,0,8,43,00,21,11,40,06,00,00,
44645811,00000603,false,Rx,0,8,40,00,21,12,00,00,00,00,
44646071,00000583,false,Rx,0,8,43,00,21,12,E0,FF,FF,FF,
44646364,00000603,false,Rx,0,8,40,00,21,13,00,00,00,00,
44646585,00000583,false,Rx,0,8,43,00,21,13,00,00,00,00,
44646846,00000603,false,Rx,0,8,40,00,21,14,00,00,00,00,
44647099,00000583,false,Rx,0,8,43,00,21,14,00,41,00,00,
44647359,00000603,false,Rx,0,8,40,00,21,15,00,00,00,00,
44647609,00000583,false,Rx,0,8,43,00,21,15,40,38,00,00,
44647877,00000603,false,Rx,0,8,40,00,21,16,00,00,00,00,
44648117,00000583,false,Rx,0,8,43,00,21,16,C0,C7,FF,FF,
44648386,00000603,false,Rx,0,8,40,00,21,17,00,00,00,00,
44648645,00000583,false,Rx,0,8,43,00,21,17,E0,0B,00,00,
44648918,00000603,false,Rx,0,8,40,00,21,18,00,00,00,00,
44649155,00000583,false,Rx,0,8,43,00,21,18,80,25,00,00,
44649425,00000603,false,Rx,0,8,40,00,21,19,00,00,00,00,
44649678,00000583,false,Rx,0,8,43,00,21,19,80,0C,00,00,
44649946,00000603,false,Rx,0,8,40,00,21,1A,00,00,00,00,
44650193,00000583,false,Rx,0,8,43,00,21,1A,80,F3,FF,FF,
44650481,00000603,false,Rx,0,8,40,00,21,7B,00,00,00,00,
44650734,00000583,false,Rx,0,8,43,00,21,7B,00,05,00,00,
44650966,00000603,false,Rx,0,8,40,00,21,4C,00,00,00,00,
44651217,00000583,false,Rx,0,8,43,00,21,4C,A0,00,00,00,
44651487,00000603,false,Rx,0,8,40,00,21,80,00,00,00,00,
44651748,00000583,false,Rx,0,8,43,00,21,80,20,FE,FF,FF,
44652023,00000603,false,Rx,0,8,40,00,21,83,00,00,00,00,
44652263,00000583,false,Rx,0,8,43,00,21,83,E0,01,00,00,
44652539,00000603,false,Rx,0,8,40,00,21,1B,00,00,00,00,
44652778,00000583,false,Rx,0,8,43,00,21,1B,60,00,00,00,
44653056,00000603,false,Rx,0,8,40,00,21,1C,00,00,00,00,
44653264,00000155,false,Rx,0,8,5E,47,A1,54,27,D8,02,AE,
44653508,00000583,false,Rx,0,8,43,00,21,1C,00,05,00,00,
44653775,00000603,false,Rx,0,8,40,00,21,1D,00,00,00,00,
44654021,00000568,false,Rx,0,8,00,02,80,0A,00,00,A8,AA,
44654257,00000583,false,Rx,0,8,43,00,21,1D,00,19,00,00,
44654492,00000663,false,Rx,0,8,02,00,00,00,00,00,00,00,
44654739,00000603,false,Rx,0,8,40,00,21,1E,00,00,00,00,
44654986,00000583,false,Rx,0,8,43,00,21,1E,80,02,00,00,
44655257,00000603,false,Rx,0,8,40,00,21,1F,00,00,00,00,
44655507,00000583,false,Rx,0,8,43,00,21,1F,40,00,00,00,
44655778,00000603,false,Rx,0,8,40,00,21,20,00,00,00,00,
44656027,00000583,false,Rx,0,8,43,00,21,20,20,27,00,00,
44656292,00000603,false,Rx,0,8,40,00,21,21,00,00,00,00,
44656545,00000583,false,Rx,0,8,43,00,21,21,00,00,00,00,
44656809,00000603,false,Rx,0,8,40,00,21,22,00,00,00,00,
44657081,00000583,false,Rx,0,8,43,00,21,22,00,00,00,00,
44657333,00000603,false,Rx,0,8,40,00,21,4D,00,00,00,00,
44657604,00000583,false,Rx,0,8,43,00,21,4D,20,00,00,00,
44657854,00000603,false,Rx,0,8,40,00,21,26,00,00,00,00,
44658098,00000583,false,Rx,0,8,43,00,21,26,C0,02,00,00,
44658341,00000285,false,Rx,0,8,00,00,B6,21,90,FE,0C,10,
44658578,00000188,false,Rx,0,8,03,50,A2,4D,00,00,00,00,
44658827,00000358,false,Rx,0,8,89,19,56,01,8E,01,00,00,
44659039,00000423,false,Rx,0,8,07,1D,00,02,B2,80,B2,D8,
44659286,00000603,false,Rx,0,8,40,00,21,28,00,00,00,00,
44659532,00000583,false,Rx,0,8,43,00,21,28,C0,31,00,00,
44659797,00000603,false,Rx,0,8,40,00,21,29,00,00,00,00,
44660050,00000583,false,Rx,0,8,43,00,21,29,00,00,00,00,
44660321,00000603,false,Rx,0,8,40,00,21,38,00,00,00,00,
44660581,00000583,false,Rx,0,8,43,00,21,38,00,00,00,00,
44660838,00000603,false,Rx,0,8,40,00,21,2A,00,00,00,00,
44661093,00000583,false,Rx,0,8,43,00,21,2A,40,06,00,00,
44661358,00000603,false,Rx,0,8,40,00,21,2B,00,00,00,00,
44661609,00000583,false,Rx,0,8,43,00,21,2B,00,0A,00,00,
44661879,00000603,false,Rx,0,8,40,00,21,2C,00,00,00,00,
44662132,00000583,false,Rx,0,8,43,00,21,2C,00,0A,00,00,
44662395,00000603,false,Rx,0,8,40,00,21,4F,00,00,00,00,
44662660,00000583,false,Rx,0,8,43,00,21,4F,11,0B,00,00,
44662928,00000603,false,Rx,0,8,40,00,21,2D,00,00,00,00,
44663151,00000155,false,Rx,0,8,5E,47,A1,54,27,D8,02,AE,
44663385,00000424,false,Rx,0,8,11,40,56,7C,39,6C,AA,3B,
44663614,00000425,false,Rx,0,8,24,52,44,9C,42,02,E1,00,
44663846,00000377,false,Rx,0,8,05,9D,01,BD,3E,3E,3E,22,
44664085,00000398,false,Rx,0,8,01,4E,2E,4B,4C,70,00,00,
44664325,00000583,false,Rx,0,8,43,00,21,2D,00,00,00,00,
44664588,00000603,false,Rx,0,8,40,00,21,78,00,00,00,00,
44664846,00000583,false,Rx,0,8,43,00,21,78,00,1E,00,00,
44665106,00000603,false,Rx,0,8,40,00,21,79,00,00,00,00,
44665359,00000583,false,Rx,0,8,43,00,21,79,40,0B,00,00,
44665623,00000603,false,Rx,0,8,40,00,21,85,00,00,00,00,
44665876,00000583,false,Rx,0,8,43,00,21,85,00,00,00,00,
44666138,00000603,false,Rx,0,8,40,00,21,69,00,00,00,00,
44666394,00000583,false,Rx,0,8,43,00,21,69,00,00,00,00,
44666658,00000603,false,Rx,0,8,40,00,21,6A,00,00,00,00,
44666912,00000583,false,Rx,0,8,43,00,21,6A,C0,01,00,00,
44667179,00000603,false,Rx,0,8,40,00,21,5A,00,00,00,00,
44667442,00000583,false,Rx,0,8,43,00,21,5A,80,00,00,00,
44667701,00000603,false,Rx,0,8,40,00,21,5B,00,00,00,00,
44667949,00000109,false,Rx,0,8,00,00,00,00,00,00,00,00,
44668193,00000357,false,Rx,0,8,00,00,00,02,D3,01,00,00,
44668431,00000583,false,Rx,0,8,43,00,21,5B,40,01,00,00,
44668698,00000603,false,Rx,0,8,40,00,21,5C,00,00,00,00,
44668955,00000583,false,Rx,0,8,43,00,21,5C,20,00,00,00,
44669218,00000603,false,Rx,0,8,40,00,21,5D,00,00,00,00,
44669476,00000583,false,Rx,0,8,43,00,21,5D,86,00,00,00,
44669739,00000603,false,Rx,0,8,40,00,21,5E,00,00,00,00,
44669998,00000583,false,Rx,0,8,43,00,21,5E,20,00,00,00,
44670261,00000603,false,Rx,0,8,40,00,21,5F,00,00,00,00,
44670520,00000583,false,Rx,0,8,43,00,21,5F,40,06,00,00,
44670791,00000603,false,Rx,0,8,40,00,21,39,00,00,00,00,
44671042,00000583,false,Rx,0,8,43,00,21,39,60,00,00,00,
44671307,00000603,false,Rx,0,8,40,00,21,3A,00,00,00,00,
44671569,00000583,false,Rx,0,8,43,00,21,3A,20,00,00,00,
44671824,00000603,false,Rx,0,8,40,00,21,3B,00,00,00,00,
44672083,00000583,false,Rx,0,8,43,00,21,3B,00,FA,00,00,
44672349,00000603,false,Rx,0,8,40,00,21,7C,00,00,00,00,
44672612,00000583,false,Rx,0,8,43,00,21,7C,00,00,00,00,
44672873,00000603,false,Rx,0,8,40,00,21,2E,00,00,00,00,
44673103,00000155,false,Rx,0,8,5E,47,A2,54,27,D8,02,AE,
44673345,00000583,false,Rx,0,8,43,00,21,2E,80,00,00,00,
44673608,00000603,false,Rx,0,8,40,00,21,2F,00,00,00,00,
44673843,00000563,false,Rx,0,8,AA,AA,AA,AA,82,2A,00,00,
44674088,00000583,false,Rx,0,8,43,00,21,2F,A0,01,00,00,
44674350,00000603,false,Rx,0,8,40,00,21,30,00,00,00,00,
44674614,00000583,false,Rx,0,8,43,00,21,30,60,01,00,00,
44674874,00000603,false,Rx,0,8,40,00,21,31,00,00,00,00,
44675134,00000583,false,Rx,0,8,43,00,21,31,00,00,00,00,
44675392,00000603,false,Rx,0,8,40,00,21,32,00,00,00,00,
44675658,00000583,false,Rx,0,8,43,00,21,32,A0,02,00,00,
44675915,00000603,false,Rx,0,8,40,00,21,33,00,00,00,00,
44676175,00000583,false,Rx,0,8,43,00,21,33,C0,03,00,00,
44676464,00000603,false,Rx,0,8,40,00,21,34,00,00,00,00,
44676660,00000445,false,Rx,0,7,80,55,AA,65,04,82,00,00,
44676896,00000583,false,Rx,0,8,43,00,21,34,C0,03,00,00,
44677160,00000603,false,Rx,0,8,40,00,21,35,00,00,00,00,
44677421,00000583,false,Rx,0,8,43,00,21,35,A0,01,00,00,
44677679,00000603,false,Rx,0,8,40,00,21,36,00,00,00,00,
44677939,00000583,false,Rx,0,8,43,00,21,36,00,03,00,00,
44678202,00000603,false,Rx,0,8,40,00,21,37,00,00,00,00,
44678469,00000583,false,Rx,0,8,43,00,21,37,60,00,00,00,
44678731,00000603,false,Rx,0,8,40,00,21,50,00,00,00,00,
44678990,00000583,false,Rx,0,8,43,00,21,50,E0,00,00,00,
44679250,00000603,false,Rx,0,8,40,00,21,51,00,00,00,00,
44679511,00000583,false,Rx,0,8,43,00,21,51,20,00,00,00,
44679775,00000603,false,Rx,0,8,40,00,21,52,00,00,00,00,
44680036,00000583,false,Rx,0,8,43,00,21,52,A0,01,00,00,
44680294,00000603,false,Rx,0,8,40,00,21,53,00,00,00,00,
44680559,00000583,false,Rx,0,8,43,00,21,53,00,00,00,00,
44680831,00000603,false,Rx,0,8,40,00,21,54,00,00,00,00,
44681086,00000583,false,Rx,0,8,43,00,21,54,00,00,00,00,
44681347,00000603,false,Rx,0,8,40,00,21,55,00,00,00,00,
44681608,00000583,false,Rx,0,8,43,00,21,55,C0,01,00,00,
44681870,00000603,false,Rx,0,8,40,00,21,56,00,00,00,00,
44682139,00000583,false,Rx,0,8,43,00,21,56,60,00,00,00,
44682404,00000603,false,Rx,0,8,40,00,21,57,00,00,00,00,
44682669,00000583,false,Rx,0,8,43,00,21,57,00,02,00,00,
44682935,00000603,false,Rx,0,8,40,00,21,62,00,00,00,00,
44683167,00000155,false,Rx,0,8,5E,47,A1,54,27,D8,02,AE,
44683402,00000583,false,Rx,0,8,43,00,21,62,80,01,00,00,
44683658,00000603,false,Rx,0,8,40,00,21,63,00,00,00,00,
44683894,00000377,false,Rx,0,8,05,9D,01,BD,3E,3E,3E,22,
44684134,00000583,false,Rx,0,8,43,00,21,63,60,01,00,00,
44684396,00000603,false,Rx,0,8,40,00,21,6E,00,00,00,00,
44684671,00000583,false,Rx,0,8,43,00,21,6E,00,00,00,00,
44684932,00000603,false,Rx,0,8,40,00,21,6F,00,00,00,00,
44685191,00000583,false,Rx,0,8,43,00,21,6F,40,00,00,00,
44685453,00000603,false,Rx,0,8,40,00,21,72,00,00,00,00,
44685715,00000583,false,Rx,0,8,43,00,21,72,00,0F,00,00,
44685981,00000603,false,Rx,0,8,40,00,21,73,00,00,00,00,
44686239,00000583,false,Rx,0,8,43,00,21,73,00,13,01,00,
44686500,00000603,false,Rx,0,8,40,00,21,74,00,00,00,00,
44686764,00000583,false,Rx,0,8,43,00,21,74,00,FA,00,00,
44687036,00000603,false,Rx,0,8,40,00,21,75,00,00,00,00,
44687297,00000583,false,Rx,0,8,43,00,21,75,60,00,00,00,
44687565,00000603,false,Rx,0,8,40,00,21,76,00,00,00,00,
44687823,00000583,false,Rx,0,8,43,00,21,76,40,00,00,00,
44688089,00000603,false,Rx,0,8,40,00,21,4B,00,00,00,00,
44688353,00000583,false,Rx,0,8,43,00,21,4B,00,00,00,00,
44688621,00000603,false,Rx,0,8,40,00,21,58,00,00,00,00,
44688886,00000583,false,Rx,0,8,43,00,21,58,60,00,00,00,
44689151,00000603,false,Rx,0,8,40,00,21,64,00,00,00,00,
44689410,00000583,false,Rx,0,8,43,00,21,64,E0,59,00,00,
44689672,00000603,false,Rx,0,8,40,00,21,65,00,00,00,00,
44689938,00000583,false,Rx,0,8,43,00,21,65,00,84,03,00,
44690198,00000603,false,Rx,0,8,40,00,21,66,00,00,00,00,
44690460,00000583,false,Rx,0,8,43,00,21,66,00,C2,01,00,
44690720,00000603,false,Rx,0,8,40,00,21,67,00,00,00,00,
44690980,00000583,false,Rx,0,8,43,00,21,67,00,C2,01,00,
44691245,00000603,false,Rx,0,8,40,00,21,68,00,00,00,00,
44691507,00000583,false,Rx,0,8,43,00,21,68,00,C2,01,00,
44691767,00000603,false,Rx,0,8,40,00,21,84,00,00,00,00,
44692033,00000583,false,Rx,0,8,43,00,21,84,00,00,00,00,
44692301,00000603,false,Rx,0,8,40,07,21,D0,00,00,00,00,
44692557,00000583,false,Rx,0,8,43,07,21,D0,80,00,00,00,
44692823,00000603,false,Rx,0,8,40,07,21,D2,00,00,00,00,
44693086,00000583,false,Rx,0,8,43,07,21,D2,20,00,00,00,
44693316,00000155,false,Rx,0,8,5E,47,A1,54,27,D8,02,AE,
44693558,00000603,false,Rx,0,8,40,07,21,D3,00,00,00,00,
44693816,00000583,false,Rx,0,8,43,07,21,D3,00,00,00,00,
44694067,0000038A,false,Rx,0,8,3D,3B,00,00,04,00,00,00,
44694307,00000603,false,Rx,0,8,40,07,21,D4,00,00,00,00,
44694573,00000583,false,Rx,0,8,43,07,21,D4,00,00,00,00,
44694831,00000603,false,Rx,0,8,40,07,21,D5,00,00,00,00,
44695114,00000583,false,Rx,0,8,43,07,21,D5,00,00,00,00,
44695362,00000603,false,Rx,0,8,40,07,21,D6,00,00,00,00,
44695616,00000583,false,Rx,0,8,43,07,21,D6,C0,2A,00,00,
44697277,00000603,false,Rx,0,8,40,07,21,D7,00,00,00,00,
44697328,00000583,false,Rx,0,8,43,07,21,D7,00,00,00,00,
44697368,00000603,false,Rx,0,8,40,07,21,D8,00,00,00,00,
44697456,00000583,false,Rx,0,8,43,07,21,D8,00,00,00,00,
44697502,00000603,false,Rx,0,8,40,07,21,D9,00,00,00,00,
44697544,00000583,false,Rx,0,8,43,07,21,D9,00,00,00,00,
44697587,00000603,false,Rx,0,8,40,07,21,DA,00,00,00,00,
44697744,00000583,false,Rx,0,8,43,07,21,DA,60,2B,00,00,
44698000,00000603,false,Rx,0,8,40,07,21,DB,00,00,00,00,
44698262,00000583,false,Rx,0,8,43,07,21,DB,00,00,00,00,
44698530,00000603,false,Rx,0,8,40,07,21,DC,00,00,00,00,
44698793,00000583,false,Rx,0,8,43,07,21,DC,80,FE,FF,FF,
44699057,00000603,false,Rx,0,8,40,07,21,DD,00,00,00,00,
44699319,00000583,false,Rx,0,8,43,07,21,DD,06,01,00,00,
44699578,00000603,false,Rx,0,8,40,07,21,DE,00,00,00,00,
44699844,00000583,false,Rx,0,8,43,07,21,DE,00,00,00,00,
44700106,00000603,false,Rx,0,8,40,07,21,DF,00,00,00,00,
44700374,00000583,false,Rx,0,8,43,07,21,DF,30,03,00,00,
44700632,00000603,false,Rx,0,8,40,08,21,24,00,00,00,00,
44700891,00000583,false,Rx,0,8,43,08,21,24,00,BD,01,00,
44701153,00000603,false,Rx,0,8,40,08,21,25,00,00,00,00,
44701415,00000583,false,Rx,0,8,43,08,21,25,40,BE,01,00,
44701678,00000603,false,Rx,0,8,40,08,21,26,00,00,00,00,
44701941,00000583,false,Rx,0,8,43,08,21,26,20,02,00,00,
44702206,00000603,false,Rx,0,8,40,08,21,27,00,00,00,00,
44702473,00000583,false,Rx,0,8,43,08,21,27,60,02,00,00,
44702741,00000603,false,Rx,0,8,40,08,21,28,00,00,00,00,
44703003,00000583,false,Rx,0,8,43,08,21,28,40,0A,00,00,
44703243,00000155,false,Rx,0,8,5E,47,A2,54,27,D8,02,AE,
44703487,00000603,false,Rx,0,8,40,07,21,E0,00,00,00,00,
44703818,00000583,false,Rx,0,8,43,07,21,E0,00,00,00,00,
44704051,00000377,false,Rx,0,8,05,9D,01,BD,3E,3E,3E,22,
44704290,00000603,false,Rx,0,8,40,07,21,E1,00,00,00,00,
44704559,00000583,false,Rx,0,8,43,07,21,E1,00,00,00,00,
44704819,00000603,false,Rx,0,8,40,07,21,E2,00,00,00,00,
44705087,00000583,false,Rx,0,8,43,07,21,E2,00,00,00,00,
44705350,00000603,false,Rx,0,8,40,07,21,E3,00,00,00,00,
44705608,00000583,false,Rx,0,8,43,07,21,E3,C0,35,00,00,
44705872,00000603,false,Rx,0,8,40,07,21,E4,00,00,00,00,
44706131,00000583,false,Rx,0,8,43,07,21,E4,60,1A,00,00,
44706393,00000603,false,Rx,0,8,40,07,21,E5,00,00,00,00,
44706679,00000583,false,Rx,0,8,43,07,21,E5,00,00,00,00,
44706943,00000603,false,Rx,0,8,40,07,21,E6,00,00,00,00,
44707209,00000583,false,Rx,0,8,43,07,21,E6,00,00,00,00,
44707478,00000603,false,Rx,0,8,40,07,21,E7,00,00,00,00,
44707735,00000583,false,Rx,0,8,43,07,21,E7,00,00,00,00,
44708015,00000603,false,Rx,0,8,40,07,21,E8,00,00,00,00,
44708289,00000583,false,Rx,0,8,43,07,21,E8,00,00,00,00,
44708540,00000603,false,Rx,0,8,40,07,21,EC,00,00,00,00,
44708803,00000583,false,Rx,0,8,43,07,21,EC,60,02,00,00,
44709086,00000603,false,Rx,0,8,40,07,21,ED,00,00,00,00,
44709330,00000583,false,Rx,0,8,43,07,21,ED,12,02,00,00,
44709595,00000603,false,Rx,0,8,40,07,21,EE,00,00,00,00,
44709868,00000583,false,Rx,0,8,43,07,21,EE,00,00,00,00,
44710118,00000603,false,Rx,0,8,40,07,21,EF,00,00,00,00,
44710383,00000583,false,Rx,0,8,43,07,21,EF,ED,01,00,00,
44710647,00000603,false,Rx,0,8,40,07,21,F0,00,00,00,00,
44710923,00000583,false,Rx,0,8,43,07,21,F0,00,00,00,00,
44711184,00000603,false,Rx,0,8,40,08,21,22,00,00,00,00,
44711451,00000583,false,Rx,0,8,43,08,21,22,40,06,00,00,
44711716,00000603,false,Rx,0,8,40,07,21,F1,00,00,00,00,
44711987,00000583,false,Rx,0,8,43,07,21,F1,00,00,00,00,
44712245,00000603,false,Rx,0,8,40,07,21,F2,00,00,00,00,
44712517,00000583,false,Rx,0,8,43,07,21,F2,00,00,00,00,
44712782,00000603,false,Rx,0,8,40,07,21,F3,00,00,00,00,
44713049,00000583,false,Rx,0,8,43,07,21,F3,00,00,00,00,
44713282,00000155,false,Rx,0,8,5E,47,A2,54,27,D8,02,AE,
44713521,00000603,false,Rx,0,8,40,07,21,F4,00,00,00,00,
44713816,00000583,false,Rx,0,8,43,07,21,F4,20,00,00,00,
44714063,00000389,false,Rx,0,8,AB,00,00,3B,3B,40,00,00,
44714300,00000603,false,Rx,0,8,40,07,21,F5,00,00,00,00,
44714588,00000583,false,Rx,0,8,43,07,21,F5,00,00,00,00,
44714837,00000603,false,Rx,0,8,40,07,21,F6,00,00,00,00,
44715107,00000583,false,Rx,0,8,43,07,21,F6,00,00,00,00,
44715372,00000603,false,Rx,0,8,40,07,21,F7,00,00,00,00,
44715647,00000583,false,Rx,0,8,43,07,21,F7,00,00,00,00,
44715908,00000603,false,Rx,0,8,40,07,21,F8,00,00,00,00,
44716182,00000583,false,Rx,0,8,43,07,21,F8,00,00,00,00,
44716446,00000603,false,Rx,0,8,40,08,21,17,00,00,00,00,
44716727,00000583,false,Rx,0,8,43,08,21,17,00,00,00,00,
44716985,00000603,false,Rx,0,8,40,07,21,F9,00,00,00,00,
44717269,00000583,false,Rx,0,8,43,07,21,F9,00,00,00,00,
44717524,00000603,false,Rx,0,8,40,07,21,FA,00,00,00,00,
44717798,00000583,false,Rx,0,8,43,07,21,FA,20,00,00,00,
44718057,00000603,false,Rx,0,8,40,07,21,FB,00,00,00,00,
44718332,00000583,false,Rx,0,8,43,07,21,FB,00,00,00,00,
44718592,00000603,false,Rx,0,8,40,07,21,FC,00,00,00,00,
44718865,00000583,false,Rx,0,8,43,07,21,FC,20,00,00,00,
44719127,00000603,false,Rx,0,8,40,07,21,FD,00,00,00,00,
44719398,00000583,false,Rx,0,8,43,07,21,FD,20,00,00,00,
44719656,00000603,false,Rx,0,8,40,07,21,FE,00,00,00,00,
44719926,00000583,false,Rx,0,8,43,07,21,FE,20,00,00,00,
44720196,00000603,false,Rx,0,8,40,07,21,FF,00,00,00,00,
44720470,00000583,false,Rx,0,8,43,07,21,FF,20,00,00,00,
44720734,00000603,false,Rx,0,8,40,08,21,00,00,00,00,00,
44721010,00000583,false,Rx,0,8,43,08,21,00,00,00,00,00,
44721273,00000603,false,Rx,0,8,40,08,21,01,00,00,00,00,
44721545,00000583,false,Rx,0,8,43,08,21,01,00,00,00,00,
44721810,00000603,false,Rx,0,8,40,08,21,02,00,00,00,00,
44722083,00000583,false,Rx,0,8,43,08,21,02,20,00,00,00,
44722348,00000603,false,Rx,0,8,40,08,21,03,00,00,00,00,
44722648,00000583,false,Rx,0,8,43,08,21,03,20,00,00,00,
44722911,00000603,false,Rx,0,8,40,08,21,04,00,00,00,00,
44723142,00000155,false,Rx,0,8,5E,47,A2,54,27,D8,02,AE,
44723383,00000583,false,Rx,0,8,43,08,21,04,00,00,00,00,
44723652,00000603,false,Rx,0,8,40,08,21,05,00,00,00,00,
44723889,00000377,false,Rx,0,8,05,9D,01,C2,3E,3E,3E,22,
44724130,00000583,false,Rx,0,8,43,08,21,05,00,00,00,00,
44724394,00000603,false,Rx,0,8,40,08,21,06,00,00,00,00,
44724674,00000583,false,Rx,0,8,43,08,21,06,00,00,00,00,
44724958,00000603,false,Rx,0,8,40,08,21,14,00,00,00,00,
44725228,00000583,false,Rx,0,8,43,08,21,14,00,00,00,00,
44725509,00000603,false,Rx,0,8,40,08,21,07,00,00,00,00,
44726186,00000583,false,Rx,0,8,43,08,21,07,00,00,00,00,
44726238,00000603,false,Rx,0,8,40,08,21,08,00,00,00,00,
44726289,00000583,false,Rx,0,8,43,08,21,08,00,00,00,00,
44726564,00000603,false,Rx,0,8,40,08,21,09,00,00,00,00,
44726835,00000583,false,Rx,0,8,43,08,21,09,00,00,00,00,
44727113,00000603,false,Rx,0,8,40,08,21,0A,00,00,00,00,
44727395,00000583,false,Rx,0,8,43,08,21,0A,00,00,00,00,
44727636,00000603,false,Rx,0,8,40,08,21,0B,00,00,00,00,
44727909,00000583,false,Rx,0,8,43,08,21,0B,00,00,00,00,
44728177,00000603,false,Rx,0,8,40,08,21,0C,00,00,00,00,
44728448,00000583,false,Rx,0,8,43,08,21,0C,00,00,00,00,
44728715,00000603,false,Rx,0,8,40,08,21,0D,00,00,00,00,
44728989,00000583,false,Rx,0,8,43,08,21,0D,00,00,00,00,
44729250,00000603,false,Rx,0,8,40,08,21,0E,00,00,00,00,
44729527,00000583,false,Rx,0,8,43,08,21,0E,00,00,00,00,
44729799,00000603,false,Rx,0,8,40,08,21,10,00,00,00,00,
44730070,00000583,false,Rx,0,8,43,08,21,10,00,00,00,00,
44730334,00000603,false,Rx,0,8,40,08,21,11,00,00,00,00,
44730607,00000583,false,Rx,0,8,43,08,21,11,00,00,00,00,
44730868,00000603,false,Rx,0,8,40,08,21,12,00,00,00,00,
44731147,00000583,false,Rx,0,8,43,08,21,12,A0,00,00,00,
44731401,00000603,false,Rx,0,8,40,08,21,13,00,00,00,00,
44731691,00000583,false,Rx,0,8,43,08,21,13,40,06,00,00,
44731954,00000603,false,Rx,0,8,40,08,21,2A,00,00,00,00,
44732227,00000583,false,Rx,0,8,43,08,21,2A,00,00,00,00,
44732490,00000603,false,Rx,0,8,40,08,21,15,00,00,00,00,
44732768,00000583,false,Rx,0,8,43,08,21,15,20,00,00,00,
44733030,00000603,false,Rx,0,8,40,08,21,16,00,00,00,00,
44733260,00000155,false,Rx,0,8,5E,47,A2,54,27,D8,02,AE,
44733491,00000583,false,Rx,0,8,43,08,21,16,CB,01,00,00,
44733758,00000603,false,Rx,0,8,40,08,21,23,00,00,00,00,
44734030,00000583,false,Rx,0,8,43,08,21,23,A0,05,00,00,
44734293,00000603,false,Rx,0,8,40,08,21,1E,00,00,00,00,
44734567,00000583,false,Rx,0,8,43,08,21,1E,00,02,00,00,
44734833,00000603,false,Rx,0,8,40,08,21,1F,00,00,00,00,
44735120,00000583,false,Rx,0,8,43,08,21,1F,00,00,00,00,
44735376,00000603,false,Rx,0,8,40,08,21,29,00,00,00,00,
44735659,00000583,false,Rx,0,8,43,08,21,29,00,00,00,00,
44735923,00000603,false,Rx,0,8,40,08,21,2B,00,00,00,00,
44736197,00000583,false,Rx,0,8,43,08,21,2B,60,01,00,00,
44736457,00000603,false,Rx,0,8,40,08,21,0F,00,00,00,00,
44736735,00000583,false,Rx,0,8,43,08,21,0F,50,00,00,00,
44736997,00000603,false,Rx,0,8,40,08,21,2E,00,00,00,00,
44737275,00000583,false,Rx,0,8,43,08,21,2E,00,00,00,00,
44737542,00000603,false,Rx,0,8,40,08,21,2F,00,00,00,00,
44737823,00000583,false,Rx,0,8,43,08,21,2F,00,04,01,00,
44738087,00000603,false,Rx,0,8,40,08,21,30,00,00,00,00,
44738358,00000583,false,Rx,0,8,43,08,21,30,80,04,00,00,
44738624,00000603,false,Rx,0,8,40,08,21,31,00,00,00,00,
44738894,00000583,false,Rx,0,8,43,08,21,31,C0,2A,00,00,
44739158,00000603,false,Rx,0,8,40,08,21,32,00,00,00,00,
44739429,00000583,false,Rx,0,8,43,08,21,32,00,77,01,00,
44739694,00000603,false,Rx,0,8,40,08,21,33,00,00,00,00,
44739969,00000583,false,Rx,0,8,43,08,21,33,60,05,00,00,
44740239,00000603,false,Rx,0,8,40,08,21,34,00,00,00,00,
44740535,00000583,false,Rx,0,8,43,08,21,34,C0,07,00,00,
44740783,00000603,false,Rx,0,8,40,08,21,35,00,00,00,00,
44741076,00000583,false,Rx,0,8,43,08,21,35,00,C5,0D,00,
44741310,00000603,false,Rx,0,8,40,08,21,36,00,00,00,00,
44741586,00000583,false,Rx,0,8,43,08,21,36,00,E2,04,00,
44741848,00000603,false,Rx,0,8,40,08,21,37,00,00,00,00,
44742132,00000583,false,Rx,0,8,43,08,21,37,00,00,00,00,
44743029,00000155,false,Rx,0,8,5E,47,A2,54,27,D8,02,AE,
44743824,00000377,false,Rx,0,8,05,9D,01,BD,3E,3E,3E,22,
44752924,00000155,false,Rx,0,8,5E,47,A2,54,27,D8,02,AE,
44758298,00000423,false,Rx,0,8,07,1D,00,02,5D,80,5D,D8,
44758539,00000188,false,Rx,0,8,03,50,A2,4D,00,00,00,00,
44758770,00000285,false,Rx,0,8,00,00,B6,21,90,FE,0C,10,
44759005,00000358,false,Rx,0,8,89,19,56,01,8E,01,00,00,
44762926,00000155,false,Rx,0,8,5E,47,A2,54,27,D8,02,AE,
44763165,00000424,false,Rx,0,8,11,40,56,7C,39,6C,55,3B,
44763389,00000425,false,Rx,0,8,24,52,44,9C,42,02,E1,00,
44763825,00000377,false,Rx,0,8,05,9F,01,BD,3E,3E,3E,22,
44764065,00000398,false,Rx,0,8,01,4D,2D,4B,4C,70,00,00,
44767892,00000109,false,Rx,0,8,00,00,00,00,00,00,00,00,
44768138,00000357,false,Rx,0,8,00,00,00,02,D3,01,00,00,
44772928,00000155,false,Rx,0,8,5E,47,B6,54,27,D8,02,AF,
44776578,00000445,false,Rx,0,7,80,55,55,65,04,82,00,00,
44782928,00000155,false,Rx,0,8,5E,47,C6,54,27,D8,02,AF,
44783827,00000377,false,Rx,0,8,05,9F,01,BD,3E,3E,3E,22,
44793043,00000155,false,Rx,0,8,5E,47,C8,54,27,D8,02,AF,
44793835,0000038A,false,Rx,0,8,3D,3B,00,00,04,00,00,00,
44802963,00000155,false,Rx,0,8,5E,47,C8,54,27,D8,02,AF,
44803823,00000377,false,Rx,0,8,05,9D,01,BD,3E,3E,3E,22,
44812983,00000155,false,Rx,0,8,5E,47,C8,54,27,D8,02,AF,
44813829,00000389,false,Rx,0,8,AC,00,00,3B,3B,40,00,00,
44822998,00000155,false,Rx,0,8,5E,47,C8,54,27,D8,02,B0,
44823825,00000377,false,Rx,0,8,05,9F,01,BD,3E,3E,3E,22,
44832981,00000155,false,Rx,0,8,5E,47,C8,54,27,D8,02,AF,
44833843,00000569,false,Rx,0,8,AA,80,82,02,00,00,00,00,
44842931,00000155,false,Rx,0,8,5E,47,C8,54,27,D8,02,AF,
44843836,00000377,false,Rx,0,8,05,9D,01,BD,3E,3E,3E,22,
44852977,00000155,false,Rx,0,8,5E,47,C8,54,27,D8,02,AF,
44853853,00000568,false,Rx,0,8,00,02,80,0A,00,00,A8,AA,
44858318,00000423,false,Rx,0,8,07,1D,00,02,5D,80,5D,D8,
44858539,00000188,false,Rx,0,8,03,50,A2,4D,00,00,00,00,
44858768,00000285,false,Rx,0,8,00,00,B6,21,90,FE,0C,10,
44859003,00000358,false,Rx,0,8,89,19,58,01,8E,01,00,00,
44862921,00000155,false,Rx,0,8,5E,47,C8,54,27,D8,02,AF,
44863161,00000424,false,Rx,0,8,11,40,56,7C,39,6C,55,3B,
44863385,00000425,false,Rx,0,8,24,52,44,9C,42,02,E1,00,
44863608,000004AE,false,Rx,0,8,D2,B2,3C,A0,88,5A,78,84,
44863785,00000659,false,Rx,0,4,2B,33,C4,30,00,00,00,00,
44864011,00000377,false,Rx,0,8,05,9D,01,C2,3E,3E,3E,22,
44864239,00000398,false,Rx,0,8,01,4D,2D,4B,4C,70,00,00,
