Time Stamp,ID,Extended,Dir,Bus,LEN,D1,D2,D3,D4,D5,D6,D7,D8
16115454,000000AA,false,Rx,0,8,5C,52,07,00,B8,0B,94,00,
16115461,000000A8,false,Rx,0,8,FE,01,21,E0,21,1F,0F,04,
16115701,000000A9,false,Rx,0,8,EA,01,79,DF,1D,C7,E0,21,
16115949,000000BA,false,Rx,0,7,03,FF,0F,00,00,4E,81,00,
16116771,000000C4,false,Rx,0,7,45,08,FC,00,00,FF,F1,00,
16125122,000000AA,false,Rx,0,8,5E,54,07,00,B8,0B,94,00,
16125347,000000A8,false,Rx,0,8,FF,02,21,E0,21,1F,0F,04,
16125572,000000A9,false,Rx,0,8,EB,02,79,DF,1D,C7,E0,21,
16125807,000000BA,false,Rx,0,7,03,FF,0F,00,00,4F,82,00,
16126588,000000B6,false,Rx,0,5,06,06,80,00,C8,00,00,00,
16126827,000000C4,false,Rx,0,7,45,08,FC,00,00,FF,F1,00,
16127237,000000CE,false,Rx,0,8,00,00,00,00,00,00,00,00,
16127462,0000019E,false,Rx,0,8,00,E8,3F,FC,FE,00,00,C3,
16127694,000001A0,false,Rx,0,8,00,80,00,40,01,11,60,D4,
16127925,000002B2,false,Rx,0,8,00,00,00,00,40,00,00,04,
16128150,000000C8,false,Rx,0,6,3B,08,7C,00,00,1C,00,00,
16135422,000000AA,false,Rx,0,8,60,56,07,00,B8,0B,94,00,
16135428,000000A8,false,Rx,0,8,00,03,21,E0,21,1F,0F,04,
16135666,000000A9,false,Rx,0,8,EC,03,79,DF,1D,C7,E0,21,
16135911,000000BA,false,Rx,0,7,03,FF,0F,00,00,50,83,00,
16136702,000000C4,false,Rx,0,7,45,08,FC,00,00,FF,F1,00,
16138907,000004B0,false,Rx,0,8,00,42,FE,01,FF,FF,FF,FF,
16139697,000001D0,false,Rx,0,8,3C,76,63,C3,9C,9E,CD,82,
16145209,000000AA,false,Rx,0,8,62,58,07,00,B8,0B,94,00,
16145434,000000A8,false,Rx,0,8,02,04,21,E0,21,1F,0F,04,
16145668,000000A9,false,Rx,0,8,ED,04,79,DF,1D,C7,E0,21,
16145900,000000BA,false,Rx,0,7,03,FF,0F,00,00,51,84,00,
16146496,000000B6,false,Rx,0,5,07,07,80,00,C8,00,00,00,
16146728,000000C4,false,Rx,0,7,45,08,FC,00,00,FF,F1,00,
16146960,000000CE,false,Rx,0,8,00,00,00,00,00,00,00,00,
16147371,0000019E,false,Rx,0,8,00,E8,3F,FC,FE,00,00,C3,
16147596,000001A0,false,Rx,0,8,00,80,00,60,01,14,70,08,
16147833,000002B2,false,Rx,0,8,00,00,00,00,50,00,00,04,
16148058,000001A6,false,Rx,0,8,00,00,00,00,00,00,80,F5,
16148283,00000374,false,Rx,0,5,00,00,00,00,FC,00,00,00,
16155585,000000AA,false,Rx,0,8,64,5A,07,00,B8,0B,94,00,
16155592,000000A8,false,Rx,0,8,03,05,21,E0,21,1F,0F,04,
16155597,000000A9,false,Rx,0,8,EE,05,79,DF,1D,C7,E0,21,
16155849,000000BA,false,Rx,0,7,03,FF,0F,00,00,52,85,00,
16156652,000000C4,false,Rx,0,7,45,08,FC,00,00,FF,F1,00,
16165255,000000AA,false,Rx,0,8,66,5C,07,00,B8,0B,94,00,
16165479,000000A8,false,Rx,0,8,04,06,21,E0,21,1F,0F,04,
16165707,000000A9,false,Rx,0,8,EF,06,79,DF,1D,C7,E0,21,
16165939,000000BA,false,Rx,0,7,03,FF,0F,00,00,53,86,00,
16166535,000000B6,false,Rx,0,5,08,08,80,00,C8,00,00,00,
16166764,000000C4,false,Rx,0,7,45,08,FC,00,00,FF,F1,00,
16166996,000000CE,false,Rx,0,8,00,00,00,00,00,00,00,00,
16167222,0000019E,false,Rx,0,8,00,E8,3F,FC,FE,00,00,C3,
16167447,000001A0,false,Rx,0,8,00,80,00,60,01,11,80,15,
16167869,000002B2,false,Rx,0,8,00,00,00,00,40,00,00,04,
16168094,000001B4,false,Rx,0,8,00,D0,E2,FA,44,32,FE,D9,
16175806,000000AA,false,Rx,0,8,68,5E,07,00,B8,0B,94,00,
16175812,000000A8,false,Rx,0,8,05,07,21,E0,21,1F,0F,04,
16175817,000000A9,false,Rx,0,8,F0,07,79,DF,1D,C7,E0,21,
16175823,000000BA,false,Rx,0,7,03,FF,0F,00,00,54,87,00,
16176630,000000C4,false,Rx,0,7,45,08,FC,00,00,FF,F1,00,
16185110,000000AA,false,Rx,0,8,5A,50,07,00,B8,0B,94,00,
16185335,000000A8,false,Rx,0,8,06,08,21,E0,21,1F,0F,04,
16185559,000000A9,false,Rx,0,8,F1,08,79,DF,1D,C7,E0,21,
16185799,000000BA,false,Rx,0,7,03,FF,0F,00,00,55,88,00,
16186581,000000B6,false,Rx,0,5,09,09,80,00,C8,00,00,00,
16186817,000000C4,false,Rx,0,7,45,08,FC,00,00,FF,F1,00,
16187041,000000CE,false,Rx,0,8,00,00,00,00,00,00,00,00,
16187267,0000019E,false,Rx,0,8,00,E8,3F,FC,FE,00,00,C3,
16187491,000001A0,false,Rx,0,8,00,80,00,40,01,14,90,08,
16187723,000002B2,false,Rx,0,8,00,00,00,00,50,00,00,04,
16193975,00000130,false,Rx,0,5,45,43,21,8F,33,00,00,00,
16195881,000000AA,false,Rx,0,8,5C,52,07,00,B8,0B,94,00,
16195888,000000A8,false,Rx,0,8,07,09,21,E0,21,1F,0F,04,
16195894,000000A9,false,Rx,0,8,F2,09,79,DF,1D,C7,E0,21,
16195899,000000BA,false,Rx,0,7,03,FF,0F,00,00,56,89,00,
16196145,000001D2,false,Rx,0,5,E1,0C,8F,D0,F0,00,00,00,
16196806,000000C4,false,Rx,0,7,45,08,FC,00,00,FF,F1,00,
16196812,000001D6,false,Rx,0,2,FF,F3,00,00,00,00,00,00,
16205155,000000AA,false,Rx,0,8,5E,54,07,00,B8,0B,94,00,
16205412,000000A8,false,Rx,0,8,08,0A,21,E0,21,1F,0F,04,
16205638,000000A9,false,Rx,0,8,F3,0A,79,DF,1D,C7,E0,21,
16205876,000000BA,false,Rx,0,7,03,FF,0F,00,00,57,8A,00,
16206664,000000B6,false,Rx,0,5,0A,0A,80,00,C8,00,00,00,
16206888,000000C4,false,Rx,0,7,45,08,FC,00,00,FF,F1,00,
16207121,000000CE,false,Rx,0,8,00,00,00,00,00,00,00,00,
16207346,0000019E,false,Rx,0,8,00,E8,3F,FC,FE,00,00,C3,
16207571,000001A0,false,Rx,0,8,00,80,00,60,01,14,A0,38,
16207836,000002B2,false,Rx,0,8,00,00,00,00,50,00,00,04,
16215976,000000AA,false,Rx,0,8,60,56,07,00,B8,0B,94,00,
16215982,000000A8,false,Rx,0,8,09,0B,21,E0,21,1F,0F,04,
16215988,000000A9,false,Rx,0,8,F4,0B,79,DF,1D,C7,E0,21,
16215993,000000BA,false,Rx,0,7,03,FF,0F,00,00,58,8B,00,
16216596,000000C4,false,Rx,0,7,45,08,FC,00,00,FF,F1,00,
16222957,00000480,false,Rx,0,8,17,42,FD,FF,FF,FF,FF,FF,
16225248,000000AA,false,Rx,0,8,62,58,07,00,B8,0B,94,00,
16225472,000000A8,false,Rx,0,8,0A,0C,21,E0,21,1F,0F,04,
16225704,000000A9,false,Rx,0,8,F5,0C,79,DF,1D,C7,E0,21,
16225936,000000BA,false,Rx,0,7,03,FF,0F,00,00,59,8C,00,
16226720,000000B6,false,Rx,0,5,0B,0B,80,00,C8,00,00,00,
16226951,000000C4,false,Rx,0,7,45,08,FC,00,00,FF,F1,00,
16227176,000000CE,false,Rx,0,8,00,00,00,00,00,00,00,00,
16227401,0000019E,false,Rx,0,8,00,E8,3F,FC,FE,00,00,C3,
16227626,000001A0,false,Rx,0,8,00,80,00,60,01,11,B0,45,
16227868,000002B2,false,Rx,0,8,00,00,00,00,40,00,00,04,
16232045,00000310,false,Rx,0,7,6E,F4,DA,2D,01,40,23,00,
16235947,000000AA,false,Rx,0,8,64,5A,07,00,B8,0B,94,00,
16235954,000000A8,false,Rx,0,8,0B,0D,21,E0,21,1F,0F,04,
16235959,000000A9,false,Rx,0,8,F6,0D,79,DF,1D,C7,E0,21,
16235964,000000BA,false,Rx,0,7,03,FF,0F,00,00,5A,8D,00,
16236582,000000C4,false,Rx,0,7,45,08,FC,00,00,FF,F1,00,
16239694,000001D0,false,Rx,0,8,3C,76,64,C3,9C,9E,CD,82,
16245185,000000AA,false,Rx,0,8,66,5C,07,00,B8,0B,94,00,
16245410,000000A8,false,Rx,0,8,0C,0E,21,E0,21,1F,0F,04,
16245636,000000A9,false,Rx,0,8,F7,0E,79,DF,1D,C7,E0,21,
16245873,000000BA,false,Rx,0,7,03,FF,0F,00,00,5B,8E,00,
16246699,000000B6,false,Rx,0,5,0C,0C,80,00,C8,00,00,00,
16246704,000000C4,false,Rx,0,7,45,08,FC,00,00,FF,F1,00,
16247122,000000CE,false,Rx,0,8,00,00,00,00,00,00,00,00,
16247347,0000019E,false,Rx,0,8,00,E8,3F,FC,FE,00,00,C3,
16247572,000001A0,false,Rx,0,8,00,80,00,60,01,14,C0,58,
16247813,000002B2,false,Rx,0,8,00,00,00,00,50,00,00,04,
16248037,000001A6,false,Rx,0,8,00,00,00,00,00,00,10,F7,
16249768,000001FB,false,Rx,0,2,FB,FF,00,00,00,00,00,00,
16256153,000000AA,false,Rx,0,8,5A,50,07,00,B8,0B,94,00,
16256159,000000A8,false,Rx,0,8,FD,00,21,E0,21,1F,0F,04,
16256164,000000A9,false,Rx,0,8,E9,00,79,DF,1D,C7,E0,21,
16256170,000000BA,false,Rx,0,7,03,FF,0F,00,00,4D,80,00,
16256597,000000C4,false,Rx,0,7,45,08,FC,00,00,FF,F1,00,
16265201,000000AA,false,Rx,0,8,5C,52,07,00,B8,0B,94,00,
16265426,000000A8,false,Rx,0,8,FE,01,21,E0,21,1F,0F,04,
16265655,000000A9,false,Rx,0,8,EA,01,79,DF,1D,C7,E0,21,
16265887,000000BA,false,Rx,0,7,03,FF,0F,00,00,4E,81,00,
16266483,000000B6,false,Rx,0,5,0D,0D,80,00,C8,00,00,00,
16266713,000000C4,false,Rx,0,7,45,08,FC,00,00,FF,F1,00,
16266944,000000CE,false,Rx,0,8,00,00,00,00,00,00,00,00,
16267169,0000019E,false,Rx,0,8,00,E8,3F,FC,FE,00,00,C3,
16267580,000001A0,false,Rx,0,8,00,80,00,60,01,14,D0,68,
16267818,000002B2,false,Rx,0,8,00,00,00,00,50,00,00,04,
16268043,000001B4,false,Rx,0,8,00,D0,E2,FB,44,32,FE,DA,
16276344,000000AA,false,Rx,0,8,5E,54,07,00,B8,0B,94,00,
16276351,000000A8,false,Rx,0,8,FF,02,21,E0,21,1F,0F,04,
16276356,000000A9,false,Rx,0,8,EB,02,79,DF,1D,C7,E0,21,
16276361,000000BA,false,Rx,0,7,03,FF,0F,00,00,4F,82,00,
16276604,000000C4,false,Rx,0,7,45,08,FC,00,00,FF,F1,00,
16285192,000000AA,false,Rx,0,8,60,56,07,00,B8,0B,94,00,
16285418,000000A8,false,Rx,0,8,00,03,21,E0,21,1F,0F,04,
16285643,000000A9,false,Rx,0,8,EC,03,79,DF,1D,C7,E0,21,
16285882,000000BA,false,Rx,0,7,03,FF,0F,00,00,50,83,00,
16286478,000000B6,false,Rx,0,5,0E,0E,80,00,C8,00,00,00,
16286705,000000C4,false,Rx,0,7,45,08,FC,00,00,FF,F1,00,
16287123,000000CE,false,Rx,0,8,00,00,00,00,00,00,00,00,
16287348,0000019E,false,Rx,0,8,00,E8,3F,FC,FE,00,00,C3,
16287573,000001A0,false,Rx,0,8,00,80,00,40,01,14,E0,58,
16287813,000002B2,false,Rx,0,8,00,00,00,00,50,00,00,04,
16293876,00000130,false,Rx,0,5,45,43,21,8F,44,00,00,00,
308605,000000AA,false,Rx,0,8,62,58,07,00,B8,0B,94,00,
308612,000000A8,false,Rx,0,8,02,04,21,E0,21,1F,0F,04,
308617,000000A9,false,Rx,0,8,ED,04,79,DF,1D,C7,E0,21,
308622,000000BA,false,Rx,0,7,03,FF,0F,00,00,51,84,00,
308627,000000C4,false,Rx,0,7,45,08,FC,00,00,FF,F1,00,
308926,00000194,false,Rx,0,4,E7,F6,00,F0,00,00,00,00,
308932,000001D6,false,Rx,0,2,FF,F3,00,00,00,00,00,00,
317130,000000AA,false,Rx,0,8,64,5A,07,00,B8,0B,94,00,
317353,000000A8,false,Rx,0,8,03,05,21,E0,21,1F,0F,04,
317578,000000A9,false,Rx,0,8,EE,05,79,DF,1D,C7,E0,21,
317818,000000BA,false,Rx,0,7,03,FF,0F,00,00,52,85,00,
318599,000000B6,false,Rx,0,5,FF,00,80,00,C8,00,00,00,
318830,000000C4,false,Rx,0,7,45,08,FC,00,00,FF,F1,00,
319063,000000CE,false,Rx,0,8,00,00,00,00,00,00,00,00,
319287,0000019E,false,Rx,0,8,00,E8,4F,FC,FE,00,00,D3,
319703,000001A0,false,Rx,0,8,00,80,00,40,01,14,00,77,
319936,000002B2,false,Rx,0,8,00,00,00,00,50,00,00,04,
325664,00000497,false,Rx,0,8,29,42,FF,FF,FF,FF,FF,FF,
328807,000000AA,false,Rx,0,8,66,5C,07,00,B8,0B,94,00,
328814,000000A8,false,Rx,0,8,04,06,21,E0,21,1F,0F,04,
328819,000000A9,false,Rx,0,8,EF,06,79,DF,1D,C7,E0,21,
328824,000000BA,false,Rx,0,7,03,FF,0F,00,00,53,86,00,
328829,000000C4,false,Rx,0,7,45,08,FC,00,00,FF,F1,00,
337103,000000AA,false,Rx,0,8,68,5E,07,00,B8,0B,94,00,
337329,000000A8,false,Rx,0,8,05,07,21,E0,21,1F,0F,04,
337553,000000A9,false,Rx,0,8,F0,07,79,DF,1D,C7,E0,21,
337791,000000BA,false,Rx,0,7,03,FF,0F,00,00,54,87,00,
338797,000000B6,false,Rx,0,5,00,01,80,00,C8,00,00,00,
338802,000000C4,false,Rx,0,7,45,08,FC,00,00,FF,F1,00,
339221,000000CE,false,Rx,0,8,00,00,00,00,00,00,00,00,
339446,0000019E,false,Rx,0,8,00,E8,4F,FC,FE,00,00,D3,
339676,000001A0,false,Rx,0,8,00,80,00,40,01,14,10,87,
339907,000002B2,false,Rx,0,8,00,00,00,00,50,00,00,04,
340132,000000C8,false,Rx,0,6,3B,08,CC,00,00,2C,00,00,
347123,000000AA,false,Rx,0,8,5A,50,07,00,B8,0B,94,00,
348900,000000A8,false,Rx,0,8,06,08,21,E0,21,1F,0F,04,
348906,000000A9,false,Rx,0,8,F1,08,79,DF,1D,C7,E0,21,
348911,000000BA,false,Rx,0,7,03,FF,0F,00,00,55,88,00,
348917,000000C4,false,Rx,0,7,45,08,FC,00,00,FF,F1,00,
351676,000001D0,false,Rx,0,8,3C,76,64,C3,9C,9E,CD,82,
357188,000000AA,false,Rx,0,8,5C,52,07,00,B8,0B,94,00,
357413,000000A8,false,Rx,0,8,07,09,21,E0,21,1F,0F,04,
357639,000000A9,false,Rx,0,8,F2,09,79,DF,1D,C7,E0,21,
357876,000000BA,false,Rx,0,7,03,FF,0F,00,00,56,89,00,
358665,000000B6,false,Rx,0,5,02,02,80,00,C8,00,00,00,
358897,000000C4,false,Rx,0,7,45,08,FC,00,00,FF,F1,00,
359122,000000CE,false,Rx,0,8,00,00,00,00,00,00,00,00,
359347,0000019E,false,Rx,0,8,00,E8,4F,FC,FE,00,00,D3,
359572,000001A0,false,Rx,0,8,00,80,00,40,01,14,20,97,
359807,000002B2,false,Rx,0,8,00,00,00,00,50,00,00,04,
360032,000001A6,false,Rx,0,8,00,00,00,00,00,00,A0,F8,
367219,000000AA,false,Rx,0,8,5E,54,07,00,B8,0B,94,00,
368971,000000A8,false,Rx,0,8,08,0A,21,E0,21,1F,0F,04,
368977,000000A9,false,Rx,0,8,F3,0A,79,DF,1D,C7,E0,21,
368983,000000BA,false,Rx,0,7,03,FF,0F,00,00,57,8A,00,
368988,000000C4,false,Rx,0,7,45,08,FC,00,00,FF,F1,00,
377238,000000AA,false,Rx,0,8,60,56,07,00,B8,0B,94,00,
377465,000000A8,false,Rx,0,8,09,0B,21,E0,21,1F,0F,04,
377697,000000A9,false,Rx,0,8,F4,0B,79,DF,1D,C7,E0,21,
377929,000000BA,false,Rx,0,7,03,FF,0F,00,00,58,8B,00,
378525,000000B6,false,Rx,0,5,03,03,80,00,C8,00,00,00,
378753,000000C4,false,Rx,0,7,45,08,FC,00,00,FF,F1,00,
378985,000000CE,false,Rx,0,8,00,00,00,00,00,00,00,00,
379396,0000019E,false,Rx,0,8,00,E8,4F,FC,FE,00,00,D3,
379621,000001A0,false,Rx,0,8,00,80,00,40,01,11,30,A4,
379860,000002B2,false,Rx,0,8,00,00,00,00,40,00,00,04,
380084,000001B4,false,Rx,0,8,00,D0,E2,FC,44,32,FE,DB,
387084,000000AA,false,Rx,0,8,62,58,07,00,B8,0B,94,00,
389023,000000A8,false,Rx,0,8,0A,0C,21,E0,21,1F,0F,04,
389029,000000A9,false,Rx,0,8,F5,0C,79,DF,1D,C7,E0,21,
389034,000000BA,false,Rx,0,7,03,FF,0F,00,00,59,8C,00,
389040,000000C4,false,Rx,0,7,45,08,FC,00,00,FF,F1,00,
397231,000000AA,false,Rx,0,8,64,5A,07,00,B8,0B,94,00,
397457,000000A8,false,Rx,0,8,0B,0D,21,E0,21,1F,0F,04,
397688,000000A9,false,Rx,0,8,F6,0D,79,DF,1D,C7,E0,21,
397920,000000BA,false,Rx,0,7,03,FF,0F,00,00,5A,8D,00,
398516,000000B6,false,Rx,0,5,04,04,80,00,C8,00,00,00,
398744,000000C4,false,Rx,0,7,45,08,FC,00,00,FF,F1,00,
399162,000000CE,false,Rx,0,8,00,00,00,00,00,00,00,00,
399387,0000019E,false,Rx,0,8,00,E8,4F,FC,FE,00,00,D3,
399612,000001A0,false,Rx,0,8,00,80,00,60,01,14,40,D7,
399852,000002B2,false,Rx,0,8,00,00,00,00,50,00,00,04,
405914,00000130,false,Rx,0,5,45,43,21,8F,55,00,00,00,
407080,000000AA,false,Rx,0,8,66,5C,07,00,B8,0B,94,00,
407491,000000A8,false,Rx,0,8,0C,0E,21,E0,21,1F,0F,04,
409239,000000A9,false,Rx,0,8,F7,0E,79,DF,1D,C7,E0,21,
409247,000000BA,false,Rx,0,7,03,FF,0F,00,00,5B,8E,00,
409252,000001D2,false,Rx,0,5,E1,0C,8F,E0,F0,00,00,00,
409257,000000C4,false,Rx,0,7,45,08,FC,00,00,FF,F1,00,
409262,000001D6,false,Rx,0,2,FF,F3,00,00,00,00,00,00,
417253,000000AA,false,Rx,0,8,5A,50,07,00,B8,0B,94,00,
417480,000000A8,false,Rx,0,8,FD,00,21,E0,21,1F,0F,04,
417707,000000A9,false,Rx,0,8,E9,00,79,DF,1D,C7,E0,21,
417939,000000BA,false,Rx,0,7,03,FF,0F,00,00,4D,80,00,
418723,000000B6,false,Rx,0,5,05,05,80,00,C8,00,00,00,
418954,000000C4,false,Rx,0,7,45,08,FC,00,00,FF,F1,00,
419179,000000CE,false,Rx,0,8,00,00,00,00,00,00,00,00,
419404,0000019E,false,Rx,0,8,00,E8,4F,FC,FE,00,00,D3,
419629,000001A0,false,Rx,0,8,00,80,00,40,01,14,50,C7,
419868,000002B2,false,Rx,0,8,00,00,00,00,50,00,00,04,
420093,000004A9,false,Rx,0,8,30,42,FF,FF,FF,FF,FF,FF,
427122,000000AA,false,Rx,0,8,5C,52,07,00,B8,0B,94,00,
427347,000000A8,false,Rx,0,8,FE,01,21,E0,21,1F,0F,04,
427573,000000A9,false,Rx,0,8,EA,01,79,DF,1D,C7,E0,21,
429300,000000BA,false,Rx,0,7,03,FF,0F,00,00,4E,81,00,
429307,000000C4,false,Rx,0,7,45,08,FC,00,00,FF,F1,00,
437174,000000AA,false,Rx,0,8,5E,54,07,00,B8,0B,94,00,
437400,000000A8,false,Rx,0,8,FF,02,21,E0,21,1F,0F,04,
437625,000000A9,false,Rx,0,8,EB,02,79,DF,1D,C7,E0,21,
437865,000000BA,false,Rx,0,7,03,FF,0F,00,00,4F,82,00,
438650,000000B6,false,Rx,0,5,06,06,80,00,C8,00,00,00,
438883,000000C4,false,Rx,0,7,45,08,FC,00,00,FF,F1,00,
439107,000000CE,false,Rx,0,8,00,00,00,00,00,00,00,00,
439333,0000019E,false,Rx,0,8,00,E8,4F,FC,FE,00,00,D3,
439558,000001A0,false,Rx,0,8,00,80,00,40,01,14,60,D7,
439796,000002B2,false,Rx,0,8,00,00,00,00,50,00,00,04,
447083,000000AA,false,Rx,0,8,60,56,07,00,B8,0B,94,00,
447494,000000A8,false,Rx,0,8,00,03,21,E0,21,1F,0F,04,
447723,000000A9,false,Rx,0,8,EC,03,79,DF,1D,C7,E0,21,
449418,000000BA,false,Rx,0,7,03,FF,0F,00,00,50,83,00,
449425,000000C4,false,Rx,0,7,45,08,FC,00,00,FF,F1,00,
451826,000001D0,false,Rx,0,8,3C,76,65,C3,9C,9E,CD,82,
451832,000001FB,false,Rx,0,2,FC,FF,00,00,00,00,00,00,
457131,000000AA,false,Rx,0,8,62,58,07,00,B8,0B,94,00,
457354,000000A8,false,Rx,0,8,02,04,21,E0,21,1F,0F,04,
457580,000000A9,false,Rx,0,8,ED,04,79,DF,1D,C7,E0,21,
457817,000000BA,false,Rx,0,7,03,FF,0F,00,00,51,84,00,
458598,000000B6,false,Rx,0,5,07,07,80,00,C8,00,00,00,
458837,000000C4,false,Rx,0,7,45,08,FC,00,00,FF,F1,00,
459061,000000CE,false,Rx,0,8,00,00,00,00,00,00,00,00,
459287,0000019E,false,Rx,0,8,00,E8,4F,FC,FE,00,00,D3,
459512,000001A0,false,Rx,0,8,00,80,00,60,01,14,70,08,
459740,000002B2,false,Rx,0,8,00,00,00,00,50,00,00,04,
459973,000001A6,false,Rx,0,8,00,00,00,00,00,00,30,FA,
467160,000000AA,false,Rx,0,8,64,5A,07,00,B8,0B,94,00,
467386,000000A8,false,Rx,0,8,03,05,21,E0,21,1F,0F,04,
467611,000000A9,false,Rx,0,8,EE,05,79,DF,1D,C7,E0,21,
467852,000000BA,false,Rx,0,7,03,FF,0F,00,00,52,85,00,
469520,000000C4,false,Rx,0,7,45,08,FC,00,00,FF,F1,00,
470744,000003B0,false,Rx,0,2,FD,FF,00,00,00,00,00,00,
477255,000000AA,false,Rx,0,8,66,5C,07,00,B8,0B,94,00,
477479,000000A8,false,Rx,0,8,04,06,21,E0,21,1F,0F,04,
477707,000000A9,false,Rx,0,8,EF,06,79,DF,1D,C7,E0,21,
477939,000000BA,false,Rx,0,7,03,FF,0F,00,00,53,86,00,
478535,000000B6,false,Rx,0,5,08,08,80,00,C8,00,00,00,
478764,000000C4,false,Rx,0,7,45,08,FC,00,00,FF,F1,00,
478996,000000CE,false,Rx,0,8,00,00,00,00,00,00,00,00,
479222,0000019E,false,Rx,0,8,00,E8,4F,FC,FE,00,00,D3,
479447,000001A0,false,Rx,0,8,00,80,00,60,01,11,80,15,
479867,000001B4,false,Rx,0,8,00,D0,E2,FD,44,32,FE,DC,
480092,000002B2,false,Rx,0,8,00,00,00,00,40,00,00,04,
487085,000000AA,false,Rx,0,8,68,5E,07,00,B8,0B,94,00,
487496,000000A8,false,Rx,0,8,05,07,21,E0,21,1F,0F,04,
487724,000000A9,false,Rx,0,8,F0,07,79,DF,1D,C7,E0,21,
487955,000000BA,false,Rx,0,7,03,FF,0F,00,00,54,87,00,
489613,000000C4,false,Rx,0,7,45,08,FC,00,00,FF,F1,00,
497106,000000AA,false,Rx,0,8,5A,50,07,00,B8,0B,94,00,
497332,000000A8,false,Rx,0,8,06,08,21,E0,21,1F,0F,04,
497557,000000A9,false,Rx,0,8,F1,08,79,DF,1D,C7,E0,21,
497793,000000BA,false,Rx,0,7,03,FF,0F,00,00,55,88,00,
498574,000000B6,false,Rx,0,5,09,09,80,00,C8,00,00,00,
498815,000000C4,false,Rx,0,7,45,08,FC,00,00,FF,F1,00,
499040,000000CE,false,Rx,0,8,00,00,00,00,00,00,00,00,
499265,0000019E,false,Rx,0,8,00,E8,4F,FC,FE,00,00,D3,
499491,000001A0,false,Rx,0,8,00,80,00,60,01,14,90,28,
499722,000002B2,false,Rx,0,8,00,00,00,00,50,00,00,04,
505975,00000130,false,Rx,0,5,45,43,21,8F,76,00,00,00,
507139,000000AA,false,Rx,0,8,5C,52,07,00,B8,0B,94,00,
507365,000000A8,false,Rx,0,8,07,09,21,E0,21,1F,0F,04,
507589,000000A9,false,Rx,0,8,F2,09,79,DF,1D,C7,E0,21,
507828,000000BA,false,Rx,0,7,03,FF,0F,00,00,56,89,00,
509659,000000C4,false,Rx,0,7,45,08,FC,00,00,FF,F1,00,
509666,00000194,false,Rx,0,4,E8,F7,00,F0,00,00,00,00,
509671,000001D6,false,Rx,0,2,FF,F3,00,00,00,00,00,00,
510872,000004B0,false,Rx,0,8,00,42,FE,01,FF,FF,FF,FF,
517179,000000AA,false,Rx,0,8,5E,54,07,00,B8,0B,94,00,
517405,000000A8,false,Rx,0,8,08,0A,21,E0,21,1F,0F,04,
517630,000000A9,false,Rx,0,8,F3,0A,79,DF,1D,C7,E0,21,
517867,000000BA,false,Rx,0,7,03,FF,0F,00,00,57,8A,00,
518650,000000B6,false,Rx,0,5,0A,0A,80,00,C8,00,00,00,
518877,000000C4,false,Rx,0,7,45,08,FC,00,00,FF,F1,00,
519102,000000CE,false,Rx,0,8,00,00,00,00,00,00,00,00,
519327,0000019E,false,Rx,0,8,00,E8,4F,FC,FE,00,00,D3,
519745,000001A0,false,Rx,0,8,00,80,00,60,01,14,A0,38,
519977,000002B2,false,Rx,0,8,00,00,00,00,50,00,00,04,
524716,000001B5,false,Rx,0,7,C8,FF,04,00,8A,FF,FF,00,
527202,000000AA,false,Rx,0,8,60,56,07,00,B8,0B,94,00,
527428,000000A8,false,Rx,0,8,09,0B,21,E0,21,1F,0F,04,
527655,000000A9,false,Rx,0,8,F4,0B,79,DF,1D,C7,E0,21,
527886,000000BA,false,Rx,0,7,03,FF,0F,00,00,58,8B,00,
529800,000000C4,false,Rx,0,7,45,08,FC,00,00,FF,F1,00,
537211,000000AA,false,Rx,0,8,62,58,07,00,B8,0B,94,00,
537459,000000A8,false,Rx,0,8,0A,0C,21,E0,21,1F,0F,04,
537718,000000A9,false,Rx,0,8,F5,0C,79,DF,1D,C7,E0,21,
537950,000000BA,false,Rx,0,7,03,FF,0F,00,00,59,8C,00,
538740,000000B6,false,Rx,0,5,0B,0B,80,00,C8,00,00,00,
538966,000000C4,false,Rx,0,7,45,08,FC,00,00,FF,F1,00,
539190,000000CE,false,Rx,0,8,00,00,00,00,00,00,00,00,
539414,0000019E,false,Rx,0,8,00,E8,5F,FC,FE,00,00,E3,
539639,000001A0,false,Rx,0,8,00,80,00,60,01,14,B0,48,
539876,000002B2,false,Rx,0,8,00,00,00,00,50,00,00,04,
540101,000000C8,false,Rx,0,6,3B,08,2C,00,00,6C,00,00,
547103,000000AA,false,Rx,0,8,64,5A,07,00,B8,0B,94,00,
547329,000000A8,false,Rx,0,8,0B,0D,21,E0,21,1F,0F,04,
547554,000000A9,false,Rx,0,8,F6,0D,79,DF,1D,C7,E0,21,
547791,000000BA,false,Rx,0,7,03,FF,0F,00,00,5A,8D,00,
549850,000000C4,false,Rx,0,7,45,08,FC,00,00,FF,F1,00,
551683,000001D0,false,Rx,0,8,3C,76,65,C3,9C,9E,CD,82,
557194,000000AA,false,Rx,0,8,66,5C,07,00,B8,0B,94,00,
557420,000000A8,false,Rx,0,8,0C,0E,21,E0,21,1F,0F,04,
557646,000000A9,false,Rx,0,8,F7,0E,79,DF,1D,C7,E0,21,
557881,000000BA,false,Rx,0,7,03,FF,0F,00,00,5B,8E,00,
558668,000000B6,false,Rx,0,5,0C,0C,80,00,C8,00,00,00,
558900,000000C4,false,Rx,0,7,45,08,FC,00,00,FF,F1,00,
559125,000000CE,false,Rx,0,8,00,00,00,00,00,00,00,00,
559349,0000019E,false,Rx,0,8,00,E8,5F,FC,FE,00,00,E3,
559575,000001A0,false,Rx,0,8,00,80,00,40,01,14,C0,38,
559812,000002B2,false,Rx,0,8,00,00,00,00,50,00,00,04,
560037,000001A6,false,Rx,0,8,00,00,00,00,00,00,C0,FB,
567219,000000AA,false,Rx,0,8,5A,50,07,00,B8,0B,94,00,
567445,000000A8,false,Rx,0,8,FD,00,21,E0,21,1F,0F,04,
567676,000000A9,false,Rx,0,8,E9,00,79,DF,1D,C7,E0,21,
567907,000000BA,false,Rx,0,7,03,FF,0F,00,00,4D,80,00,
569967,000000C4,false,Rx,0,7,45,08,FC,00,00,FF,F1,00,
577254,000000AA,false,Rx,0,8,5C,52,07,00,B8,0B,94,00,
577480,000000A8,false,Rx,0,8,FE,01,21,E0,21,1F,0F,04,
577708,000000A9,false,Rx,0,8,EA,01,79,DF,1D,C7,E0,21,
577940,000000BA,false,Rx,0,7,03,FF,0F,00,00,4E,81,00,
578536,000000B6,false,Rx,0,5,0D,0D,80,00,C8,00,00,00,
578765,000000C4,false,Rx,0,7,45,08,FC,00,00,FF,F1,00,
578997,000000CE,false,Rx,0,8,00,00,00,00,00,00,00,00,
579222,0000019E,false,Rx,0,8,00,E8,5F,FC,FE,00,00,E3,
579446,000001A0,false,Rx,0,8,00,80,00,60,01,14,D0,68,
579878,000002B2,false,Rx,0,8,00,00,00,00,50,00,00,04,
580150,000001B4,false,Rx,0,8,00,D0,E2,FE,44,32,FE,DD,
587136,000000AA,false,Rx,0,8,5E,54,07,00,B8,0B,94,00,
587361,000000A8,false,Rx,0,8,FF,02,21,E0,21,1F,0F,04,
587585,000000A9,false,Rx,0,8,EB,02,79,DF,1D,C7,E0,21,
587822,000000BA,false,Rx,0,7,03,FF,0F,00,00,4F,82,00,
590761,000000C4,false,Rx,0,7,45,08,FC,00,00,FF,F1,00,
595017,00000480,false,Rx,0,8,17,42,FD,FF,FF,FF,FF,FF,
597124,000000AA,false,Rx,0,8,60,56,07,00,B8,0B,94,00,
597349,000000A8,false,Rx,0,8,00,03,21,E0,21,1F,0F,04,
597575,000000A9,false,Rx,0,8,EC,03,79,DF,1D,C7,E0,21,
597815,000000BA,false,Rx,0,7,03,FF,0F,00,00,50,83,00,
598596,000000B6,false,Rx,0,5,0E,0E,80,00,C8,00,00,00,
598829,000000C4,false,Rx,0,7,45,08,FC,00,00,FF,F1,00,
599055,000000CE,false,Rx,0,8,00,00,00,00,00,00,00,00,
599280,0000019E,false,Rx,0,8,00,E8,5F,FC,FE,00,00,E3,
599504,000001A0,false,Rx,0,8,00,80,00,60,01,14,E0,78,
599732,000002B2,false,Rx,0,8,00,00,00,00,50,00,00,04,
605988,00000130,false,Rx,0,5,45,43,21,8F,87,00,00,00,
607158,000000AA,false,Rx,0,8,62,58,07,00,B8,0B,94,00,
607383,000000A8,false,Rx,0,8,02,04,21,E0,21,1F,0F,04,
607609,000000A9,false,Rx,0,8,ED,04,79,DF,1D,C7,E0,21,
607847,000000BA,false,Rx,0,7,03,FF,0F,00,00,51,84,00,
608072,000001D2,false,Rx,0,5,E1,0C,8F,F0,F0,00,00,00,
610153,000000C4,false,Rx,0,7,45,08,FC,00,00,FF,F1,00,
610160,000001D6,false,Rx,0,2,FF,F3,00,00,00,00,00,00,
617244,000000AA,false,Rx,0,8,64,5A,07,00,B8,0B,94,00,
617470,000000A8,false,Rx,0,8,03,05,21,E0,21,1F,0F,04,
617703,000000A9,false,Rx,0,8,EE,05,79,DF,1D,C7,E0,21,
617936,000000BA,false,Rx,0,7,03,FF,0F,00,00,52,85,00,
618722,000000B6,false,Rx,0,5,FF,00,80,00,C8,00,00,00,
618954,000000C4,false,Rx,0,7,45,08,FC,00,00,FF,F1,00,
619179,000000CE,false,Rx,0,8,00,00,00,00,00,00,00,00,
619404,0000019E,false,Rx,0,8,00,E8,5F,FC,FE,00,00,E3,
619630,000001A0,false,Rx,0,8,00,80,00,40,01,14,00,77,
619868,000002B2,false,Rx,0,8,00,00,00,00,50,00,00,04,
627245,000000AA,false,Rx,0,8,66,5C,07,00,B8,0B,94,00,
627470,000000A8,false,Rx,0,8,04,06,21,E0,21,1F,0F,04,
627697,000000A9,false,Rx,0,8,EF,06,79,DF,1D,C7,E0,21,
627929,000000BA,false,Rx,0,7,03,FF,0F,00,00,53,86,00,
630161,000000C4,false,Rx,0,7,45,08,FC,00,00,FF,F1,00,
637076,000000AA,false,Rx,0,8,68,5E,07,00,B8,0B,94,00,
637488,000000A8,false,Rx,0,8,05,07,21,E0,21,1F,0F,04,
637716,000000A9,false,Rx,0,8,F0,07,79,DF,1D,C7,E0,21,
637948,000000BA,false,Rx,0,7,03,FF,0F,00,00,54,87,00,
638733,000000B6,false,Rx,0,5,00,01,80,00,C8,00,00,00,
638964,000000C4,false,Rx,0,7,45,08,FC,00,00,FF,F1,00,
639189,000000CE,false,Rx,0,8,00,00,00,00,00,00,00,00,
639414,0000019E,false,Rx,0,8,00,E8,5F,FC,FE,00,00,E3,
639638,000001A0,false,Rx,0,8,00,80,00,60,01,14,10,A7,
639875,000002B2,false,Rx,0,8,00,00,00,00,50,00,00,04,
640858,000001FB,false,Rx,0,2,FD,FF,00,00,00,00,00,00,
647103,000000AA,false,Rx,0,8,5A,50,07,00,B8,0B,94,00,
647329,000000A8,false,Rx,0,8,06,08,21,E0,21,1F,0F,04,
647553,000000A9,false,Rx,0,8,F1,08,79,DF,1D,C7,E0,21,
647791,000000BA,false,Rx,0,7,03,FF,0F,00,00,55,88,00,
650228,000000C4,false,Rx,0,7,45,08,FC,00,00,FF,F1,00,
651807,000001D0,false,Rx,0,8,3C,76,66,C3,9C,9E,CD,82,
657150,000000AA,false,Rx,0,8,5C,52,07,00,B8,0B,94,00,
657383,000000A8,false,Rx,0,8,07,09,21,E0,21,1F,0F,04,
657609,000000A9,false,Rx,0,8,F2,09,79,DF,1D,C7,E0,21,
657849,000000BA,false,Rx,0,7,03,FF,0F,00,00,56,89,00,
658631,000000B6,false,Rx,0,5,02,02,80,00,C8,00,00,00,
658867,000000C4,false,Rx,0,7,45,08,FC,00,00,FF,F1,00,
659092,000000CE,false,Rx,0,8,00,00,00,00,00,00,00,00,
659317,0000019E,false,Rx,0,8,00,E8,5F,FC,FE,00,00,E3,
659541,000001A0,false,Rx,0,8,00,80,00,40,01,14,20,97,
659775,000002B2,false,Rx,0,8,00,00,00,00,50,00,00,04,
660006,000001A6,false,Rx,0,8,00,00,00,00,00,00,50,FD,
667192,000000AA,false,Rx,0,8,5E,54,07,00,B8,0B,94,00,
667416,000000A8,false,Rx,0,8,08,0A,21,E0,21,1F,0F,04,
667642,000000A9,false,Rx,0,8,F3,0A,79,DF,1D,C7,E0,21,
667878,000000BA,false,Rx,0,7,03,FF,0F,00,00,57,8A,00,
668668,000000C4,false,Rx,0,7,42,08,FC,FE,FF,FF,F1,00,
677082,000000AA,false,Rx,0,8,60,56,07,00,B8,0B,94,00,
677496,000000A8,false,Rx,0,8,09,0B,21,E0,21,1F,0F,04,
677724,000000A9,false,Rx,0,8,F4,0B,79,DF,1D,C7,E0,21,
677956,000000BA,false,Rx,0,7,03,FF,0F,00,00,58,8B,00,
678552,000000B6,false,Rx,0,5,03,03,80,00,C8,00,00,00,
678792,000000C4,false,Rx,0,7,45,08,FC,FE,FF,FF,F1,00,
679017,000000CE,false,Rx,0,8,00,00,00,00,00,00,00,00,
679242,0000019E,false,Rx,0,8,00,E8,5F,FC,FE,00,00,E3,
679467,000001A0,false,Rx,0,8,00,80,00,40,01,14,30,A7,
679698,000001B4,false,Rx,0,8,00,D0,E2,F0,44,32,FE,CF,
680117,000002B2,false,Rx,0,8,00,00,00,00,50,00,00,04,
685615,00000497,false,Rx,0,8,29,42,FF,FF,FF,FF,FF,FF,
687167,000000AA,false,Rx,0,8,62,58,07,00,B8,0B,94,00,
687392,000000A8,false,Rx,0,8,0A,0C,21,E0,21,1F,0F,04,
687617,000000A9,false,Rx,0,8,F5,0C,79,DF,1D,C7,E0,21,
687856,000000BA,false,Rx,0,7,03,FF,0F,00,00,59,8C,00,
688638,000000C4,false,Rx,0,7,45,08,FC,00,00,FF,F1,00,
697188,000000AA,false,Rx,0,8,64,5A,07,00,B8,0B,94,00,
697415,000000A8,false,Rx,0,8,0B,0D,21,E0,21,1F,0F,04,
697641,000000A9,false,Rx,0,8,F6,0D,79,DF,1D,C7,E0,21,
697879,000000BA,false,Rx,0,7,03,FF,0F,00,00,5A,8D,00,
698669,000000B6,false,Rx,0,5,04,04,80,00,C8,00,00,00,
698900,000000C4,false,Rx,0,7,45,08,FC,00,00,FF,F1,00,
699125,000000CE,false,Rx,0,8,00,00,00,00,00,00,00,00,
699350,0000019E,false,Rx,0,8,00,E8,5F,FC,FE,00,00,E3,
699575,000001A0,false,Rx,0,8,00,80,00,40,01,14,40,B7,
699815,000002B2,false,Rx,0,8,00,00,00,00,50,00,00,04,
706059,00000130,false,Rx,0,5,45,43,21,8F,98,00,00,00,
707226,000000AA,false,Rx,0,8,66,5C,07,00,B8,0B,94,00,
707449,000000A8,false,Rx,0,8,0C,0E,21,E0,21,1F,0F,04,
707678,000000A9,false,Rx,0,8,F7,0E,79,DF,1D,C7,E0,21,
707910,000000BA,false,Rx,0,7,03,FF,0F,00,00,5B,8E,00,
708696,000000C4,false,Rx,0,7,45,08,FC,00,00,FF,F1,00,
708961,00000194,false,Rx,0,4,E9,F8,00,F0,00,00,00,00,
708966,000001D6,false,Rx,0,2,FF,F3,00,00,00,00,00,00,
717090,000000AA,false,Rx,0,8,5A,50,07,00,B8,0B,94,00,
717504,000000A8,false,Rx,0,8,FD,00,21,E0,21,1F,0F,04,
717733,000000A9,false,Rx,0,8,E9,00,79,DF,1D,C7,E0,21,
717965,000000BA,false,Rx,0,7,03,FF,0F,00,00,4D,80,00,
718752,000000B6,false,Rx,0,5,05,05,80,00,C8,00,00,00,
718977,000000C4,false,Rx,0,7,45,08,FC,00,00,FF,F1,00,
719203,000000CE,false,Rx,0,8,00,00,00,00,00,00,00,00,
719428,0000019E,false,Rx,0,8,00,E8,5F,FC,FE,00,00,E3,
719656,000001A0,false,Rx,0,8,00,80,00,40,01,14,50,C7,
719901,000002B2,false,Rx,0,8,00,00,00,00,50,00,00,04,
727093,000000AA,false,Rx,0,8,5C,52,07,00,B8,0B,94,00,
727317,000000A8,false,Rx,0,8,FE,01,21,E0,21,1F,0F,04,
727733,000000A9,false,Rx,0,8,EA,01,79,DF,1D,C7,E0,21,
727772,000000BA,false,Rx,0,7,03,FF,0F,00,00,4E,81,00,
728754,000000C4,false,Rx,0,7,45,08,FC,00,00,FF,F1,00,
730816,00000335,false,Rx,0,8,00,5C,10,00,00,9A,00,00,
737188,000000AA,false,Rx,0,8,5E,54,07,00,B8,0B,94,00,
737414,000000A8,false,Rx,0,8,FF,02,21,E0,21,1F,0F,04,
737640,000000A9,false,Rx,0,8,EB,02,79,DF,1D,C7,E0,21,
737879,000000BA,false,Rx,0,7,03,FF,0F,00,00,4F,82,00,
738668,000000B6,false,Rx,0,5,06,06,80,00,C8,00,00,00,
738895,000000C4,false,Rx,0,7,45,08,FC,00,00,FF,F1,00,
739119,000000CE,false,Rx,0,8,00,00,00,00,00,00,00,00,
739344,0000019E,false,Rx,0,8,00,E8,6F,FC,FE,00,00,F3,
739569,000001A0,false,Rx,0,8,00,80,00,40,01,11,60,D4,
739807,000002B2,false,Rx,0,8,00,00,00,00,40,00,00,04,
740032,000000C8,false,Rx,0,6,3B,08,7C,00,00,8C,00,00,
747219,000000AA,false,Rx,0,8,60,56,07,00,B8,0B,94,00,
747445,000000A8,false,Rx,0,8,00,03,21,E0,21,1F,0F,04,
747677,000000A9,false,Rx,0,8,EC,03,79,DF,1D,C7,E0,21,
747909,000000BA,false,Rx,0,7,03,FF,0F,00,00,50,83,00,
748697,000000C4,false,Rx,0,7,45,08,FC,00,00,FF,F1,00,
751766,000001D0,false,Rx,0,8,3C,76,66,C3,9C,9E,CD,82,
757235,000000AA,false,Rx,0,8,62,58,07,00,B8,0B,94,00,
757466,000000A8,false,Rx,0,8,02,04,21,E0,21,1F,0F,04,
757732,000000A9,false,Rx,0,8,ED,04,79,DF,1D,C7,E0,21,
757969,000000BA,false,Rx,0,7,03,FF,0F,00,00,51,84,00,
758571,000000B6,false,Rx,0,5,07,07,80,00,C8,00,00,00,
758809,000000C4,false,Rx,0,7,45,08,FC,00,00,FF,F1,00,
759034,000000CE,false,Rx,0,8,00,00,00,00,00,00,00,00,
759259,0000019E,false,Rx,0,8,00,E8,6F,FC,FE,00,00,F3,
759485,000001A0,false,Rx,0,8,00,80,00,60,01,14,70,08,
759716,000002B2,false,Rx,0,8,00,00,00,00,50,00,00,04,
759949,000001A6,false,Rx,0,8,00,00,00,00,00,00,E0,FE,
767130,000000AA,false,Rx,0,8,64,5A,07,00,B8,0B,94,00,
767355,000000A8,false,Rx,0,8,03,05,21,E0,21,1F,0F,04,
767580,000000A9,false,Rx,0,8,EE,05,79,DF,1D,C7,E0,21,
767817,000000BA,false,Rx,0,7,03,FF,0F,00,00,52,85,00,
768599,000000C4,false,Rx,0,7,45,08,FC,00,00,FF,F1,00,
777142,000000AA,false,Rx,0,8,66,5C,07,00,B8,0B,94,00,
777371,000000A8,false,Rx,0,8,04,06,21,E0,21,1F,0F,04,
777596,000000A9,false,Rx,0,8,EF,06,79,DF,1D,C7,E0,21,
777830,000000BA,false,Rx,0,7,03,FF,0F,00,00,53,86,00,
778612,000000B6,false,Rx,0,5,08,08,80,00,C8,00,00,00,
778854,000000C4,false,Rx,0,7,45,08,FC,00,00,FF,F1,00,
779079,000000CE,false,Rx,0,8,00,00,00,00,00,00,00,00,
779304,0000019E,false,Rx,0,8,00,E8,6F,FC,FE,00,00,F3,
779529,000001A0,false,Rx,0,8,00,80,00,40,01,14,80,F7,
779757,000002B2,false,Rx,0,8,00,00,00,00,50,00,00,04,
779989,000004A9,false,Rx,0,8,30,42,FF,FF,FF,FF,FF,FF,
780215,000001B4,false,Rx,0,8,00,D0,E2,F1,44,32,FE,D0,
787212,000000AA,false,Rx,0,8,68,5E,07,00,B8,0B,94,00,
787437,000000A8,false,Rx,0,8,05,07,21,E0,21,1F,0F,04,
787669,000000A9,false,Rx,0,8,F0,07,79,DF,1D,C7,E0,21,
787900,000000BA,false,Rx,0,7,03,FF,0F,00,00,54,87,00,
788688,000000C4,false,Rx,0,7,45,08,FC,00,00,FF,F1,00,
797245,000000AA,false,Rx,0,8,5A,50,07,00,B8,0B,94,00,
797473,000000A8,false,Rx,0,8,06,08,21,E0,21,1F,0F,04,
797707,000000A9,false,Rx,0,8,F1,08,79,DF,1D,C7,E0,21,
797939,000000BA,false,Rx,0,7,03,FF,0F,00,00,55,88,00,
798535,000000B6,false,Rx,0,5,09,09,80,00,C8,00,00,00,
798764,000000C4,false,Rx,0,7,45,08,FC,00,00,FF,F1,00,
798996,000000CE,false,Rx,0,8,00,00,00,00,00,00,00,00,
799221,0000019E,false,Rx,0,8,00,E8,6F,FC,FE,00,00,F3,
799446,000001A0,false,Rx,0,8,00,80,00,40,01,14,90,08,
799867,000002B2,false,Rx,0,8,00,00,00,00,50,00,00,04,
805929,00000130,false,Rx,0,5,45,43,21,8F,A9,00,00,00,
807093,000000AA,false,Rx,0,8,5C,52,07,00,B8,0B,94,00,
807316,000000A8,false,Rx,0,8,07,09,21,E0,21,1F,0F,04,
807730,000000A9,false,Rx,0,8,F2,09,79,DF,1D,C7,E0,21,
807996,000000BA,false,Rx,0,7,03,FF,0F,00,00,56,89,00,
808001,000001D2,false,Rx,0,5,E1,0C,8F,00,F0,00,00,00,
808829,000000C4,false,Rx,0,7,45,08,FC,00,00,FF,F1,00,
808835,000001D6,false,Rx,0,2,FF,F3,00,00,00,00,00,00,
817132,000000AA,false,Rx,0,8,5E,54,07,00,B8,0B,94,00,
817361,000000A8,false,Rx,0,8,08,0A,21,E0,21,1F,0F,04,
817585,000000A9,false,Rx,0,8,F3,0A,79,DF,1D,C7,E0,21,
817824,000000BA,false,Rx,0,7,03,FF,0F,00,00,57,8A,00,
818841,000000B6,false,Rx,0,5,0A,0A,80,00,C8,00,00,00,
818846,000000C4,false,Rx,0,7,45,08,FC,00,00,FF,F1,00,
819257,000000CE,false,Rx,0,8,00,00,00,00,00,00,00,00,
819481,0000019E,false,Rx,0,8,00,E8,6F,FC,FE,00,00,F3,
819709,000001A0,false,Rx,0,8,00,80,00,40,01,14,A0,18,
819935,000002B2,false,Rx,0,8,00,00,00,00,50,00,00,04,
827123,000000AA,false,Rx,0,8,60,56,07,00,B8,0B,94,00,
827348,000000A8,false,Rx,0,8,09,0B,21,E0,21,1F,0F,04,
827573,000000A9,false,Rx,0,8,F4,0B,79,DF,1D,C7,E0,21,
827807,000000BA,false,Rx,0,7,03,FF,0F,00,00,58,8B,00,
828787,000000C4,false,Rx,0,7,45,08,FC,00,00,FF,F1,00,
831861,000001FB,false,Rx,0,2,FE,FF,00,00,00,00,00,00,
837263,000000AA,false,Rx,0,8,62,58,07,00,B8,0B,94,00,
837488,000000A8,false,Rx,0,8,0A,0C,21,E0,21,1F,0F,04,
837716,000000A9,false,Rx,0,8,F5,0C,79,DF,1D,C7,E0,21,
837948,000000BA,false,Rx,0,7,03,FF,0F,00,00,59,8C,00,
838733,000000B6,false,Rx,0,5,0B,0B,80,00,C8,00,00,00,
838964,000000C4,false,Rx,0,7,45,08,FC,00,00,FF,F1,00,
839189,000000CE,false,Rx,0,8,00,00,00,00,00,00,00,00,
839414,0000019E,false,Rx,0,8,00,E8,6F,FC,FE,00,00,F3,
839640,000001A0,false,Rx,0,8,00,80,00,60,01,14,B0,48,
839879,000002B2,false,Rx,0,8,00,00,00,00,50,00,00,04,
847251,000000AA,false,Rx,0,8,64,5A,07,00,B8,0B,94,00,
847475,000000A8,false,Rx,0,8,0B,0D,21,E0,21,1F,0F,04,
847707,000000A9,false,Rx,0,8,F6,0D,79,DF,1D,C7,E0,21,
847937,000000BA,false,Rx,0,7,03,FF,0F,00,00,5A,8D,00,
848728,000000C4,false,Rx,0,7,45,08,FC,00,00,FF,F1,00,
851812,000001D0,false,Rx,0,8,3C,76,67,C3,9C,9E,CD,82,
857174,000000AA,false,Rx,0,8,66,5C,07,00,B8,0B,94,00,
857399,000000A8,false,Rx,0,8,0C,0E,21,E0,21,1F,0F,04,
857625,000000A9,false,Rx,0,8,F7,0E,79,DF,1D,C7,E0,21,
857865,000000BA,false,Rx,0,7,03,FF,0F,00,00,5B,8E,00,
858650,000000B6,false,Rx,0,5,0C,0C,80,00,C8,00,00,00,
858883,000000C4,false,Rx,0,7,45,08,FC,00,00,FF,F1,00,
859108,000000CE,false,Rx,0,8,00,00,00,00,00,00,00,00,
859333,0000019E,false,Rx,0,8,00,E8,6F,FC,FE,00,00,F3,
859558,000001A0,false,Rx,0,8,00,80,00,60,01,14,C0,58,
859796,000002B2,false,Rx,0,8,00,00,00,00,50,00,00,04,
860021,000001A6,false,Rx,0,8,00,00,00,00,00,00,70,F0,
867202,000000AA,false,Rx,0,8,5A,50,07,00,B8,0B,94,00,
867428,000000A8,false,Rx,0,8,FD,00,21,E0,21,1F,0F,04,
867655,000000A9,false,Rx,0,8,E9,00,79,DF,1D,C7,E0,21,
867887,000000BA,false,Rx,0,7,03,FF,0F,00,00,4D,80,00,
868673,000000C4,false,Rx,0,7,45,08,FC,00,00,FF,F1,00,
871622,000004B0,false,Rx,0,8,00,42,FE,01,FF,FF,FF,FF,
877222,000000AA,false,Rx,0,8,5C,52,07,00,B8,0B,94,00,
877455,000000A8,false,Rx,0,8,FE,01,21,E0,21,1F,0F,04,
877699,000000A9,false,Rx,0,8,EA,01,79,DF,1D,C7,E0,21,
877931,000000BA,false,Rx,0,7,03,FF,0F,00,00,4E,81,00,
878527,000000B6,false,Rx,0,5,0D,0D,80,00,C8,00,00,00,
878754,000000C4,false,Rx,0,7,45,08,FC,00,00,FF,F1,00,
878985,000000CE,false,Rx,0,8,00,00,00,00,00,00,00,00,
879396,0000019E,false,Rx,0,8,00,E8,6F,FC,FE,00,00,F3,
879621,000001A0,false,Rx,0,8,00,80,00,40,01,14,D0,48,
879860,000002B2,false,Rx,0,8,00,00,00,00,50,00,00,04,
880085,000001B4,false,Rx,0,8,00,D0,E2,F2,44,32,FE,D1,
887085,000000AA,false,Rx,0,8,5E,54,07,00,B8,0B,94,00,
887496,000000A8,false,Rx,0,8,FF,02,21,E0,21,1F,0F,04,
887724,000000A9,false,Rx,0,8,EB,02,79,DF,1D,C7,E0,21,
887955,000000BA,false,Rx,0,7,03,FF,0F,00,00,4F,82,00,
888746,000000C4,false,Rx,0,7,45,08,FC,00,00,FF,F1,00,
897118,000000AA,false,Rx,0,8,60,56,07,00,B8,0B,94,00,
897347,000000A8,false,Rx,0,8,00,03,21,E0,21,1F,0F,04,
897571,000000A9,false,Rx,0,8,EC,03,79,DF,1D,C7,E0,21,
897807,000000BA,false,Rx,0,7,03,FF,0F,00,00,50,83,00,
898588,000000B6,false,Rx,0,5,0E,0E,80,00,C8,00,00,00,
898828,000000C4,false,Rx,0,7,45,08,FC,00,00,FF,F1,00,
899053,000000CE,false,Rx,0,8,00,00,00,00,00,00,00,00,
899278,0000019E,false,Rx,0,8,00,E8,6F,FC,FE,00,00,F3,
899502,000001A0,false,Rx,0,8,00,80,00,60,01,14,E0,78,
899922,000002B2,false,Rx,0,8,00,00,00,00,50,00,00,04,
905988,00000130,false,Rx,0,5,45,43,21,8F,BA,00,00,00,
907158,000000AA,false,Rx,0,8,62,58,07,00,B8,0B,94,00,
907383,000000A8,false,Rx,0,8,02,04,21,E0,21,1F,0F,04,
907608,000000A9,false,Rx,0,8,ED,04,79,DF,1D,C7,E0,21,
907849,000000BA,false,Rx,0,7,03,FF,0F,00,00,51,84,00,
908862,000000C4,false,Rx,0,7,45,08,FC,00,00,FF,F1,00,
908868,00000194,false,Rx,0,4,EA,F9,00,F0,00,00,00,00,
909092,000001D6,false,Rx,0,2,FF,F3,00,00,00,00,00,00,
917253,000000AA,false,Rx,0,8,64,5A,07,00,B8,0B,94,00,
917482,000000A8,false,Rx,0,8,03,05,21,E0,21,1F,0F,04,
917710,000000A9,false,Rx,0,8,EE,05,79,DF,1D,C7,E0,21,
917942,000000BA,false,Rx,0,7,03,FF,0F,00,00,52,85,00,
918728,000000B6,false,Rx,0,5,FF,00,80,00,C8,00,00,00,
918960,000000C4,false,Rx,0,7,45,08,FC,00,00,FF,F1,00,
919185,000000CE,false,Rx,0,8,00,00,00,00,00,00,00,00,
919410,0000019E,false,Rx,0,8,00,E8,6F,FC,FE,00,00,F3,
919636,000001A0,false,Rx,0,8,00,80,00,40,01,14,00,77,
919873,000002B2,false,Rx,0,8,00,00,00,00,50,00,00,04,
920098,000005A9,false,Rx,0,8,40,23,00,15,FF,FF,FF,FF,
927103,000000AA,false,Rx,0,8,66,5C,07,00,B8,0B,94,00,
927329,000000A8,false,Rx,0,8,04,06,21,E0,21,1F,0F,04,
927554,000000A9,false,Rx,0,8,EF,06,79,DF,1D,C7,E0,21,
927792,000000BA,false,Rx,0,7,03,FF,0F,00,00,53,86,00,
928768,000000C4,false,Rx,0,7,45,08,FC,00,00,FF,F1,00,
937144,000000AA,false,Rx,0,8,68,5E,07,00,B8,0B,94,00,
937390,000000A8,false,Rx,0,8,05,07,21,E0,21,1F,0F,04,
937615,000000A9,false,Rx,0,8,F0,07,79,DF,1D,C7,E0,21,
937855,000000BA,false,Rx,0,7,03,FF,0F,00,00,54,87,00,
938636,000000B6,false,Rx,0,5,00,01,80,00,C8,00,00,00,
938874,000000C4,false,Rx,0,7,45,08,FC,00,00,FF,F1,00,
939298,000000CE,false,Rx,0,8,00,00,00,00,00,00,00,00,
939523,0000019E,false,Rx,0,8,00,E8,6F,FC,FE,00,00,F3,
939754,000001A0,false,Rx,0,8,00,80,00,40,01,14,10,87,
939985,000002B2,false,Rx,0,8,00,00,00,00,50,00,00,04,
940210,000000C8,false,Rx,0,6,3B,08,CC,00,00,9C,00,00,
947202,000000AA,false,Rx,0,8,5A,50,07,00,B8,0B,94,00,
947427,000000A8,false,Rx,0,8,06,08,21,E0,21,1F,0F,04,
947655,000000A9,false,Rx,0,8,F1,08,79,DF,1D,C7,E0,21,
947887,000000BA,false,Rx,0,7,03,FF,0F,00,00,55,88,00,
948677,000000C4,false,Rx,0,7,45,08,FC,00,00,FF,F1,00,
952048,000001D0,false,Rx,0,8,3C,76,67,C3,9C,9E,CD,82,
955010,00000480,false,Rx,0,8,17,42,FD,FF,FF,FF,FF,FF,
957118,000000AA,false,Rx,0,8,5C,52,07,00,B8,0B,94,00,
957343,000000A8,false,Rx,0,8,07,09,21,E0,21,1F,0F,04,
957567,000000A9,false,Rx,0,8,F2,09,79,DF,1D,C7,E0,21,
957809,000000BA,false,Rx,0,7,03,FF,0F,00,00,56,89,00,
958590,000000B6,false,Rx,0,5,02,02,80,00,C8,00,00,00,
958831,000000C4,false,Rx,0,7,45,08,FC,00,00,FF,F1,00,
959056,000000CE,false,Rx,0,8,00,00,00,00,00,00,00,00,
959281,0000019E,false,Rx,0,8,00,E8,7F,FC,FE,00,00,03,
959506,000001A0,false,Rx,0,8,00,80,00,60,01,14,20,B7,
959741,000002B2,false,Rx,0,8,00,00,00,00,50,00,00,04,
960158,000001A6,false,Rx,0,8,00,00,00,00,00,00,00,F2,
967160,000000AA,false,Rx,0,8,5E,54,07,00,B8,0B,94,00,
967385,000000A8,false,Rx,0,8,08,0A,21,E0,21,1F,0F,04,
967610,000000A9,false,Rx,0,8,F3,0A,79,DF,1D,C7,E0,21,
967847,000000BA,false,Rx,0,7,03,FF,0F,00,00,57,8A,00,
968629,000000C4,false,Rx,0,7,45,08,FC,00,00,FF,F1,00,
977176,000000AA,false,Rx,0,8,60,56,07,00,B8,0B,94,00,
977425,000000A8,false,Rx,0,8,09,0B,21,E0,21,1F,0F,04,
977654,000000A9,false,Rx,0,8,F4,0B,79,DF,1D,C7,E0,21,
977886,000000BA,false,Rx,0,7,03,FF,0F,00,00,58,8B,00,
978672,000000B6,false,Rx,0,5,03,03,80,00,C8,00,00,00,
978904,000000C4,false,Rx,0,7,45,08,FC,00,00,FF,F1,00,
979129,000000CE,false,Rx,0,8,00,00,00,00,00,00,00,00,
979355,0000019E,false,Rx,0,8,00,E8,7F,FC,FE,00,00,03,
979580,000001A0,false,Rx,0,8,00,80,00,40,01,11,30,A4,
979817,000002B2,false,Rx,0,8,00,00,00,00,40,00,00,04,
980600,000001B4,false,Rx,0,8,00,D0,E2,F3,44,32,FE,D2,
987230,000000AA,false,Rx,0,8,62,58,07,00,B8,0B,94,00,
987456,000000A8,false,Rx,0,8,0A,0C,21,E0,21,1F,0F,04,
987688,000000A9,false,Rx,0,8,F5,0C,79,DF,1D,C7,E0,21,
987920,000000BA,false,Rx,0,7,03,FF,0F,00,00,59,8C,00,
988706,000000C4,false,Rx,0,7,45,08,FC,00,00,FF,F1,00,
997254,000000AA,false,Rx,0,8,64,5A,07,00,B8,0B,94,00,
997483,000000A8,false,Rx,0,8,0B,0D,21,E0,21,1F,0F,04,
997710,000000A9,false,Rx,0,8,F6,0D,79,DF,1D,C7,E0,21,
997942,000000BA,false,Rx,0,7,03,FF,0F,00,00,5A,8D,00,
998538,000000B6,false,Rx,0,5,04,04,80,00,C8,00,00,00,
998765,000000C4,false,Rx,0,7,45,08,FC,00,00,FF,F1,00,
998997,000000CE,false,Rx,0,8,00,00,00,00,00,00,00,00,
999221,0000019E,false,Rx,0,8,00,E8,7F,FC,FE,00,00,03,
999631,000001A0,false,Rx,0,8,00,80,00,40,01,11,40,B4,
999868,000002B2,false,Rx,0,8,00,00,00,00,40,00,00,04,
1006115,00000130,false,Rx,0,5,45,43,21,8F,CB,00,00,00,
1007093,000000AA,false,Rx,0,8,66,5C,07,00,B8,0B,94,00,
1007551,000000A8,false,Rx,0,8,0C,0E,21,E0,21,1F,0F,04,
1007557,000000A9,false,Rx,0,8,F7,0E,79,DF,1D,C7,E0,21,
1007811,000000BA,false,Rx,0,7,03,FF,0F,00,00,5B,8E,00,
1008079,000001D2,false,Rx,0,5,E1,0C,8F,10,F0,00,00,00,
1008770,000000C4,false,Rx,0,7,45,08,FC,00,00,FF,F1,00,
1008776,000001D6,false,Rx,0,2,FF,F3,00,00,00,00,00,00,
1017139,000000AA,false,Rx,0,8,5A,50,07,00,B8,0B,94,00,
1017368,000000A8,false,Rx,0,8,FD,00,21,E0,21,1F,0F,04,
1017593,000000A9,false,Rx,0,8,E9,00,79,DF,1D,C7,E0,21,
1017829,000000BA,false,Rx,0,7,03,FF,0F,00,00,4D,80,00,
1018848,000000B6,false,Rx,0,5,05,05,80,00,C8,00,00,00,
1018853,000000C4,false,Rx,0,7,45,08,FC,00,00,FF,F1,00,
1019264,000000CE,false,Rx,0,8,00,00,00,00,00,00,00,00,
1019489,0000019E,false,Rx,0,8,00,E8,7F,FC,FE,00,00,03,
1019716,000001A0,false,Rx,0,8,00,80,00,40,01,11,50,C4,
1019947,000002B2,false,Rx,0,8,00,00,00,00,40,00,00,04,
1021867,000001FB,false,Rx,0,2,F0,FF,00,00,00,00,00,00,
1027174,000000AA,false,Rx,0,8,5C,52,07,00,B8,0B,94,00,
1027399,000000A8,false,Rx,0,8,FE,01,21,E0,21,1F,0F,04,
1027625,000000A9,false,Rx,0,8,EA,01,79,DF,1D,C7,E0,21,
1027865,000000BA,false,Rx,0,7,03,FF,0F,00,00,4E,81,00,
1028650,000000C4,false,Rx,0,7,45,08,FC,00,00,FF,F1,00,
1037158,000000AA,false,Rx,0,8,5E,54,07,00,B8,0B,94,00,
1037387,000000A8,false,Rx,0,8,FF,02,21,E0,21,1F,0F,04,
1037613,000000A9,false,Rx,0,8,EB,02,79,DF,1D,C7,E0,21,
1037853,000000BA,false,Rx,0,7,03,FF,0F,00,00,4F,82,00,
1038634,000000B6,false,Rx,0,5,06,06,80,00,C8,00,00,00,
1038868,000000C4,false,Rx,0,7,45,08,FC,00,00,FF,F1,00,
1039092,000000CE,false,Rx,0,8,00,00,00,00,00,00,00,00,
1039331,0000019E,false,Rx,0,8,00,E8,7F,FC,FE,00,00,03,
1039573,000001A0,false,Rx,0,8,00,80,00,60,01,14,60,F7,
1039807,000002B2,false,Rx,0,8,00,00,00,00,50,00,00,04,
1045688,00000497,false,Rx,0,8,29,42,FF,FF,FF,FF,FF,FF,
1047233,000000AA,false,Rx,0,8,60,56,07,00,B8,0B,94,00,
1047457,000000A8,false,Rx,0,8,00,03,21,E0,21,1F,0F,04,
1047687,000000A9,false,Rx,0,8,EC,03,79,DF,1D,C7,E0,21,
1047919,000000BA,false,Rx,0,7,03,FF,0F,00,00,50,83,00,
1048706,000000C4,false,Rx,0,7,45,08,FC,00,00,FF,F1,00,
1052456,000001D0,false,Rx,0,8,3C,76,68,C3,9C,9E,CD,82,
1057115,000000AA,false,Rx,0,8,62,58,07,00,B8,0B,94,00,
1057341,000000A8,false,Rx,0,8,02,04,21,E0,21,1F,0F,04,
1057566,000000A9,false,Rx,0,8,ED,04,79,DF,1D,C7,E0,21,
1057806,000000BA,false,Rx,0,7,03,FF,0F,00,00,51,84,00,
1058587,000000B6,false,Rx,0,5,07,07,80,00,C8,00,00,00,
1058825,000000C4,false,Rx,0,7,45,08,FC,00,00,FF,F1,00,
1059050,000000CE,false,Rx,0,8,00,00,00,00,00,00,00,00,
1059275,0000019E,false,Rx,0,8,00,E8,7F,FC,FE,00,00,03,
1059500,000001A0,false,Rx,0,8,00,80,00,40,01,14,70,E7,
1059731,000002B2,false,Rx,0,8,00,00,00,00,50,00,00,04,
1060149,000001A6,false,Rx,0,8,00,00,00,00,00,00,90,F3,
1067142,000000AA,false,Rx,0,8,64,5A,07,00,B8,0B,94,00,
1067368,000000A8,false,Rx,0,8,03,05,21,E0,21,1F,0F,04,
1067593,000000A9,false,Rx,0,8,EE,05,79,DF,1D,C7,E0,21,
1067829,000000BA,false,Rx,0,7,03,FF,0F,00,00,52,85,00,
1068610,000000C4,false,Rx,0,7,45,08,FC,00,00,FF,F1,00,
1077161,000000AA,false,Rx,0,8,66,5C,07,00,B8,0B,94,00,
1077390,000000A8,false,Rx,0,8,04,06,21,E0,21,1F,0F,04,
1077614,000000A9,false,Rx,0,8,EF,06,79,DF,1D,C7,E0,21,
1077853,000000BA,false,Rx,0,7,03,FF,0F,00,00,53,86,00,
1078635,000000B6,false,Rx,0,5,08,08,80,00,C8,00,00,00,
1078873,000000C4,false,Rx,0,7,45,08,FC,00,00,FF,F1,00,
1079097,000000CE,false,Rx,0,8,00,00,00,00,00,00,00,00,
1079322,0000019E,false,Rx,0,8,00,E8,7F,FC,FE,00,00,03,
1079547,000001A0,false,Rx,0,8,00,80,00,40,01,14,80,F7,
1079786,000002B2,false,Rx,0,8,00,00,00,00,50,00,00,04,
1080012,000001B4,false,Rx,0,8,00,D0,E2,F4,44,32,FE,D3,
1087092,000000AA,false,Rx,0,8,68,5E,07,00,B8,0B,94,00,
1087502,000000A8,false,Rx,0,8,05,07,21,E0,21,1F,0F,04,
1087733,000000A9,false,Rx,0,8,F0,07,79,DF,1D,C7,E0,21,
1087965,000000BA,false,Rx,0,7,03,FF,0F,00,00,54,87,00,
1088754,000000C4,false,Rx,0,7,45,08,FC,00,00,FF,F1,00,
1097141,000000AA,false,Rx,0,8,5A,50,07,00,B8,0B,94,00,
1097370,000000A8,false,Rx,0,8,06,08,21,E0,21,1F,0F,04,
1097596,000000A9,false,Rx,0,8,F1,08,79,DF,1D,C7,E0,21,
1097829,000000BA,false,Rx,0,7,03,FF,0F,00,00,55,88,00,
1098611,000000B6,false,Rx,0,5,09,09,80,00,C8,00,00,00,
1098848,000000C4,false,Rx,0,7,45,08,FC,00,00,FF,F1,00,
1099073,000000CE,false,Rx,0,8,00,00,00,00,00,00,00,00,
1099299,0000019E,false,Rx,0,8,00,E8,7F,FC,FE,00,00,03,
1099523,000001A0,false,Rx,0,8,00,80,00,60,01,14,90,28,
1099748,000002B2,false,Rx,0,8,00,00,00,00,50,00,00,04,
1106000,00000130,false,Rx,0,5,45,43,21,8F,DC,00,00,00,
1107166,000000AA,false,Rx,0,8,5C,52,07,00,B8,0B,94,00,
1107391,000000A8,false,Rx,0,8,07,09,21,E0,21,1F,0F,04,
1107617,000000A9,false,Rx,0,8,F2,09,79,DF,1D,C7,E0,21,
1107855,000000BA,false,Rx,0,7,03,FF,0F,00,00,56,89,00,
1108869,000000C4,false,Rx,0,7,45,08,FC,00,00,FF,F1,00,
1108874,00000194,false,Rx,0,4,EB,FA,00,F0,00,00,00,00,
1109098,000001D6,false,Rx,0,2,FF,F3,00,00,00,00,00,00,
1109322,000002A6,false,Rx,0,2,00,FC,00,00,00,00,00,00,
1117093,000000AA,false,Rx,0,8,5E,54,07,00,B8,0B,94,00,
1117322,000000A8,false,Rx,0,8,08,0A,21,E0,21,1F,0F,04,
1117547,000000A9,false,Rx,0,8,F3,0A,79,DF,1D,C7,E0,21,
1117786,000000BA,false,Rx,0,7,03,FF,0F,00,00,57,8A,00,
1118758,000000B6,false,Rx,0,5,0A,0A,80,00,C8,00,00,00,
1118991,000000C4,false,Rx,0,7,45,08,FC,00,00,FF,F1,00,
1119216,000000CE,false,Rx,0,8,00,00,00,00,00,00,00,00,
1119440,0000019E,false,Rx,0,8,00,E8,7F,FC,FE,00,00,03,
1119672,000001A0,false,Rx,0,8,00,80,00,40,01,14,A0,18,
1119904,000002B2,false,Rx,0,8,00,00,00,00,50,00,00,04,
1127084,000000AA,false,Rx,0,8,60,56,07,00,B8,0B,94,00,
1127494,000000A8,false,Rx,0,8,09,0B,21,E0,21,1F,0F,04,
1127722,000000A9,false,Rx,0,8,F4,0B,79,DF,1D,C7,E0,21,
1127954,000000BA,false,Rx,0,7,03,FF,0F,00,00,58,8B,00,
1128745,000000C4,false,Rx,0,7,45,08,FC,00,00,FF,F1,00,
1137118,000000AA,false,Rx,0,8,62,58,07,00,B8,0B,94,00,
1137347,000000A8,false,Rx,0,8,0A,0C,21,E0,21,1F,0F,04,
1137573,000000A9,false,Rx,0,8,F5,0C,79,DF,1D,C7,E0,21,
1137807,000000BA,false,Rx,0,7,03,FF,0F,00,00,59,8C,00,
1138787,000000B6,false,Rx,0,5,0B,0B,80,00,C8,00,00,00,
1139012,000000C4,false,Rx,0,7,45,08,FC,00,00,FF,F1,00,
1139237,000000CE,false,Rx,0,8,00,00,00,00,00,00,00,00,
1139462,0000019E,false,Rx,0,8,00,E8,7F,FC,FE,00,00,03,
1139694,000001A0,false,Rx,0,8,00,80,00,60,01,14,B0,48,
1139925,000002B2,false,Rx,0,8,00,00,00,00,50,00,00,04,
1140150,000004A9,false,Rx,0,8,30,42,FF,FF,FF,FF,FF,FF,
1140375,000000C8,false,Rx,0,6,3B,08,2C,00,00,AC,00,00,
1147214,000000AA,false,Rx,0,8,64,5A,07,00,B8,0B,94,00,
1147439,000000A8,false,Rx,0,8,0B,0D,21,E0,21,1F,0F,04,
1147668,000000A9,false,Rx,0,8,F6,0D,79,DF,1D,C7,E0,21,
1147900,000000BA,false,Rx,0,7,03,FF,0F,00,00,5A,8D,00,
1148687,000000C4,false,Rx,0,7,45,08,FC,00,00,FF,F1,00,
1153037,000001D0,false,Rx,0,8,3C,76,68,C3,9C,9E,CD,82,
1157107,000000AA,false,Rx,0,8,66,5C,07,00,B8,0B,94,00,
1157333,000000A8,false,Rx,0,8,0C,0E,21,E0,21,1F,0F,04,
1157558,000000A9,false,Rx,0,8,F7,0E,79,DF,1D,C7,E0,21,
1157799,000000BA,false,Rx,0,7,03,FF,0F,00,00,5B,8E,00,
1158579,000000B6,false,Rx,0,5,0C,0C,80,00,C8,00,00,00,
1158816,000000C4,false,Rx,0,7,45,08,FC,00,00,FF,F1,00,
1159042,000000CE,false,Rx,0,8,00,00,00,00,00,00,00,00,
1159452,0000019E,false,Rx,0,8,00,E8,8F,FC,FE,00,00,14,
1159680,000001A0,false,Rx,0,8,00,80,00,40,01,14,C0,38,
1159912,000002B2,false,Rx,0,8,00,00,00,00,50,00,00,04,
1160137,000001A6,false,Rx,0,8,00,00,00,00,00,00,20,F5,
1160362,00000374,false,Rx,0,5,00,00,00,00,FC,00,00,00,
1167186,000000AA,false,Rx,0,8,5A,50,07,00,B8,0B,94,00,
1167411,000000A8,false,Rx,0,8,FD,00,21,E0,21,1F,0F,04,
1167636,000000A9,false,Rx,0,8,E9,00,79,DF,1D,C7,E0,21,
1167872,000000BA,false,Rx,0,7,03,FF,0F,00,00,4D,80,00,
1168656,000000C4,false,Rx,0,7,45,08,FC,00,00,FF,F1,00,
1177219,000000AA,false,Rx,0,8,5C,52,07,00,B8,0B,94,00,
1177447,000000A8,false,Rx,0,8,FE,01,21,E0,21,1F,0F,04,
1177676,000000A9,false,Rx,0,8,EA,01,79,DF,1D,C7,E0,21,
1177908,000000BA,false,Rx,0,7,03,FF,0F,00,00,4E,81,00,
1178697,000000B6,false,Rx,0,5,0D,0D,80,00,C8,00,00,00,
1178929,000000C4,false,Rx,0,7,45,08,FC,00,00,FF,F1,00,
1179154,000000CE,false,Rx,0,8,00,00,00,00,00,00,00,00,
1179379,0000019E,false,Rx,0,8,00,E8,8F,FC,FE,00,00,14,
1179605,000001A0,false,Rx,0,8,00,80,00,60,01,14,D0,68,
1179844,000002B2,false,Rx,0,8,00,00,00,00,50,00,00,04,
1180255,000001B4,false,Rx,0,8,00,D0,E2,F5,44,32,FE,D4,
1187251,000000AA,false,Rx,0,8,5E,54,07,00,B8,0B,94,00,
1187476,000000A8,false,Rx,0,8,FF,02,21,E0,21,1F,0F,04,
1187707,000000A9,false,Rx,0,8,EB,02,79,DF,1D,C7,E0,21,
1187939,000000BA,false,Rx,0,7,03,FF,0F,00,00,4F,82,00,
1188723,000000C4,false,Rx,0,7,45,08,FC,00,00,FF,F1,00,
1197264,000000AA,false,Rx,0,8,60,56,07,00,B8,0B,94,00,
1197493,000000A8,false,Rx,0,8,00,03,21,E0,21,1F,0F,04,
1197720,000000A9,false,Rx,0,8,EC,03,79,DF,1D,C7,E0,21,
1197951,000000BA,false,Rx,0,7,03,FF,0F,00,00,50,83,00,
1198777,000000B6,false,Rx,0,5,0E,0E,80,00,C8,00,00,00,
1198789,000000C4,false,Rx,0,7,45,08,FC,00,00,FF,F1,00,
1199200,000000CE,false,Rx,0,8,00,00,00,00,00,00,00,00,
1199425,0000019E,false,Rx,0,8,00,E8,8F,FC,FE,00,00,14,
1199651,000001A0,false,Rx,0,8,00,80,00,40,01,11,E0,55,
1199884,000002B2,false,Rx,0,8,00,00,00,00,40,00,00,04,
1206124,00000130,false,Rx,0,5,45,43,21,8F,ED,00,00,00,
1207106,000000AA,false,Rx,0,8,62,58,07,00,B8,0B,94,00,
1207331,000000A8,false,Rx,0,8,02,04,21,E0,21,1F,0F,04,
1207556,000000A9,false,Rx,0,8,ED,04,79,DF,1D,C7,E0,21,
1207795,000000BA,false,Rx,0,7,03,FF,0F,00,00,51,84,00,
1208020,000001D2,false,Rx,0,5,E1,0C,8F,20,F0,00,00,00,
1208845,000000C4,false,Rx,0,7,42,08,FC,FE,FF,FF,F1,00,
1208850,000001D6,false,Rx,0,2,FF,F3,00,00,00,00,00,00,
1211706,000001FB,false,Rx,0,2,F1,FF,00,00,00,00,00,00,
1217081,000000AA,false,Rx,0,8,64,5A,07,00,B8,0B,94,00,
1217496,000000A8,false,Rx,0,8,03,05,21,E0,21,1F,0F,04,
1217723,000000A9,false,Rx,0,8,EE,05,79,DF,1D,C7,E0,21,
1217954,000000BA,false,Rx,0,7,03,FF,0F,00,00,52,85,00,
1218737,000000B6,false,Rx,0,5,FF,00,80,00,C8,00,00,00,
1218969,000000C4,false,Rx,0,7,45,08,FC,FE,FF,FF,F1,00,
1219195,000000CE,false,Rx,0,8,00,00,00,00,00,00,00,00,
1219420,0000019E,false,Rx,0,8,00,E8,8F,FC,FE,00,00,14,
1219644,000001A0,false,Rx,0,8,00,80,00,60,01,14,00,97,
1219911,000002B2,false,Rx,0,8,00,00,00,00,50,00,00,04,
1227156,000000AA,false,Rx,0,8,66,5C,07,00,B8,0B,94,00,
1227381,000000A8,false,Rx,0,8,04,06,21,E0,21,1F,0F,04,
1227606,000000A9,false,Rx,0,8,EF,06,79,DF,1D,C7,E0,21,
1227847,000000BA,false,Rx,0,7,03,FF,0F,00,00,53,86,00,
1228628,000000C4,false,Rx,0,7,45,08,FC,00,00,FF,F1,00,
1230933,000004B0,false,Rx,0,8,00,42,FE,01,FF,FF,FF,FF,
1237218,000000AA,false,Rx,0,8,68,5E,07,00,B8,0B,94,00,
1237446,000000A8,false,Rx,0,8,05,07,21,E0,21,1F,0F,04,
1237676,000000A9,false,Rx,0,8,F0,07,79,DF,1D,C7,E0,21,
1237907,000000BA,false,Rx,0,7,03,FF,0F,00,00,54,87,00,
1238697,000000B6,false,Rx,0,5,00,01,80,00,C8,00,00,00,
1238929,000000C4,false,Rx,0,7,45,08,FC,00,00,FF,F1,00,
1239155,000000CE,false,Rx,0,8,00,00,00,00,00,00,00,00,
1239380,0000019E,false,Rx,0,8,00,E8,8F,FC,FE,00,00,14,
1239605,000001A0,false,Rx,0,8,00,80,00,40,01,14,10,87,
1239842,000002B2,false,Rx,0,8,00,00,00,00,50,00,00,04,
1244017,00000310,false,Rx,0,7,6E,F5,DA,2D,01,40,23,00,
1247090,000000AA,false,Rx,0,8,5A,50,07,00,B8,0B,94,00,
1247501,000000A8,false,Rx,0,8,06,08,21,E0,21,1F,0F,04,
1247730,000000A9,false,Rx,0,8,F1,08,79,DF,1D,C7,E0,21,
1247962,000000BA,false,Rx,0,7,03,FF,0F,00,00,55,88,00,
1248751,000000C4,false,Rx,0,7,45,08,FC,00,00,FF,F1,00,
1251815,000001D0,false,Rx,0,8,3C,76,69,C3,9C,9E,CD,82,
1257187,000000AA,false,Rx,0,8,5C,52,07,00,B8,0B,94,00,
1257415,000000A8,false,Rx,0,8,07,09,21,E0,21,1F,0F,04,
1257641,000000A9,false,Rx,0,8,F2,09,79,DF,1D,C7,E0,21,
1257878,000000BA,false,Rx,0,7,03,FF,0F,00,00,56,89,00,
1258692,000000B6,false,Rx,0,5,02,02,80,00,C8,00,00,00,
1258944,000000C4,false,Rx,0,7,45,08,FC,00,00,FF,F1,00,
1259188,000000CE,false,Rx,0,8,00,00,00,00,00,00,00,00,
1259419,0000019E,false,Rx,0,8,00,E8,8F,FC,FE,00,00,14,
1259660,000001A0,false,Rx,0,8,00,80,00,40,01,14,20,97,
1259912,000002B2,false,Rx,0,8,00,00,00,00,50,00,00,04,
1260152,000001A6,false,Rx,0,8,00,00,00,00,00,00,B0,F6,
1267185,000000AA,false,Rx,0,8,5E,54,07,00,B8,0B,94,00,
1267411,000000A8,false,Rx,0,8,08,0A,21,E0,21,1F,0F,04,
1267636,000000A9,false,Rx,0,8,F3,0A,79,DF,1D,C7,E0,21,
1267873,000000BA,false,Rx,0,7,03,FF,0F,00,00,57,8A,00,
1268664,000000C4,false,Rx,0,7,45,08,FC,00,00,FF,F1,00,
1277174,000000AA,false,Rx,0,8,60,56,07,00,B8,0B,94,00,
1277403,000000A8,false,Rx,0,8,09,0B,21,E0,21,1F,0F,04,
1277628,000000A9,false,Rx,0,8,F4,0B,79,DF,1D,C7,E0,21,
1277869,000000BA,false,Rx,0,7,03,FF,0F,00,00,58,8B,00,
1278651,000000B6,false,Rx,0,5,03,03,80,00,C8,00,00,00,
1278884,000000C4,false,Rx,0,7,45,08,FC,00,00,FF,F1,00,
1279108,000000CE,false,Rx,0,8,00,00,00,00,00,00,00,00,
1279333,0000019E,false,Rx,0,8,00,E8,8F,FC,FE,00,00,14,
1279559,000001A0,false,Rx,0,8,00,80,00,60,01,14,30,C7,
1279799,000002B2,false,Rx,0,8,00,00,00,00,50,00,00,04,
1280210,000001B4,false,Rx,0,8,00,D0,E2,F6,44,32,FE,D5,
1287195,000000AA,false,Rx,0,8,62,58,07,00,B8,0B,94,00,
1287420,000000A8,false,Rx,0,8,0A,0C,21,E0,21,1F,0F,04,
1287646,000000A9,false,Rx,0,8,F5,0C,79,DF,1D,C7,E0,21,
1287881,000000BA,false,Rx,0,7,03,FF,0F,00,00,59,8C,00,
1288669,000000C4,false,Rx,0,7,45,08,FC,00,00,FF,F1,00,
1297176,000000AA,false,Rx,0,8,64,5A,07,00,B8,0B,94,00,
1297405,000000A8,false,Rx,0,8,0B,0D,21,E0,21,1F,0F,04,
1297630,000000A9,false,Rx,0,8,F6,0D,79,DF,1D,C7,E0,21,
1297867,000000BA,false,Rx,0,7,03,FF,0F,00,00,5A,8D,00,
1298650,000000B6,false,Rx,0,5,04,04,80,00,C8,00,00,00,
1298882,000000C4,false,Rx,0,7,45,08,FC,00,00,FF,F1,00,
1299107,000000CE,false,Rx,0,8,00,00,00,00,00,00,00,00,
1299332,0000019E,false,Rx,0,8,00,E8,8F,FC,FE,00,00,14,
1299558,000001A0,false,Rx,0,8,00,80,00,40,01,14,40,B7,
1299795,000002B2,false,Rx,0,8,00,00,00,00,50,00,00,04,
1306045,00000130,false,Rx,0,5,45,43,21,8F,FE,00,00,00,
1307212,000000AA,false,Rx,0,8,66,5C,07,00,B8,0B,94,00,
1307437,000000A8,false,Rx,0,8,0C,0E,21,E0,21,1F,0F,04,
1307668,000000A9,false,Rx,0,8,F7,0E,79,DF,1D,C7,E0,21,
1307900,000000BA,false,Rx,0,7,03,FF,0F,00,00,5B,8E,00,
1308688,000000C4,false,Rx,0,7,45,08,FC,00,00,FF,F1,00,
1308920,00000194,false,Rx,0,4,EC,FB,00,F0,00,00,00,00,
1309144,000001D6,false,Rx,0,2,FF,F3,00,00,00,00,00,00,
1315212,00000480,false,Rx,0,8,17,42,FD,FF,FF,FF,FF,FF,
1317179,000000AA,false,Rx,0,8,5A,50,07,00,B8,0B,94,00,
1317404,000000A8,false,Rx,0,8,FD,00,21,E0,21,1F,0F,04,
1317630,000000A9,false,Rx,0,8,E9,00,79,DF,1D,C7,E0,21,
1317867,000000BA,false,Rx,0,7,03,FF,0F,00,00,4D,80,00,
1318843,000000B6,false,Rx,0,5,05,05,80,00,C8,00,00,00,
1319068,000000C4,false,Rx,0,7,45,08,FC,00,00,FF,F1,00,
1319293,000000CE,false,Rx,0,8,00,00,00,00,00,00,00,00,
1319518,0000019E,false,Rx,0,8,00,E8,8F,FC,FE,00,00,14,
1319752,000001A0,false,Rx,0,8,00,80,00,60,01,14,50,E7,
1319984,000002B2,false,Rx,0,8,00,00,00,00,50,00,00,04,
1327185,000000AA,false,Rx,0,8,5C,52,07,00,B8,0B,94,00,
1327409,000000A8,false,Rx,0,8,FE,01,21,E0,21,1F,0F,04,
1327634,000000A9,false,Rx,0,8,EA,01,79,DF,1D,C7,E0,21,
1327872,000000BA,false,Rx,0,7,03,FF,0F,00,00,4E,81,00,
1328656,000000C4,false,Rx,0,7,45,08,FC,00,00,FF,F1,00,
1337267,000000AA,false,Rx,0,8,5E,54,07,00,B8,0B,94,00,
1337496,000000A8,false,Rx,0,8,FF,02,21,E0,21,1F,0F,04,
1337723,000000A9,false,Rx,0,8,EB,02,79,DF,1D,C7,E0,21,
1337955,000000BA,false,Rx,0,7,03,FF,0F,00,00,4F,82,00,
1338743,000000B6,false,Rx,0,5,06,06,80,00,C8,00,00,00,
1338974,000000C4,false,Rx,0,7,45,08,FC,00,00,FF,F1,00,
1339199,000000CE,false,Rx,0,8,00,00,00,00,00,00,00,00,
1339424,0000019E,false,Rx,0,8,00,E8,8F,FC,FE,00,00,14,
1339650,000001A0,false,Rx,0,8,00,80,00,40,01,11,60,D4,
1339882,000002B2,false,Rx,0,8,00,00,00,00,40,00,00,04,
1340107,000000C8,false,Rx,0,6,3B,08,7C,00,00,CC,00,00,
1347131,000000AA,false,Rx,0,8,60,56,07,00,B8,0B,94,00,
1347356,000000A8,false,Rx,0,8,00,03,21,E0,21,1F,0F,04,
1347581,000000A9,false,Rx,0,8,EC,03,79,DF,1D,C7,E0,21,
1347822,000000BA,false,Rx,0,7,03,FF,0F,00,00,50,83,00,
1348815,000000C4,false,Rx,0,7,45,08,FC,00,00,FF,F1,00,
1351677,000001D0,false,Rx,0,8,3C,76,69,C3,9C,9E,CD,82,
1357245,000000AA,false,Rx,0,8,62,58,07,00,B8,0B,94,00,
1357474,000000A8,false,Rx,0,8,02,04,21,E0,21,1F,0F,04,
1357707,000000A9,false,Rx,0,8,ED,04,79,DF,1D,C7,E0,21,
1357939,000000BA,false,Rx,0,7,03,FF,0F,00,00,51,84,00,
1358535,000000B6,false,Rx,0,5,07,07,80,00,C8,00,00,00,
1358763,000000C4,false,Rx,0,7,45,08,FC,00,00,FF,F1,00,
1359180,000000CE,false,Rx,0,8,00,00,00,00,00,00,00,00,
1359405,0000019E,false,Rx,0,8,00,E8,8F,FC,FE,00,00,14,
1359630,000001A0,false,Rx,0,8,00,80,00,40,01,14,70,E7,
1359867,000002B2,false,Rx,0,8,00,00,00,00,50,00,00,04,
1360092,000001A6,false,Rx,0,8,00,00,00,00,00,00,40,F8,
1367099,000000AA,false,Rx,0,8,64,5A,07,00,B8,0B,94,00,
1367323,000000A8,false,Rx,0,8,03,05,21,E0,21,1F,0F,04,
1367776,000000A9,false,Rx,0,8,EE,05,79,DF,1D,C7,E0,21,
1367789,000000BA,false,Rx,0,7,03,FF,0F,00,00,52,85,00,
1368765,000000C4,false,Rx,0,7,45,08,FC,00,00,FF,F1,00,
1377116,000000AA,false,Rx,0,8,66,5C,07,00,B8,0B,94,00,
1377345,000000A8,false,Rx,0,8,04,06,21,E0,21,1F,0F,04,
1377569,000000A9,false,Rx,0,8,EF,06,79,DF,1D,C7,E0,21,
1377807,000000BA,false,Rx,0,7,03,FF,0F,00,00,53,86,00,
1378588,000000B6,false,Rx,0,5,08,08,80,00,C8,00,00,00,
1378828,000000C4,false,Rx,0,7,45,08,FC,00,00,FF,F1,00,
1379053,000000CE,false,Rx,0,8,00,00,00,00,00,00,00,00,
1379278,0000019E,false,Rx,0,8,00,E8,9F,FC,FE,00,00,24,
1379503,000001A0,false,Rx,0,8,00,80,00,40,01,11,80,F4,
1379922,000002B2,false,Rx,0,8,00,00,00,00,40,00,00,04,
1380333,000001B4,false,Rx,0,8,00,D0,E2,F7,44,32,FE,D6,
1387142,000000AA,false,Rx,0,8,68,5E,07,00,B8,0B,94,00,
1387367,000000A8,false,Rx,0,8,05,07,21,E0,21,1F,0F,04,
1387592,000000A9,false,Rx,0,8,F0,07,79,DF,1D,C7,E0,21,
1387829,000000BA,false,Rx,0,7,03,FF,0F,00,00,54,87,00,
1388609,000000C4,false,Rx,0,7,45,08,FC,00,00,FF,F1,00,
1397163,000000AA,false,Rx,0,8,5A,50,07,00,B8,0B,94,00,
1397392,000000A8,false,Rx,0,8,06,08,21,E0,21,1F,0F,04,
1397617,000000A9,false,Rx,0,8,F1,08,79,DF,1D,C7,E0,21,
1397856,000000BA,false,Rx,0,7,03,FF,0F,00,00,55,88,00,
1398637,000000B6,false,Rx,0,5,09,09,80,00,C8,00,00,00,
1398876,000000C4,false,Rx,0,7,45,08,FC,00,00,FF,F1,00,
1399101,000000CE,false,Rx,0,8,00,00,00,00,00,00,00,00,
1399326,0000019E,false,Rx,0,8,00,E8,9F,FC,FE,00,00,24,
1399552,000001A0,false,Rx,0,8,00,80,00,60,01,14,90,28,
1399793,000002B2,false,Rx,0,8,00,00,00,00,50,00,00,04,
1400956,000001FB,false,Rx,0,2,F2,FF,00,00,00,00,00,00,
1405688,00000497,false,Rx,0,8,29,42,FF,FF,FF,FF,FF,FF,
1406105,00000130,false,Rx,0,5,45,43,21,8F,00,00,00,00,
1407084,000000AA,false,Rx,0,8,5C,52,07,00,B8,0B,94,00,
1407494,000000A8,false,Rx,0,8,07,09,21,E0,21,1F,0F,04,
1407723,000000A9,false,Rx,0,8,F2,09,79,DF,1D,C7,E0,21,
1407988,000000BA,false,Rx,0,7,03,FF,0F,00,00,56,89,00,
1407993,000001D2,false,Rx,0,5,E1,0C,8F,30,F0,00,00,00,
1408818,000000C4,false,Rx,0,7,45,08,FC,00,00,FF,F1,00,
1408823,000001D6,false,Rx,0,2,FF,F3,00,00,00,00,00,00,
1417168,000000AA,false,Rx,0,8,5E,54,07,00,B8,0B,94,00,
1417397,000000A8,false,Rx,0,8,08,0A,21,E0,21,1F,0F,04,
1417622,000000A9,false,Rx,0,8,F3,0A,79,DF,1D,C7,E0,21,
1417863,000000BA,false,Rx,0,7,03,FF,0F,00,00,57,8A,00,
1418877,000000B6,false,Rx,0,5,0A,0A,80,00,C8,00,00,00,
1418882,000000C4,false,Rx,0,7,45,08,FC,00,00,FF,F1,00,
1419293,000000CE,false,Rx,0,8,00,00,00,00,00,00,00,00,
1419518,0000019E,false,Rx,0,8,00,E8,9F,FC,FE,00,00,24,
1419752,000001A0,false,Rx,0,8,00,80,00,60,01,14,A0,38,
1419984,000002B2,false,Rx,0,8,00,00,00,00,50,00,00,04,
1427174,000000AA,false,Rx,0,8,60,56,07,00,B8,0B,94,00,
1427399,000000A8,false,Rx,0,8,09,0B,21,E0,21,1F,0F,04,
1427625,000000A9,false,Rx,0,8,F4,0B,79,DF,1D,C7,E0,21,
1427865,000000BA,false,Rx,0,7,03,FF,0F,00,00,58,8B,00,
1428841,000000C4,false,Rx,0,7,45,08,FC,00,00,FF,F1,00,
1437202,000000AA,false,Rx,0,8,62,58,07,00,B8,0B,94,00,
1437430,000000A8,false,Rx,0,8,0A,0C,21,E0,21,1F,0F,04,
1437665,000000A9,false,Rx,0,8,F5,0C,79,DF,1D,C7,E0,21,
1437897,000000BA,false,Rx,0,7,03,FF,0F,00,00,59,8C,00,
1438683,000000B6,false,Rx,0,5,0B,0B,80,00,C8,00,00,00,
1438915,000000C4,false,Rx,0,7,45,08,FC,00,00,FF,F1,00,
1439140,000000CE,false,Rx,0,8,00,00,00,00,00,00,00,00,
1439364,0000019E,false,Rx,0,8,00,E8,9F,FC,FE,00,00,24,
1439786,000001A0,false,Rx,0,8,00,80,00,40,01,11,B0,25,
1440012,000002B2,false,Rx,0,8,00,00,00,00,40,00,00,04,
1447112,000000AA,false,Rx,0,8,64,5A,07,00,B8,0B,94,00,
1447338,000000A8,false,Rx,0,8,0B,0D,21,E0,21,1F,0F,04,
1447563,000000A9,false,Rx,0,8,F6,0D,79,DF,1D,C7,E0,21,
1447799,000000BA,false,Rx,0,7,03,FF,0F,00,00,5A,8D,00,
1448768,000000C4,false,Rx,0,7,45,08,FC,00,00,FF,F1,00,
1451655,000001D0,false,Rx,0,8,3C,76,6A,C3,9C,9E,CD,82,
1457206,000000AA,false,Rx,0,8,66,5C,07,00,B8,0B,94,00,
1457434,000000A8,false,Rx,0,8,0C,0E,21,E0,21,1F,0F,04,
1457668,000000A9,false,Rx,0,8,F7,0E,79,DF,1D,C7,E0,21,
1457900,000000BA,false,Rx,0,7,03,FF,0F,00,00,5B,8E,00,
1458687,000000B6,false,Rx,0,5,0C,0C,80,00,C8,00,00,00,
1458918,000000C4,false,Rx,0,7,45,08,FC,00,00,FF,F1,00,
1459142,000000CE,false,Rx,0,8,00,00,00,00,00,00,00,00,
1459367,0000019E,false,Rx,0,8,00,E8,9F,FC,FE,00,00,24,
1459592,000001A0,false,Rx,0,8,00,80,00,60,01,14,C0,58,
1459831,000002B2,false,Rx,0,8,00,00,00,00,50,00,00,04,
1460056,000001A6,false,Rx,0,8,00,00,00,00,00,00,D0,F9,
1467244,000000AA,false,Rx,0,8,5A,50,07,00,B8,0B,94,00,
1467469,000000A8,false,Rx,0,8,FD,00,21,E0,21,1F,0F,04,
1467697,000000A9,false,Rx,0,8,E9,00,79,DF,1D,C7,E0,21,
1467928,000000BA,false,Rx,0,7,03,FF,0F,00,00,4D,80,00,
1468712,000000C4,false,Rx,0,7,45,08,FC,00,00,FF,F1,00,
1477096,000000AA,false,Rx,0,8,5C,52,07,00,B8,0B,94,00,
1477325,000000A8,false,Rx,0,8,FE,01,21,E0,21,1F,0F,04,
1477786,000000A9,false,Rx,0,8,EA,01,79,DF,1D,C7,E0,21,
1477791,000000BA,false,Rx,0,7,03,FF,0F,00,00,4E,81,00,
1478573,000000B6,false,Rx,0,5,0D,0D,80,00,C8,00,00,00,
1478807,000000C4,false,Rx,0,7,45,08,FC,00,00,FF,F1,00,
1479032,000000CE,false,Rx,0,8,00,00,00,00,00,00,00,00,
1479443,0000019E,false,Rx,0,8,00,E8,9F,FC,FE,00,00,24,
1479672,000001A0,false,Rx,0,8,00,80,00,40,01,14,D0,48,
1479904,000002B2,false,Rx,0,8,00,00,00,00,50,00,00,04,
1480129,000001B4,false,Rx,0,8,00,D0,E2,F8,44,32,FE,D7,
1480731,000003B0,false,Rx,0,2,FD,FF,00,00,00,00,00,00,
1481519,0000021A,false,Rx,0,3,00,20,FC,00,00,00,00,00,
1487202,000000AA,false,Rx,0,8,5E,54,07,00,B8,0B,94,00,
1487427,000000A8,false,Rx,0,8,FF,02,21,E0,21,1F,0F,04,
1487655,000000A9,false,Rx,0,8,EB,02,79,DF,1D,C7,E0,21,
1487887,000000BA,false,Rx,0,7,03,FF,0F,00,00,4F,82,00,
1488672,000000C4,false,Rx,0,7,45,08,FC,00,00,FF,F1,00,
1497245,000000AA,false,Rx,0,8,60,56,07,00,B8,0B,94,00,
1497473,000000A8,false,Rx,0,8,00,03,21,E0,21,1F,0F,04,
1497707,000000A9,false,Rx,0,8,EC,03,79,DF,1D,C7,E0,21,
1497938,000000BA,false,Rx,0,7,03,FF,0F,00,00,50,83,00,
1498722,000000B6,false,Rx,0,5,0E,0E,80,00,C8,00,00,00,
1498954,000000C4,false,Rx,0,7,45,08,FC,00,00,FF,F1,00,
1499179,000000CE,false,Rx,0,8,00,00,00,00,00,00,00,00,
1499403,0000019E,false,Rx,0,8,00,E8,9F,FC,FE,00,00,24,
1499628,000001A0,false,Rx,0,8,00,80,00,60,01,14,E0,78,
1499869,000002B2,false,Rx,0,8,00,00,00,00,50,00,00,04,
1500094,000004A9,false,Rx,0,8,30,42,FF,FF,FF,FF,FF,FF,
1506341,000002FC,false,Rx,0,7,81,01,04,FF,FF,FF,FF,00,
1507131,00000130,false,Rx,0,5,45,43,21,8F,11,00,00,00,
1507356,000000A8,false,Rx,0,8,02,04,21,E0,21,1F,0F,04,
1507581,000000A9,false,Rx,0,8,ED,04,79,DF,1D,C7,E0,21,
1507821,000000AA,false,Rx,0,8,62,58,07,00,B8,0B,94,00,
1508046,000000BA,false,Rx,0,7,03,FF,0F,00,00,51,84,00,
1508878,000000C4,false,Rx,0,7,45,08,FC,00,00,FF,F1,00,
1508883,00000194,false,Rx,0,4,ED,FC,00,F0,00,00,00,00,
1509107,000001D6,false,Rx,0,2,FF,F3,00,00,00,00,00,00,
1517251,000000AA,false,Rx,0,8,64,5A,07,00,B8,0B,94,00,
1517479,000000A8,false,Rx,0,8,03,05,21,E0,21,1F,0F,04,
1517707,000000A9,false,Rx,0,8,EE,05,79,DF,1D,C7,E0,21,
1517939,000000BA,false,Rx,0,7,03,FF,0F,00,00,52,85,00,
1518724,000000B6,false,Rx,0,5,FF,00,80,00,C8,00,00,00,
1518956,000000C4,false,Rx,0,7,45,08,FC,00,00,FF,F1,00,
1519181,000000CE,false,Rx,0,8,00,00,00,00,00,00,00,00,
1519406,0000019E,false,Rx,0,8,00,E8,9F,FC,FE,00,00,24,
1519631,000001A0,false,Rx,0,8,00,80,00,60,01,14,00,97,
1519868,000002B2,false,Rx,0,8,00,00,00,00,50,00,00,04,
1524803,000001B5,false,Rx,0,7,C8,FF,04,00,8A,FF,FF,00,
1527100,000000AA,false,Rx,0,8,66,5C,07,00,B8,0B,94,00,
1527325,000000A8,false,Rx,0,8,04,06,21,E0,21,1F,0F,04,
1527786,000000A9,false,Rx,0,8,EF,06,79,DF,1D,C7,E0,21,
1527791,000000BA,false,Rx,0,7,03,FF,0F,00,00,53,86,00,
1528768,000000C4,false,Rx,0,7,45,08,FC,00,00,FF,F1,00,
1537142,000000AA,false,Rx,0,8,68,5E,07,00,B8,0B,94,00,
1537370,000000A8,false,Rx,0,8,05,07,21,E0,21,1F,0F,04,
1537595,000000A9,false,Rx,0,8,F0,07,79,DF,1D,C7,E0,21,
1537829,000000BA,false,Rx,0,7,03,FF,0F,00,00,54,87,00,
1538054,00000330,false,Rx,0,8,C0,51,06,12,16,0F,1C,27,
1538882,000000B6,false,Rx,0,5,00,01,80,00,C8,00,00,00,
1538887,000000C4,false,Rx,0,7,45,08,FC,00,00,FF,F1,00,
1539298,000000CE,false,Rx,0,8,00,00,00,00,00,00,00,00,
1539523,0000019E,false,Rx,0,8,00,E8,9F,FC,FE,00,00,24,
1539754,000001A0,false,Rx,0,8,00,80,00,40,01,11,10,84,
1539985,000002B2,false,Rx,0,8,00,00,00,00,40,00,00,04,
1540210,000000C8,false,Rx,0,6,3B,08,CC,00,00,EC,00,00,
1547195,000000AA,false,Rx,0,8,5A,50,07,00,B8,0B,94,00,
1547419,000000A8,false,Rx,0,8,06,08,21,E0,21,1F,0F,04,
1547646,000000A9,false,Rx,0,8,F1,08,79,DF,1D,C7,E0,21,
1547881,000000BA,false,Rx,0,7,03,FF,0F,00,00,55,88,00,
1548668,000000C4,false,Rx,0,7,45,08,FC,00,00,FF,F1,00,
1551741,000001D0,false,Rx,0,8,3C,76,6A,C3,9C,9E,CD,82,
1557159,000000AA,false,Rx,0,8,5C,52,07,00,B8,0B,94,00,
1557387,000000A8,false,Rx,0,8,07,09,21,E0,21,1F,0F,04,
1557613,000000A9,false,Rx,0,8,F2,09,79,DF,1D,C7,E0,21,
1557853,000000BA,false,Rx,0,7,03,FF,0F,00,00,56,89,00,
1558635,000000B6,false,Rx,0,5,02,02,80,00,C8,00,00,00,
1558873,000000C4,false,Rx,0,7,45,08,FC,00,00,FF,F1,00,
1559098,000000CE,false,Rx,0,8,00,00,00,00,00,00,00,00,
1559323,0000019E,false,Rx,0,8,00,E8,9F,FC,FE,00,00,24,
1559548,000001A0,false,Rx,0,8,00,80,00,60,01,14,20,B7,
1559786,000002B2,false,Rx,0,8,00,00,00,00,50,00,00,04,
1560011,000001A6,false,Rx,0,8,00,00,00,00,00,00,60,FB,
1567192,000000AA,false,Rx,0,8,5E,54,07,00,B8,0B,94,00,
1567417,000000A8,false,Rx,0,8,08,0A,21,E0,21,1F,0F,04,
1567643,000000A9,false,Rx,0,8,F3,0A,79,DF,1D,C7,E0,21,
1567882,000000BA,false,Rx,0,7,03,FF,0F,00,00,57,8A,00,
1568668,000000C4,false,Rx,0,7,45,08,FC,00,00,FF,F1,00,
1577210,000000AA,false,Rx,0,8,60,56,07,00,B8,0B,94,00,
1577438,000000A8,false,Rx,0,8,09,0B,21,E0,21,1F,0F,04,
1577668,000000A9,false,Rx,0,8,F4,0B,79,DF,1D,C7,E0,21,
1577900,000000BA,false,Rx,0,7,03,FF,0F,00,00,58,8B,00,
1578688,000000B6,false,Rx,0,5,03,03,80,00,C8,00,00,00,
1578919,000000C4,false,Rx,0,7,45,08,FC,00,00,FF,F1,00,
1579144,000000CE,false,Rx,0,8,00,00,00,00,00,00,00,00,
1579370,0000019E,false,Rx,0,8,00,E8,AF,FC,FE,00,00,34,
1579595,000001A0,false,Rx,0,8,00,80,00,30,01,14,30,97,
1579831,000002B2,false,Rx,0,8,00,00,00,00,50,00,00,04,
1581609,000001B4,false,Rx,0,8,00,D0,E2,F9,44,32,FE,D8,
1587115,000000AA,false,Rx,0,8,62,58,07,00,B8,0B,94,00,
1587339,000000A8,false,Rx,0,8,0A,0C,21,E0,21,1F,0F,04,
1587564,000000A9,false,Rx,0,8,F5,0C,79,DF,1D,C7,E0,21,
1587806,000000BA,false,Rx,0,7,03,FF,0F,00,00,59,8C,00,
1588787,000000C4,false,Rx,0,7,45,08,FC,00,00,FF,F1,00,
1590896,000004B0,false,Rx,0,8,00,42,FE,01,FF,FF,FF,FF,
1591878,000001FB,false,Rx,0,2,F3,FF,00,00,00,00,00,00,
1597251,000000AA,false,Rx,0,8,64,5A,07,00,B8,0B,94,00,
1597481,000000A8,false,Rx,0,8,0B,0D,21,E0,21,1F,0F,04,
1597711,000000A9,false,Rx,0,8,F6,0D,79,DF,1D,C7,E0,21,
1597942,000000BA,false,Rx,0,7,03,FF,0F,00,00,5A,8D,00,
1598727,000000B6,false,Rx,0,5,04,04,80,00,C8,00,00,00,
1598957,000000C4,false,Rx,0,7,45,08,FC,00,00,FF,F1,00,
1599182,000000CE,false,Rx,0,8,00,00,00,00,00,00,00,00,
1599408,0000019E,false,Rx,0,8,00,E8,AF,FC,FE,00,00,34,
1599633,000001A0,false,Rx,0,8,00,80,00,60,01,14,40,D7,
1599873,000002B2,false,Rx,0,8,00,00,00,00,50,00,00,04,
1605933,00000130,false,Rx,0,5,45,43,21,8F,22,00,00,00,
1607100,000000AA,false,Rx,0,8,66,5C,07,00,B8,0B,94,00,
1607325,000000A8,false,Rx,0,8,0C,0E,21,E0,21,1F,0F,04,
1607776,000000A9,false,Rx,0,8,F7,0E,79,DF,1D,C7,E0,21,
1607789,000000BA,false,Rx,0,7,03,FF,0F,00,00,5B,8E,00,
1608014,000001D2,false,Rx,0,5,E1,0C,8F,40,F0,00,00,00,
1608830,000000C4,false,Rx,0,7,45,08,FC,00,00,FF,F1,00,
1608835,000001D6,false,Rx,0,2,FF,F3,00,00,00,00,00,00,
1617160,000000AA,false,Rx,0,8,5A,50,07,00,B8,0B,94,00,
1617389,000000A8,false,Rx,0,8,FD,00,21,E0,21,1F,0F,04,
1617615,000000A9,false,Rx,0,8,E9,00,79,DF,1D,C7,E0,21,
1617854,000000BA,false,Rx,0,7,03,FF,0F,00,00,4D,80,00,
1618830,000000B6,false,Rx,0,5,05,05,80,00,C8,00,00,00,
1619054,000000C4,false,Rx,0,7,45,08,FC,00,00,FF,F1,00,
1619279,000000CE,false,Rx,0,8,00,00,00,00,00,00,00,00,
1619505,0000019E,false,Rx,0,8,00,E8,AF,FC,FE,00,00,34,
1619733,000001A0,false,Rx,0,8,00,80,00,40,01,11,50,C4,
1619965,000002B2,false,Rx,0,8,00,00,00,00,40,00,00,04,
1627142,000000AA,false,Rx,0,8,5C,52,07,00,B8,0B,94,00,
1627368,000000A8,false,Rx,0,8,FE,01,21,E0,21,1F,0F,04,
1627593,000000A9,false,Rx,0,8,EA,01,79,DF,1D,C7,E0,21,
1627829,000000BA,false,Rx,0,7,03,FF,0F,00,00,4E,81,00,
1628812,000000C4,false,Rx,0,7,45,08,FC,00,00,FF,F1,00,
1637161,000000AA,false,Rx,0,8,5E,54,07,00,B8,0B,94,00,
1637403,000000A8,false,Rx,0,8,FF,02,21,E0,21,1F,0F,04,
1637640,000000A9,false,Rx,0,8,EB,02,79,DF,1D,C7,E0,21,
1637889,000000BA,false,Rx,0,7,03,FF,0F,00,00,4F,82,00,
1638720,000000B6,false,Rx,0,5,06,06,80,00,C8,00,00,00,
1638970,000000C4,false,Rx,0,7,45,08,FC,00,00,FF,F1,00,
1639210,000000CE,false,Rx,0,8,00,00,00,00,00,00,00,00,
1639449,0000019E,false,Rx,0,8,00,E8,AF,FC,FE,00,00,34,
1639681,000001A0,false,Rx,0,8,00,80,00,40,01,14,60,D7,
1639916,000002B2,false,Rx,0,8,00,00,00,00,50,00,00,04,
1647231,000000AA,false,Rx,0,8,60,56,07,00,B8,0B,94,00,
1647456,000000A8,false,Rx,0,8,00,03,21,E0,21,1F,0F,04,
1647688,000000A9,false,Rx,0,8,EC,03,79,DF,1D,C7,E0,21,
1647919,000000BA,false,Rx,0,7,03,FF,0F,00,00,50,83,00,
1648708,000000C4,false,Rx,0,7,45,08,FC,00,00,FF,F1,00,
1651758,000001D0,false,Rx,0,8,3C,76,6B,C3,9C,9E,CD,82,
1657124,000000AA,false,Rx,0,8,62,58,07,00,B8,0B,94,00,
1657352,000000A8,false,Rx,0,8,02,04,21,E0,21,1F,0F,04,
1657589,000000A9,false,Rx,0,8,ED,04,79,DF,1D,C7,E0,21,
1657872,000000BA,false,Rx,0,7,03,FF,0F,00,00,51,84,00,
1658711,000000B6,false,Rx,0,5,07,07,80,00,C8,00,00,00,
1658942,000000C4,false,Rx,0,7,45,08,FC,00,00,FF,F1,00,
1659167,000000CE,false,Rx,0,8,00,00,00,00,00,00,00,00,
1659392,0000019E,false,Rx,0,8,00,E8,AF,FC,FE,00,00,34,
1659618,000001A0,false,Rx,0,8,00,80,00,40,01,14,70,E7,
1659860,000002B2,false,Rx,0,8,00,00,00,00,50,00,00,04,
1660085,000001A6,false,Rx,0,8,00,00,00,00,00,00,F0,FC,
1667085,000000AA,false,Rx,0,8,64,5A,07,00,B8,0B,94,00,
1667496,000000A8,false,Rx,0,8,03,05,21,E0,21,1F,0F,04,
1667724,000000A9,false,Rx,0,8,EE,05,79,DF,1D,C7,E0,21,
1667956,000000BA,false,Rx,0,7,03,FF,0F,00,00,52,85,00,
1668745,000000C4,false,Rx,0,7,45,08,FC,00,00,FF,F1,00,
1675642,00000480,false,Rx,0,8,17,42,FD,FF,FF,FF,FF,FF,
1677331,000000AA,false,Rx,0,8,66,5C,07,00,B8,0B,94,00,
1677338,000000A8,false,Rx,0,8,04,06,21,E0,21,1F,0F,04,
1677563,000000A9,false,Rx,0,8,EF,06,79,DF,1D,C7,E0,21,
1677801,000000BA,false,Rx,0,7,03,FF,0F,00,00,53,86,00,
1678582,000000B6,false,Rx,0,5,08,08,80,00,C8,00,00,00,
1678820,000000C4,false,Rx,0,7,45,08,FC,00,00,FF,F1,00,
1679045,000000CE,false,Rx,0,8,00,00,00,00,00,00,00,00,
1679456,0000019E,false,Rx,0,8,00,E8,AF,FC,FE,00,00,34,
1679688,000001A0,false,Rx,0,8,00,80,00,40,01,14,80,F7,
1679919,000002B2,false,Rx,0,8,00,00,00,00,50,00,00,04,
1680144,000001B4,false,Rx,0,8,00,D0,E2,FA,44,32,FE,D9,
1687133,000000AA,false,Rx,0,8,68,5E,07,00,B8,0B,94,00,
1687358,000000A8,false,Rx,0,8,05,07,21,E0,21,1F,0F,04,
1687583,000000A9,false,Rx,0,8,F0,07,79,DF,1D,C7,E0,21,
1687821,000000BA,false,Rx,0,7,03,FF,0F,00,00,54,87,00,
1688804,000000C4,false,Rx,0,7,45,08,FC,00,00,FF,F1,00,
1697100,000000AA,false,Rx,0,8,5A,50,07,00,B8,0B,94,00,
1697330,000000A8,false,Rx,0,8,06,08,21,E0,21,1F,0F,04,
1697561,000000A9,false,Rx,0,8,F1,08,79,DF,1D,C7,E0,21,
1697803,000000BA,false,Rx,0,7,03,FF,0F,00,00,55,88,00,
1698814,000000B6,false,Rx,0,5,09,09,80,00,C8,00,00,00,
1698819,000000C4,false,Rx,0,7,45,08,FC,00,00,FF,F1,00,
1699308,000000CE,false,Rx,0,8,00,00,00,00,00,00,00,00,
1699314,0000019E,false,Rx,0,8,00,E8,AF,FC,FE,00,00,34,
1699605,000001A0,false,Rx,0,8,00,80,00,60,01,14,90,28,
1699840,000002B2,false,Rx,0,8,00,00,00,00,50,00,00,04,
1705891,00000130,false,Rx,0,5,45,43,21,8F,33,00,00,00,
1707244,000000AA,false,Rx,0,8,5C,52,07,00,B8,0B,94,00,
1707470,000000A8,false,Rx,0,8,07,09,21,E0,21,1F,0F,04,
1707698,000000A9,false,Rx,0,8,F2,09,79,DF,1D,C7,E0,21,
1707930,000000BA,false,Rx,0,7,03,FF,0F,00,00,56,89,00,
1708941,000000C4,false,Rx,0,7,45,08,FC,00,00,FF,F1,00,
1708946,00000194,false,Rx,0,4,EE,FD,00,F0,00,00,00,00,
1709170,000001D6,false,Rx,0,2,FF,F3,00,00,00,00,00,00,
1717277,000000AA,false,Rx,0,8,5E,54,07,00,B8,0B,94,00,
1717559,000000A8,false,Rx,0,8,08,0A,21,E0,21,1F,0F,04,
1717565,000000A9,false,Rx,0,8,F3,0A,79,DF,1D,C7,E0,21,
1717840,000000BA,false,Rx,0,7,03,FF,0F,00,00,57,8A,00,
1718821,000000B6,false,Rx,0,5,0A,0A,80,00,C8,00,00,00,
1719046,000000C4,false,Rx,0,7,45,08,FC,00,00,FF,F1,00,
1719271,000000CE,false,Rx,0,8,00,00,00,00,00,00,00,00,
1719496,0000019E,false,Rx,0,8,00,E8,AF,FC,FE,00,00,34,
1719735,000001A0,false,Rx,0,8,00,80,00,40,01,14,A0,18,
1719975,000002B2,false,Rx,0,8,00,00,00,00,50,00,00,04,
1727161,000000AA,false,Rx,0,8,60,56,07,00,B8,0B,94,00,
1727386,000000A8,false,Rx,0,8,09,0B,21,E0,21,1F,0F,04,
1727611,000000A9,false,Rx,0,8,F4,0B,79,DF,1D,C7,E0,21,
1727853,000000BA,false,Rx,0,7,03,FF,0F,00,00,58,8B,00,
1728829,000000C4,false,Rx,0,7,45,08,FC,00,00,FF,F1,00,
1730745,00000335,false,Rx,0,8,00,6C,10,00,00,9A,00,00,
1737199,000000AA,false,Rx,0,8,62,58,07,00,B8,0B,94,00,
1737475,000000A8,false,Rx,0,8,0A,0C,21,E0,21,1F,0F,04,
1737707,000000A9,false,Rx,0,8,F5,0C,79,DF,1D,C7,E0,21,
1737939,000000BA,false,Rx,0,7,03,FF,0F,00,00,59,8C,00,
1738729,000000B6,false,Rx,0,5,0B,0B,80,00,C8,00,00,00,
1738961,000000C4,false,Rx,0,7,45,08,FC,00,00,FF,F1,00,
1739185,000000CE,false,Rx,0,8,00,00,00,00,00,00,00,00,
1739409,0000019E,false,Rx,0,8,00,E8,AF,FC,FE,00,00,34,
1739632,000001A0,false,Rx,0,8,00,80,00,60,01,14,B0,48,
1740093,000002B2,false,Rx,0,8,00,00,00,00,50,00,00,04,
1740098,000000C8,false,Rx,0,6,3B,08,2C,00,00,0C,00,00,
1743903,00000242,false,Rx,0,5,10,F1,FF,FF,FF,00,00,00,
1745253,000001B5,false,Rx,0,7,C8,FF,04,00,88,FF,FF,00,
1747177,000000AA,false,Rx,0,8,64,5A,07,00,B8,0B,94,00,
1747402,000000A8,false,Rx,0,8,0B,0D,21,E0,21,1F,0F,04,
1747627,000000A9,false,Rx,0,8,F6,0D,79,DF,1D,C7,E0,21,
1747868,000000BA,false,Rx,0,7,03,FF,0F,00,00,5A,8D,00,
1748845,000000C4,false,Rx,0,7,45,08,FC,00,00,FF,F1,00,
1751703,000001D0,false,Rx,0,8,3C,76,6B,C3,9C,9E,CD,82,
1757194,000000AA,false,Rx,0,8,66,5C,07,00,B8,0B,94,00,
1757422,000000A8,false,Rx,0,8,0C,0E,21,E0,21,1F,0F,04,
1757650,000000A9,false,Rx,0,8,F7,0E,79,DF,1D,C7,E0,21,
1757882,000000BA,false,Rx,0,7,03,FF,0F,00,00,5B,8E,00,
1758668,000000B6,false,Rx,0,5,0C,0C,80,00,C8,00,00,00,
1758898,000000C4,false,Rx,0,7,45,08,FC,00,00,FF,F1,00,
1759123,000000CE,false,Rx,0,8,00,00,00,00,00,00,00,00,
1759349,0000019E,false,Rx,0,8,00,E8,AF,FC,FE,00,00,34,
1759574,000001A0,false,Rx,0,8,00,80,00,40,01,11,C0,35,
1759814,000002B2,false,Rx,0,8,00,00,00,00,40,00,00,04,
1760040,000001A6,false,Rx,0,8,00,00,00,00,00,00,80,FE,
1765642,00000497,false,Rx,0,8,29,42,FF,FF,FF,FF,FF,FF,
1767192,000000AA,false,Rx,0,8,5A,50,07,00,B8,0B,94,00,
1767417,000000A8,false,Rx,0,8,FD,00,21,E0,21,1F,0F,04,
1767643,000000A9,false,Rx,0,8,E9,00,79,DF,1D,C7,E0,21,
1767881,000000BA,false,Rx,0,7,03,FF,0F,00,00,4D,80,00,
1768672,000000C4,false,Rx,0,7,45,08,FC,00,00,FF,F1,00,
1777203,000000AA,false,Rx,0,8,5C,52,07,00,B8,0B,94,00,
1777432,000000A8,false,Rx,0,8,FE,01,21,E0,21,1F,0F,04,
1777664,000000A9,false,Rx,0,8,EA,01,79,DF,1D,C7,E0,21,
1777897,000000BA,false,Rx,0,7,03,FF,0F,00,00,4E,81,00,
1778737,000000B6,false,Rx,0,5,0D,0D,80,00,C8,00,00,00,
1778969,000000C4,false,Rx,0,7,45,08,FC,00,00,FF,F1,00,
1779194,000000CE,false,Rx,0,8,00,00,00,00,00,00,00,00,
1779419,0000019E,false,Rx,0,8,00,E8,AF,FC,FE,00,00,34,
1779644,000001A0,false,Rx,0,8,00,80,00,40,01,11,D0,45,
1779882,000002B2,false,Rx,0,8,00,00,00,00,40,00,00,04,
1780292,000001B4,false,Rx,0,8,00,D0,E2,FB,44,32,FE,DA,
1781844,000001FB,false,Rx,0,2,F4,FF,00,00,00,00,00,00,
1787142,000000AA,false,Rx,0,8,5E,54,07,00,B8,0B,94,00,
1787368,000000A8,false,Rx,0,8,FF,02,21,E0,21,1F,0F,04,
1787593,000000A9,false,Rx,0,8,EB,02,79,DF,1D,C7,E0,21,
1787829,000000BA,false,Rx,0,7,03,FF,0F,00,00,4F,82,00,
1788814,000000C4,false,Rx,0,7,45,08,FC,00,00,FF,F1,00,
1797094,000000AA,false,Rx,0,8,60,56,07,00,B8,0B,94,00,
1797508,000000A8,false,Rx,0,8,00,03,21,E0,21,1F,0F,04,
1797743,000000A9,false,Rx,0,8,EC,03,79,DF,1D,C7,E0,21,
1797974,000000BA,false,Rx,0,7,03,FF,0F,00,00,50,83,00,
1798570,000000B6,false,Rx,0,5,0E,0E,80,00,C8,00,00,00,
1798809,000000C4,false,Rx,0,7,45,08,FC,00,00,FF,F1,00,
1799033,000000CE,false,Rx,0,8,00,00,00,00,00,00,00,00,
1799443,0000019E,false,Rx,0,8,00,E8,BF,FC,FE,00,00,44,
1799676,000001A0,false,Rx,0,8,00,80,00,40,01,14,E0,58,
1799908,000002B2,false,Rx,0,8,00,00,00,00,50,00,00,04,
1805973,00000130,false,Rx,0,5,45,43,21,8F,44,00,00,00,
1807180,000000AA,false,Rx,0,8,62,58,07,00,B8,0B,94,00,
1807406,000000A8,false,Rx,0,8,02,04,21,E0,21,1F,0F,04,
1807631,000000A9,false,Rx,0,8,ED,04,79,DF,1D,C7,E0,21,
1807867,000000BA,false,Rx,0,7,03,FF,0F,00,00,51,84,00,
1808091,000001D2,false,Rx,0,5,E1,0C,8F,50,F0,00,00,00,
1808692,000000C4,false,Rx,0,7,45,08,FC,00,00,FF,F1,00,
1808924,000001D6,false,Rx,0,2,FF,F3,00,00,00,00,00,00,
1817201,000000AA,false,Rx,0,8,64,5A,07,00,B8,0B,94,00,
1817440,000000A8,false,Rx,0,8,03,05,21,E0,21,1F,0F,04,
1817673,000000A9,false,Rx,0,8,EE,05,79,DF,1D,C7,E0,21,
1817909,000000BA,false,Rx,0,7,03,FF,0F,00,00,52,85,00,
1818799,000000B6,false,Rx,0,5,FF,00,80,00,C8,00,00,00,
1819023,000000C4,false,Rx,0,7,45,08,FC,00,00,FF,F1,00,
1819248,000000CE,false,Rx,0,8,00,00,00,00,00,00,00,00,
1819473,0000019E,false,Rx,0,8,00,E8,BF,FC,FE,00,00,44,
1819703,000001A0,false,Rx,0,8,00,80,00,40,01,11,00,74,
1819935,000002B2,false,Rx,0,8,00,00,00,00,40,00,00,04,
1827123,000000AA,false,Rx,0,8,66,5C,07,00,B8,0B,94,00,
1827347,000000A8,false,Rx,0,8,04,06,21,E0,21,1F,0F,04,
1827573,000000A9,false,Rx,0,8,EF,06,79,DF,1D,C7,E0,21,
1827807,000000BA,false,Rx,0,7,03,FF,0F,00,00,53,86,00,
1828788,000000C4,false,Rx,0,7,45,08,FC,00,00,FF,F1,00,
1837152,000000AA,false,Rx,0,8,68,5E,07,00,B8,0B,94,00,
1837381,000000A8,false,Rx,0,8,05,07,21,E0,21,1F,0F,04,
1837612,000000A9,false,Rx,0,8,F0,07,79,DF,1D,C7,E0,21,
1837856,000000BA,false,Rx,0,7,03,FF,0F,00,00,54,87,00,
1838715,000000B6,false,Rx,0,5,00,01,80,00,C8,00,00,00,
1838947,000000C4,false,Rx,0,7,45,08,FC,00,00,FF,F1,00,
1839172,000000CE,false,Rx,0,8,00,00,00,00,00,00,00,00,
1839395,0000019E,false,Rx,0,8,00,E8,BF,FC,FE,00,00,44,
1839621,000001A0,false,Rx,0,8,00,80,00,40,01,14,10,87,
1839859,000002B2,false,Rx,0,8,00,00,00,00,50,00,00,04,
1847231,000000AA,false,Rx,0,8,5A,50,07,00,B8,0B,94,00,
1847456,000000A8,false,Rx,0,8,06,08,21,E0,21,1F,0F,04,
1847688,000000A9,false,Rx,0,8,F1,08,79,DF,1D,C7,E0,21,
1847919,000000BA,false,Rx,0,7,03,FF,0F,00,00,55,88,00,
1848724,000000C4,false,Rx,0,7,45,08,FC,00,00,FF,F1,00,
1851817,000001D0,false,Rx,0,8,3C,76,6C,C3,9C,9E,CD,82,
1857091,000000AA,false,Rx,0,8,5C,52,07,00,B8,0B,94,00,
1857517,000000A8,false,Rx,0,8,07,09,21,E0,21,1F,0F,04,
1857558,000000A9,false,Rx,0,8,F2,09,79,DF,1D,C7,E0,21,
1857809,000000BA,false,Rx,0,7,03,FF,0F,00,00,56,89,00,
1858624,000000B6,false,Rx,0,5,02,02,80,00,C8,00,00,00,
1858855,000000C4,false,Rx,0,7,45,08,FC,00,00,FF,F1,00,
1859104,000000CE,false,Rx,0,8,00,00,00,00,00,00,00,00,
1859339,0000019E,false,Rx,0,8,00,E8,BF,FC,FE,00,00,44,
1859564,000001A0,false,Rx,0,8,00,80,00,60,01,14,20,B7,
1859803,000002B2,false,Rx,0,8,00,00,00,00,50,00,00,04,
1860028,000001A6,false,Rx,0,8,00,00,00,00,00,00,10,F0,
1860439,000004A9,false,Rx,0,8,30,42,FF,FF,FF,FF,FF,FF,
1867262,000000AA,false,Rx,0,8,5E,54,07,00,B8,0B,94,00,
1867487,000000A8,false,Rx,0,8,08,0A,21,E0,21,1F,0F,04,
1867715,000000A9,false,Rx,0,8,F3,0A,79,DF,1D,C7,E0,21,
1867947,000000BA,false,Rx,0,7,03,FF,0F,00,00,57,8A,00,
1868733,000000C4,false,Rx,0,7,45,08,FC,00,00,FF,F1,00,
1877263,000000AA,false,Rx,0,8,60,56,07,00,B8,0B,94,00,
1877492,000000A8,false,Rx,0,8,09,0B,21,E0,21,1F,0F,04,
1877728,000000A9,false,Rx,0,8,F4,0B,79,DF,1D,C7,E0,21,
1877975,000000BA,false,Rx,0,7,03,FF,0F,00,00,58,8B,00,
1878629,000000B6,false,Rx,0,5,03,03,80,00,C8,00,00,00,
1878872,000000C4,false,Rx,0,7,45,08,FC,00,00,FF,F1,00,
1879096,000000CE,false,Rx,0,8,00,00,00,00,00,00,00,00,
1879322,0000019E,false,Rx,0,8,00,E8,BF,FC,FE,00,00,44,
1879547,000001A0,false,Rx,0,8,00,80,00,40,01,11,30,A4,
1879786,000002B2,false,Rx,0,8,00,00,00,00,40,00,00,04,
1880197,000001B4,false,Rx,0,8,00,D0,E2,FC,44,32,FE,DB,
1887192,000000AA,false,Rx,0,8,62,58,07,00,B8,0B,94,00,
1887417,000000A8,false,Rx,0,8,0A,0C,21,E0,21,1F,0F,04,
1887643,000000A9,false,Rx,0,8,F5,0C,79,DF,1D,C7,E0,21,
1887881,000000BA,false,Rx,0,7,03,FF,0F,00,00,59,8C,00,
1888668,000000C4,false,Rx,0,7,45,08,FC,00,00,FF,F1,00,
1897139,000000AA,false,Rx,0,8,64,5A,07,00,B8,0B,94,00,
1897375,000000A8,false,Rx,0,8,0B,0D,21,E0,21,1F,0F,04,
1897599,000000A9,false,Rx,0,8,F6,0D,79,DF,1D,C7,E0,21,
1897834,000000BA,false,Rx,0,7,03,FF,0F,00,00,5A,8D,00,
1898674,000000B6,false,Rx,0,5,04,04,80,00,C8,00,00,00,
1898910,000000C4,false,Rx,0,7,45,08,FC,00,00,FF,F1,00,
1899143,000000CE,false,Rx,0,8,00,00,00,00,00,00,00,00,
1899368,0000019E,false,Rx,0,8,00,E8,BF,FC,FE,00,00,44,
1899593,000001A0,false,Rx,0,8,00,80,00,60,01,14,40,D7,
1899831,000002B2,false,Rx,0,8,00,00,00,00,50,00,00,04,
1905879,00000130,false,Rx,0,5,45,43,21,8F,55,00,00,00,
1907229,000000AA,false,Rx,0,8,66,5C,07,00,B8,0B,94,00,
1907454,000000A8,false,Rx,0,8,0C,0E,21,E0,21,1F,0F,04,
1907688,000000A9,false,Rx,0,8,F7,0E,79,DF,1D,C7,E0,21,
1907919,000000BA,false,Rx,0,7,03,FF,0F,00,00,5B,8E,00,
1908932,000000C4,false,Rx,0,7,45,08,FC,00,00,FF,F1,00,
1908937,00000194,false,Rx,0,4,EF,FE,00,F0,00,00,00,00,
1909162,000001D6,false,Rx,0,2,FF,F3,00,00,00,00,00,00,
1917204,000000AA,false,Rx,0,8,5A,50,07,00,B8,0B,94,00,
1917443,000000A8,false,Rx,0,8,FD,00,21,E0,21,1F,0F,04,
1917675,000000A9,false,Rx,0,8,E9,00,79,DF,1D,C7,E0,21,
1917908,000000BA,false,Rx,0,7,03,FF,0F,00,00,4D,80,00,
1918753,000000B6,false,Rx,0,5,05,05,80,00,C8,00,00,00,
1918984,000000C4,false,Rx,0,7,45,08,FC,00,00,FF,F1,00,
1919210,000000CE,false,Rx,0,8,00,00,00,00,00,00,00,00,
1919433,0000019E,false,Rx,0,8,00,E8,BF,FC,FE,00,00,44,
1919668,000001A0,false,Rx,0,8,00,80,00,60,01,11,50,E4,
1919900,000002B2,false,Rx,0,8,00,00,00,00,40,00,00,04,
1927270,000000AA,false,Rx,0,8,5C,52,07,00,B8,0B,94,00,
1927495,000000A8,false,Rx,0,8,FE,01,21,E0,21,1F,0F,04,
1927722,000000A9,false,Rx,0,8,EA,01,79,DF,1D,C7,E0,21,
1927954,000000BA,false,Rx,0,7,03,FF,0F,00,00,4E,81,00,
1928738,000000C4,false,Rx,0,7,45,08,FC,00,00,FF,F1,00,
1937166,000000AA,false,Rx,0,8,5E,54,07,00,B8,0B,94,00,
1937406,000000A8,false,Rx,0,8,FF,02,21,E0,21,1F,0F,04,
1937643,000000A9,false,Rx,0,8,EB,02,79,DF,1D,C7,E0,21,
1937882,000000BA,false,Rx,0,7,03,FF,0F,00,00,4F,82,00,
1938713,000000B6,false,Rx,0,5,06,06,80,00,C8,00,00,00,
1938945,000000C4,false,Rx,0,7,45,08,FC,00,00,FF,F1,00,
1939170,000000CE,false,Rx,0,8,00,00,00,00,00,00,00,00,
1939396,0000019E,false,Rx,0,8,00,E8,BF,FC,FE,00,00,44,
1939821,000001A0,false,Rx,0,8,00,80,00,60,01,11,60,F4,
1940046,000002B2,false,Rx,0,8,00,00,00,00,40,00,00,04,
1940271,000005A9,false,Rx,0,8,40,32,00,21,FF,FF,FF,FF,
1940496,000000C8,false,Rx,0,6,3B,08,7C,00,00,1C,00,00,
1947126,000000AA,false,Rx,0,8,60,56,07,00,B8,0B,94,00,
1947350,000000A8,false,Rx,0,8,00,03,21,E0,21,1F,0F,04,
1947575,000000A9,false,Rx,0,8,EC,03,79,DF,1D,C7,E0,21,
1947813,000000BA,false,Rx,0,7,03,FF,0F,00,00,50,83,00,
1948789,000000C4,false,Rx,0,7,45,08,FC,00,00,FF,F1,00,
1950896,000004B0,false,Rx,0,8,00,42,FE,01,FF,FF,FF,FF,
1951683,000001D0,false,Rx,0,8,3C,76,6C,C3,9C,9E,CD,82,
1957342,000000AA,false,Rx,0,8,62,58,07,00,B8,0B,94,00,
1957348,000000A8,false,Rx,0,8,02,04,21,E0,21,1F,0F,04,
1957595,000000A9,false,Rx,0,8,ED,04,79,DF,1D,C7,E0,21,
1957833,000000BA,false,Rx,0,7,03,FF,0F,00,00,51,84,00,
1958623,000000B6,false,Rx,0,5,07,07,80,00,C8,00,00,00,
1958867,000000C4,false,Rx,0,7,45,08,FC,00,00,FF,F1,00,
1959100,000000CE,false,Rx,0,8,00,00,00,00,00,00,00,00,
1959325,0000019E,false,Rx,0,8,00,E8,BF,FC,FE,00,00,44,
1959552,000001A0,false,Rx,0,8,00,80,00,40,01,11,70,E4,
1959986,000002B2,false,Rx,0,8,00,00,00,00,40,00,00,04,
1960264,000001A6,false,Rx,0,8,00,00,00,00,00,00,A0,F1,
1967116,000000AA,false,Rx,0,8,64,5A,07,00,B8,0B,94,00,
1967341,000000A8,false,Rx,0,8,03,05,21,E0,21,1F,0F,04,
1967566,000000A9,false,Rx,0,8,EE,05,79,DF,1D,C7,E0,21,
1967806,000000BA,false,Rx,0,7,03,FF,0F,00,00,52,85,00,
1968775,000000C4,false,Rx,0,7,45,08,FC,00,00,FF,F1,00,
1971858,000001FB,false,Rx,0,2,F5,FF,00,00,00,00,00,00,
1977506,000000AA,false,Rx,0,8,66,5C,07,00,B8,0B,94,00,
1977512,000000A8,false,Rx,0,8,04,06,21,E0,21,1F,0F,04,
1977805,000000A9,false,Rx,0,8,EF,06,79,DF,1D,C7,E0,21,
1977813,000000BA,false,Rx,0,7,03,FF,0F,00,00,53,86,00,
1978880,000000B6,false,Rx,0,5,08,08,80,00,C8,00,00,00,
1978885,000000C4,false,Rx,0,7,45,08,FC,00,00,FF,F1,00,
1979123,000000CE,false,Rx,0,8,00,00,00,00,00,00,00,00,
1979348,0000019E,false,Rx,0,8,00,E8,BF,FC,FE,00,00,44,
1979573,000001A0,false,Rx,0,8,00,80,00,40,01,14,80,F7,
1979993,000002B2,false,Rx,0,8,00,00,00,00,50,00,00,04,
1980404,000001B4,false,Rx,0,8,00,D0,E2,FD,44,32,FE,DC,
1987219,000000AA,false,Rx,0,8,68,5E,07,00,B8,0B,94,00,
1987444,000000A8,false,Rx,0,8,05,07,21,E0,21,1F,0F,04,
1987677,000000A9,false,Rx,0,8,F0,07,79,DF,1D,C7,E0,21,
1987909,000000BA,false,Rx,0,7,03,FF,0F,00,00,54,87,00,
1988692,000000C4,false,Rx,0,7,45,08,FC,00,00,FF,F1,00,
1997471,000000AA,false,Rx,0,8,5A,50,07,00,B8,0B,94,00,
1997478,000000A8,false,Rx,0,8,06,08,21,E0,21,1F,0F,04,
1997715,000000A9,false,Rx,0,8,F1,08,79,DF,1D,C7,E0,21,
1997959,000000BA,false,Rx,0,7,03,FF,0F,00,00,55,88,00,
1998774,000000B6,false,Rx,0,5,09,09,80,00,C8,00,00,00,
1999037,000000C4,false,Rx,0,7,45,08,FC,00,00,FF,F1,00,
1999270,000000CE,false,Rx,0,8,00,00,00,00,00,00,00,00,
1999495,0000019E,false,Rx,0,8,00,E8,CF,FC,FE,00,00,54,
1999723,000001A0,false,Rx,0,8,00,80,00,40,01,11,90,05,
1999954,000002B2,false,Rx,0,8,00,00,00,00,40,00,00,04,
2006005,00000130,false,Rx,0,5,45,43,21,8F,76,00,00,00,
2007174,000000AA,false,Rx,0,8,5C,52,07,00,B8,0B,94,00,
2007410,000000A8,false,Rx,0,8,07,09,21,E0,21,1F,0F,04,
2007664,000000A9,false,Rx,0,8,F2,09,79,DF,1D,C7,E0,21,
2007921,000000BA,false,Rx,0,7,03,FF,0F,00,00,56,89,00,
2008152,000001D2,false,Rx,0,5,E1,0C,8F,60,F0,00,00,00,
2008802,000000C4,false,Rx,0,7,45,08,FC,00,00,FF,F1,00,
2009027,000001D6,false,Rx,0,2,FF,F3,00,00,00,00,00,00,
2017599,000000AA,false,Rx,0,8,5E,54,07,00,B8,0B,94,00,
2017605,000000A8,false,Rx,0,8,08,0A,21,E0,21,1F,0F,04,
2017611,000000A9,false,Rx,0,8,F3,0A,79,DF,1D,C7,E0,21,
2017870,000000BA,false,Rx,0,7,03,FF,0F,00,00,57,8A,00,
2018945,000000B6,false,Rx,0,5,0A,0A,80,00,C8,00,00,00,
2018951,000000C4,false,Rx,0,7,45,08,FC,00,00,FF,F1,00,
2019202,000000CE,false,Rx,0,8,00,00,00,00,00,00,00,00,
2019612,0000019E,false,Rx,0,8,00,E8,CF,FC,FE,00,00,54,
2019849,000001A0,false,Rx,0,8,00,80,00,60,01,11,A0,35,
2020074,000002B2,false,Rx,0,8,00,00,00,00,40,00,00,04,
2027251,000000AA,false,Rx,0,8,60,56,07,00,B8,0B,94,00,
2027476,000000A8,false,Rx,0,8,09,0B,21,E0,21,1F,0F,04,
2027706,000000A9,false,Rx,0,8,F4,0B,79,DF,1D,C7,E0,21,
2027938,000000BA,false,Rx,0,7,03,FF,0F,00,00,58,8B,00,
2028728,000000C4,false,Rx,0,7,45,08,FC,00,00,FF,F1,00,
2035360,00000480,false,Rx,0,8,17,42,FD,FF,FF,FF,FF,FF,
2037807,000000AA,false,Rx,0,8,62,58,07,00,B8,0B,94,00,
2037814,000000A8,false,Rx,0,8,0A,0C,21,E0,21,1F,0F,04,
2037819,000000A9,false,Rx,0,8,F5,0C,79,DF,1D,C7,E0,21,
2037824,000000BA,false,Rx,0,7,03,FF,0F,00,00,59,8C,00,
2038843,000000B6,false,Rx,0,5,0B,0B,80,00,C8,00,00,00,
2039089,000000C4,false,Rx,0,7,45,08,FC,00,00,FF,F1,00,
2039392,000000CE,false,Rx,0,8,00,00,00,00,00,00,00,00,
2039397,0000019E,false,Rx,0,8,00,E8,CF,FC,FE,00,00,54,
2039821,000001A0,false,Rx,0,8,00,80,00,60,01,14,B0,48,
2040046,000002B2,false,Rx,0,8,00,00,00,00,50,00,00,04,
2047245,000000AA,false,Rx,0,8,64,5A,07,00,B8,0B,94,00,
2047470,000000A8,false,Rx,0,8,0B,0D,21,E0,21,1F,0F,04,
2047697,000000A9,false,Rx,0,8,F6,0D,79,DF,1D,C7,E0,21,
2047929,000000BA,false,Rx,0,7,03,FF,0F,00,00,5A,8D,00,
2048718,000000C4,false,Rx,0,7,45,08,FC,00,00,FF,F1,00,
2051768,000001D0,false,Rx,0,8,3C,76,6D,C3,9C,9E,CD,82,
2057929,000000AA,false,Rx,0,8,66,5C,07,00,B8,0B,94,00,
2057935,000000A8,false,Rx,0,8,0C,0E,21,E0,21,1F,0F,04,
2057940,000000A9,false,Rx,0,8,F7,0E,79,DF,1D,C7,E0,21,
2057946,000000BA,false,Rx,0,7,03,FF,0F,00,00,5B,8E,00,
2058808,000000B6,false,Rx,0,5,0C,0C,80,00,C8,00,00,00,
2058816,000000C4,false,Rx,0,7,45,08,FC,00,00,FF,F1,00,
2059058,000000CE,false,Rx,0,8,00,00,00,00,00,00,00,00,
2059298,0000019E,false,Rx,0,8,00,E8,CF,FC,FE,00,00,54,
2059558,000001A0,false,Rx,0,8,00,80,00,60,01,14,C0,58,
2059797,000002B2,false,Rx,0,8,00,00,00,00,50,00,00,04,
2060207,000001A6,false,Rx,0,8,00,00,00,00,00,00,30,F3,
2067247,000000AA,false,Rx,0,8,5A,50,07,00,B8,0B,94,00,
2067472,000000A8,false,Rx,0,8,FD,00,21,E0,21,1F,0F,04,
2067703,000000A9,false,Rx,0,8,E9,00,79,DF,1D,C7,E0,21,
2067927,000000BA,false,Rx,0,7,03,FF,0F,00,00,4D,80,00,
2068720,000000C4,false,Rx,0,7,45,08,FC,00,00,FF,F1,00,
2078159,000000AA,false,Rx,0,8,5C,52,07,00,B8,0B,94,00,
2078166,000000A8,false,Rx,0,8,FE,01,21,E0,21,1F,0F,04,
2078172,000000A9,false,Rx,0,8,EA,01,79,DF,1D,C7,E0,21,
2078177,000000BA,false,Rx,0,7,03,FF,0F,00,00,4E,81,00,
2078601,000000B6,false,Rx,0,5,0D,0D,80,00,C8,00,00,00,
2078841,000000C4,false,Rx,0,7,45,08,FC,00,00,FF,F1,00,
2079066,000000CE,false,Rx,0,8,00,00,00,00,00,00,00,00,
2079305,0000019E,false,Rx,0,8,00,E8,CF,FC,FE,00,00,54,
2079549,000001A0,false,Rx,0,8,00,80,00,60,01,14,D0,68,
2079808,000002B2,false,Rx,0,8,00,00,00,00,50,00,00,04,
2080485,000001B4,false,Rx,0,8,00,D0,E2,FE,44,32,FE,DD,
2085054,0000034F,false,Rx,0,2,FE,FF,00,00,00,00,00,00,
2087161,000000AA,false,Rx,0,8,5E,54,07,00,B8,0B,94,00,
2087386,000000A8,false,Rx,0,8,FF,02,21,E0,21,1F,0F,04,
2087611,000000A9,false,Rx,0,8,EB,02,79,DF,1D,C7,E0,21,
2087847,000000BA,false,Rx,0,7,03,FF,0F,00,00,4F,82,00,
2088629,000000C4,false,Rx,0,7,45,08,FC,00,00,FF,F1,00,
2098226,000000AA,false,Rx,0,8,60,56,07,00,B8,0B,94,00,
2098233,000000A8,false,Rx,0,8,00,03,21,E0,21,1F,0F,04,
2098239,000000A9,false,Rx,0,8,EC,03,79,DF,1D,C7,E0,21,
2098244,000000BA,false,Rx,0,7,03,FF,0F,00,00,50,83,00,
2098681,000000B6,false,Rx,0,5,0E,0E,80,00,C8,00,00,00,
2098908,000000C4,false,Rx,0,7,45,08,FC,00,00,FF,F1,00,
2099150,000000CE,false,Rx,0,8,00,00,00,00,00,00,00,00,
2099391,0000019E,false,Rx,0,8,00,E8,CF,FC,FE,00,00,54,
2099655,000001A0,false,Rx,0,8,00,80,00,60,01,14,E0,78,
2099889,000002B2,false,Rx,0,8,00,00,00,00,50,00,00,04,
2100676,000002FA,false,Rx,0,5,FC,00,FF,FF,FF,00,00,00,
2105988,00000130,false,Rx,0,5,45,43,21,8F,87,00,00,00,
2107156,000000AA,false,Rx,0,8,62,58,07,00,B8,0B,94,00,
2107381,000000A8,false,Rx,0,8,02,04,21,E0,21,1F,0F,04,
2107606,000000A9,false,Rx,0,8,ED,04,79,DF,1D,C7,E0,21,
2107847,000000BA,false,Rx,0,7,03,FF,0F,00,00,51,84,00,
2108828,000000C4,false,Rx,0,7,45,08,FC,00,00,FF,F1,00,
2109086,00000194,false,Rx,0,4,E1,F0,00,F0,00,00,00,00,
2109091,000001D6,false,Rx,0,2,FF,F3,00,00,00,00,00,00,
2109315,000002A6,false,Rx,0,2,00,FC,00,00,00,00,00,00,
2118374,000000AA,false,Rx,0,8,64,5A,07,00,B8,0B,94,00,
2118380,000000A8,false,Rx,0,8,03,05,21,E0,21,1F,0F,04,
2118385,000000A9,false,Rx,0,8,EE,05,79,DF,1D,C7,E0,21,
2118391,000000BA,false,Rx,0,7,03,FF,0F,00,00,52,85,00,
2118833,000000B6,false,Rx,0,5,FF,00,80,00,C8,00,00,00,
2119059,000000C4,false,Rx,0,7,45,08,FC,00,00,FF,F1,00,
2119295,000000CE,false,Rx,0,8,00,00,00,00,00,00,00,00,
2119540,0000019E,false,Rx,0,8,00,E8,CF,FC,FE,00,00,54,
2119808,000001A0,false,Rx,0,8,00,80,00,40,01,14,00,77,
2120036,000002B2,false,Rx,0,8,00,00,00,00,50,00,00,04,
2121387,000003BE,false,Rx,0,2,FE,FF,00,00,00,00,00,00,
2125748,00000497,false,Rx,0,8,29,42,FF,FF,FF,FF,FF,FF,
2127110,000000AA,false,Rx,0,8,66,5C,07,00,B8,0B,94,00,
2127335,000000A8,false,Rx,0,8,04,06,21,E0,21,1F,0F,04,
2127559,000000A9,false,Rx,0,8,EF,06,79,DF,1D,C7,E0,21,
2127799,000000BA,false,Rx,0,7,03,FF,0F,00,00,53,86,00,
2128774,000000C4,false,Rx,0,7,45,08,FC,00,00,FF,F1,00,
2138375,000000AA,false,Rx,0,8,68,5E,07,00,B8,0B,94,00,
2138381,000000A8,false,Rx,0,8,05,07,21,E0,21,1F,0F,04,
2138387,000000A9,false,Rx,0,8,F0,07,79,DF,1D,C7,E0,21,
2138392,000000BA,false,Rx,0,7,03,FF,0F,00,00,54,87,00,
2138837,000000B6,false,Rx,0,5,00,01,80,00,C8,00,00,00,
2139063,000000C4,false,Rx,0,7,45,08,FC,00,00,FF,F1,00,
2139289,000000CE,false,Rx,0,8,00,00,00,00,00,00,00,00,
2139528,0000019E,false,Rx,0,8,00,E8,CF,FC,FE,00,00,54,
2139775,000001A0,false,Rx,0,8,00,80,00,60,01,14,10,A7,
2140084,000002B2,false,Rx,0,8,00,00,00,00,50,00,00,04,
2140089,000000C8,false,Rx,0,6,3B,08,CC,00,00,2C,00,00,
2147100,000000AA,false,Rx,0,8,5A,50,07,00,B8,0B,94,00,
2147510,000000A8,false,Rx,0,8,06,08,21,E0,21,1F,0F,04,
2147786,000000A9,false,Rx,0,8,F1,08,79,DF,1D,C7,E0,21,
2147791,000000BA,false,Rx,0,7,03,FF,0F,00,00,55,88,00,
2148767,000000C4,false,Rx,0,7,45,08,FC,00,00,FF,F1,00,
2151817,000001D0,false,Rx,0,8,3C,76,6D,C3,9C,9E,CD,82,
2158429,000000AA,false,Rx,0,8,5C,52,07,00,B8,0B,94,00,
2158435,000000A8,false,Rx,0,8,07,09,21,E0,21,1F,0F,04,
2158441,000000A9,false,Rx,0,8,F2,09,79,DF,1D,C7,E0,21,
2158446,000000BA,false,Rx,0,7,03,FF,0F,00,00,56,89,00,
2158685,000000B6,false,Rx,0,5,02,02,80,00,C8,00,00,00,
2158924,000000C4,false,Rx,0,7,45,08,FC,00,00,FF,F1,00,
2159149,000000CE,false,Rx,0,8,00,00,00,00,00,00,00,00,
2159387,0000019E,false,Rx,0,8,00,E8,CF,FC,FE,00,00,54,
2159656,000001A0,false,Rx,0,8,00,80,00,60,01,14,20,B7,
2159962,000002B2,false,Rx,0,8,00,00,00,00,50,00,00,04,
2160221,000001A6,false,Rx,0,8,00,00,00,00,00,00,C0,F4,
2160226,00000374,false,Rx,0,5,00,00,00,00,FC,00,00,00,
2161021,000001FB,false,Rx,0,2,F6,FF,00,00,00,00,00,00,
2167102,000000AA,false,Rx,0,8,5E,54,07,00,B8,0B,94,00,
2167513,000000A8,false,Rx,0,8,08,0A,21,E0,21,1F,0F,04,
2167786,000000A9,false,Rx,0,8,F3,0A,79,DF,1D,C7,E0,21,
2167791,000000BA,false,Rx,0,7,03,FF,0F,00,00,57,8A,00,
2168787,000000C4,false,Rx,0,7,45,08,FC,00,00,FF,F1,00,
2178642,000000AA,false,Rx,0,8,60,56,07,00,B8,0B,94,00,
2178648,000000A8,false,Rx,0,8,09,0B,21,E0,21,1F,0F,04,
2178654,000000A9,false,Rx,0,8,F4,0B,79,DF,1D,C7,E0,21,
2178659,000000BA,false,Rx,0,7,03,FF,0F,00,00,58,8B,00,
2178665,000000B6,false,Rx,0,5,03,03,80,00,C8,00,00,00,
2178908,000000C4,false,Rx,0,7,45,08,FC,00,00,FF,F1,00,
2179147,000000CE,false,Rx,0,8,00,00,00,00,00,00,00,00,
2179373,0000019E,false,Rx,0,8,00,E8,CF,FC,FE,00,00,54,
2179611,000001A0,false,Rx,0,8,00,80,00,60,01,14,30,C7,
2179858,000002B2,false,Rx,0,8,00,00,00,00,50,00,00,04,
2180473,000001B4,false,Rx,0,8,00,D0,E2,F0,44,32,FE,CF,
2187103,000000AA,false,Rx,0,8,62,58,07,00,B8,0B,94,00,
2187328,000000A8,false,Rx,0,8,0A,0C,21,E0,21,1F,0F,04,
2187786,000000A9,false,Rx,0,8,F5,0C,79,DF,1D,C7,E0,21,
2187791,000000BA,false,Rx,0,7,03,FF,0F,00,00,59,8C,00,
2188763,000000C4,false,Rx,0,7,45,08,FC,00,00,FF,F1,00,
2198845,000000AA,false,Rx,0,8,64,5A,07,00,B8,0B,94,00,
2198852,000000A8,false,Rx,0,8,0B,0D,21,E0,21,1F,0F,04,
2198857,000000A9,false,Rx,0,8,F6,0D,79,DF,1D,C7,E0,21,
2198863,000000BA,false,Rx,0,7,03,FF,0F,00,00,5A,8D,00,
2198868,000000B6,false,Rx,0,5,04,04,80,00,C8,00,00,00,
2198873,000000C4,false,Rx,0,7,45,08,FC,00,00,FF,F1,00,
2199112,000000CE,false,Rx,0,8,00,00,00,00,00,00,00,00,
2199345,0000019E,false,Rx,0,8,00,E8,CF,FC,FE,00,00,54,
2199570,000001A0,false,Rx,0,8,00,80,00,60,01,14,40,D7,
2199817,000002B2,false,Rx,0,8,00,00,00,00,50,00,00,04,
2205944,00000130,false,Rx,0,5,45,43,21,8F,98,00,00,00,
2207109,000000AA,false,Rx,0,8,66,5C,07,00,B8,0B,94,00,
2207334,000000A8,false,Rx,0,8,0C,0E,21,E0,21,1F,0F,04,
2207792,000000A9,false,Rx,0,8,F7,0E,79,DF,1D,C7,E0,21,
2207797,000000BA,false,Rx,0,7,03,FF,0F,00,00,5B,8E,00,
2208022,000001D2,false,Rx,0,5,E1,0C,8F,70,F0,00,00,00,
2208851,000000C4,false,Rx,0,7,45,08,FC,00,00,FF,F1,00,
2208856,000001D6,false,Rx,0,2,FF,F3,00,00,00,00,00,00,
2217174,000000AA,false,Rx,0,8,5A,50,07,00,B8,0B,94,00,
2218960,000000A8,false,Rx,0,8,FD,00,21,E0,21,1F,0F,04,
2218967,000000A9,false,Rx,0,8,E9,00,79,DF,1D,C7,E0,21,
2218972,000000BA,false,Rx,0,7,03,FF,0F,00,00,4D,80,00,
2218977,000000B6,false,Rx,0,5,05,05,80,00,C8,00,00,00,
2218982,000000C4,false,Rx,0,7,45,08,FC,00,00,FF,F1,00,
2219224,000000CE,false,Rx,0,8,00,00,00,00,00,00,00,00,
2219458,0000019E,false,Rx,0,8,00,E8,DF,FC,FE,00,00,64,
2219689,000001A0,false,Rx,0,8,00,80,00,60,01,14,50,E7,
2219941,000002B2,false,Rx,0,8,00,00,00,00,50,00,00,04,
2220186,000004A9,false,Rx,0,8,30,42,FF,FF,FF,FF,FF,FF,
2227119,000000AA,false,Rx,0,8,5C,52,07,00,B8,0B,94,00,
2227344,000000A8,false,Rx,0,8,FE,01,21,E0,21,1F,0F,04,
2227568,000000A9,false,Rx,0,8,EA,01,79,DF,1D,C7,E0,21,
2227808,000000BA,false,Rx,0,7,03,FF,0F,00,00,4E,81,00,
2228789,000000C4,false,Rx,0,7,45,08,FC,00,00,FF,F1,00,
2237103,000000AA,false,Rx,0,8,5E,54,07,00,B8,0B,94,00,
2237328,000000A8,false,Rx,0,8,FF,02,21,E0,21,1F,0F,04,
2239063,000000A9,false,Rx,0,8,EB,02,79,DF,1D,C7,E0,21,
2239069,000000BA,false,Rx,0,7,03,FF,0F,00,00,4F,82,00,
2239074,000000B6,false,Rx,0,5,06,06,80,00,C8,00,00,00,
2239079,000000C4,false,Rx,0,7,45,08,FC,00,00,FF,F1,00,
2239321,000000CE,false,Rx,0,8,00,00,00,00,00,00,00,00,
2239553,0000019E,false,Rx,0,8,00,E8,DF,FC,FE,00,00,64,
2239790,000001A0,false,Rx,0,8,00,80,00,60,01,14,60,F7,
2240027,000002B2,false,Rx,0,8,00,00,00,00,50,00,00,04,
2243904,00000310,false,Rx,0,7,6E,F6,DA,2D,01,40,23,00,
2247131,000000AA,false,Rx,0,8,60,56,07,00,B8,0B,94,00,
2247357,000000A8,false,Rx,0,8,00,03,21,E0,21,1F,0F,04,
2247581,000000A9,false,Rx,0,8,EC,03,79,DF,1D,C7,E0,21,
2247815,000000BA,false,Rx,0,7,03,FF,0F,00,00,50,83,00,
2248802,000000C4,false,Rx,0,7,45,08,FC,00,00,FF,F1,00,
2251659,000001D0,false,Rx,0,8,3C,76,6E,C3,9C,9E,CD,82,
2257159,000000AA,false,Rx,0,8,62,58,07,00,B8,0B,94,00,
2257384,000000A8,false,Rx,0,8,02,04,21,E0,21,1F,0F,04,
2259183,000000A9,false,Rx,0,8,ED,04,79,DF,1D,C7,E0,21,
2259190,000000BA,false,Rx,0,7,03,FF,0F,00,00,51,84,00,
2259195,000000B6,false,Rx,0,5,07,07,80,00,C8,00,00,00,
2259201,000000C4,false,Rx,0,7,45,08,FC,00,00,FF,F1,00,
2259206,000000CE,false,Rx,0,8,00,00,00,00,00,00,00,00,
2259461,0000019E,false,Rx,0,8,00,E8,DF,FC,FE,00,00,64,
2259701,000001A0,false,Rx,0,8,00,80,00,60,01,14,70,08,
2259952,000002B2,false,Rx,0,8,00,00,00,00,50,00,00,04,
2260189,000001A6,false,Rx,0,8,00,00,00,00,00,00,50,F6,
2267116,000000AA,false,Rx,0,8,64,5A,07,00,B8,0B,94,00,
2267340,000000A8,false,Rx,0,8,03,05,21,E0,21,1F,0F,04,
2267565,000000A9,false,Rx,0,8,EE,05,79,DF,1D,C7,E0,21,
2267805,000000BA,false,Rx,0,7,03,FF,0F,00,00,52,85,00,
2268813,000000C4,false,Rx,0,7,45,08,FC,00,00,FF,F1,00,
2277142,000000AA,false,Rx,0,8,66,5C,07,00,B8,0B,94,00,
2277368,000000A8,false,Rx,0,8,04,06,21,E0,21,1F,0F,04,
2277592,000000A9,false,Rx,0,8,EF,06,79,DF,1D,C7,E0,21,
2279314,000000BA,false,Rx,0,7,03,FF,0F,00,00,53,86,00,
2279320,000001B4,false,Rx,0,8,00,D0,E2,F1,44,32,FE,D0,
2279326,000000B6,false,Rx,0,5,08,08,80,00,C8,00,00,00,
2279331,000000C4,false,Rx,0,7,45,08,FC,00,00,FF,F1,00,
2279337,000000CE,false,Rx,0,8,00,00,00,00,00,00,00,00,
2279577,0000019E,false,Rx,0,8,00,E8,DF,FC,FE,00,00,64,
2279821,000001A0,false,Rx,0,8,00,80,00,40,01,11,80,F4,
2280045,000002B2,false,Rx,0,8,00,00,00,00,40,00,00,04,
2287271,000000AA,false,Rx,0,8,68,5E,07,00,B8,0B,94,00,
2287496,000000A8,false,Rx,0,8,05,07,21,E0,21,1F,0F,04,
2287724,000000A9,false,Rx,0,8,F0,07,79,DF,1D,C7,E0,21,
2287955,000000BA,false,Rx,0,7,03,FF,0F,00,00,54,87,00,
2288744,000000C4,false,Rx,0,7,45,08,FC,00,00,FF,F1,00,
2297251,000000AA,false,Rx,0,8,5A,50,07,00,B8,0B,94,00,
