Time Stamp,ID,Extended,Dir,Bus,LEN,D1,D2,D3,D4,D5,D6,D7,D8
18602264,000000B6,false,Rx,0,5,00,01,80,00,C8,00,00,00,
18602273,000000C4,false,Rx,0,7,29,0A,FC,00,00,FF,F1,00,
18602278,000000CE,false,Rx,0,8,00,00,00,00,00,00,00,00,
18602283,0000019E,false,Rx,0,8,00,E0,7F,FC,FE,00,00,FB,
18602288,000001A0,false,Rx,0,8,00,80,00,50,00,FE,1F,90,
18602293,000002B2,false,Rx,0,8,00,00,00,00,40,00,00,04,
18602298,000000A8,false,Rx,0,8,07,B5,01,B0,01,F0,03,02,
18602303,000000A9,false,Rx,0,8,E5,15,57,DF,14,57,7F,05,
18602309,000000AA,false,Rx,0,8,83,A5,01,00,40,0D,80,64,
18602314,000000C4,false,Rx,0,7,29,0A,FC,00,00,FF,F1,00,
18602319,000000C8,false,Rx,0,6,1D,0A,0C,00,00,EC,00,00,
18602324,000000A8,false,Rx,0,8,08,B6,01,B0,01,F0,03,02,
18602329,000000A9,false,Rx,0,8,F6,16,57,EF,14,57,7F,05,
18602334,000000AA,false,Rx,0,8,94,B6,01,00,40,0D,80,64,
18602339,000000C4,false,Rx,0,7,29,0A,FC,00,00,FF,F1,00,
18602344,000000A8,false,Rx,0,8,45,D3,01,D0,01,F0,03,02,
18602349,000000A9,false,Rx,0,8,54,13,57,0F,15,57,BF,05,
18602354,000000AA,false,Rx,0,8,9D,D3,01,00,2C,0D,80,64,
18602359,000000B6,false,Rx,0,5,08,08,80,00,C8,00,00,00,
18602364,000000C4,false,Rx,0,7,29,0A,FC,00,00,FF,F1,00,
18602369,000000CE,false,Rx,0,8,00,00,00,00,00,00,00,00,
18602375,0000019E,false,Rx,0,8,00,E0,8F,FC,FE,00,00,0C,
18602380,000001A0,false,Rx,0,8,00,80,00,50,00,FE,8F,00,
18602385,000002B2,false,Rx,0,8,00,00,00,00,40,00,00,04,
18602390,000000A8,false,Rx,0,8,56,D4,01,E0,01,F0,03,02,
18602395,000000A9,false,Rx,0,8,45,14,57,0F,15,57,AF,05,
18602400,000000AA,false,Rx,0,8,9A,D4,01,00,28,0D,80,64,
18602405,00000492,false,Rx,0,8,17,42,FF,FF,FF,FF,FF,FF,
18602410,000000C4,false,Rx,0,7,29,0A,FC,00,00,FF,F1,00,
18602415,000000A8,false,Rx,0,8,57,D5,01,E0,01,F0,03,02,
18602420,000000A9,false,Rx,0,8,46,15,57,0F,15,57,AF,05,
18602426,000000AA,false,Rx,0,8,AB,E5,01,00,28,0D,80,64,
18602431,00000200,false,Rx,0,8,42,81,C0,00,00,00,00,00,
18602436,000001B4,false,Rx,0,8,00,D0,E2,F2,04,32,FE,91,
18602441,000000B6,false,Rx,0,5,09,09,80,00,C8,00,00,00,
18602446,000000C4,false,Rx,0,7,29,0A,FC,00,00,FF,F1,00,
18602451,000000CE,false,Rx,0,8,00,00,00,00,00,00,00,00,
18602456,0000019E,false,Rx,0,8,00,E0,8F,FC,FE,00,00,0C,
18602461,000001A0,false,Rx,0,8,00,80,00,B0,FF,FE,9F,71,
18602466,000002B2,false,Rx,0,8,00,00,00,00,40,00,00,04,
18602471,000000A8,false,Rx,0,8,38,C6,01,D0,01,F0,03,02,
18602477,000000A9,false,Rx,0,8,67,16,57,0F,15,57,CF,05,
18602482,000000AA,false,Rx,0,8,B8,E6,01,00,34,0D,80,64,
18602487,000001B5,false,Rx,0,6,00,FF,07,00,0A,FF,00,00,
18602492,000000C4,false,Rx,0,7,29,0A,FC,00,00,FF,F1,00,
18602497,00000194,false,Rx,0,4,E7,F6,00,F0,00,00,00,00,
18602502,000001D6,false,Rx,0,2,FF,F3,00,00,00,00,00,00,
18602506,000000A8,false,Rx,0,8,49,D7,01,D0,01,F0,03,02,
18602512,000000A9,false,Rx,0,8,6A,17,58,0F,15,58,CF,05,
18602517,000000AA,false,Rx,0,8,A9,D7,01,00,34,0D,80,64,
18602522,0000031A,false,Rx,0,2,FD,FF,00,00,00,00,00,00,
18602527,000000B6,false,Rx,0,5,0A,0A,80,00,C8,00,00,00,
18602531,000000C4,false,Rx,0,7,29,0A,FC,00,00,FF,F1,00,
18602537,000000CE,false,Rx,0,8,00,00,00,00,00,00,00,00,
18602542,0000019E,false,Rx,0,8,00,E0,8F,FC,FE,00,00,0C,
18602547,000001A0,false,Rx,0,8,00,80,00,50,00,FE,AF,21,
18602552,000002B2,false,Rx,0,8,00,00,00,00,40,00,00,04,
18602557,000000A8,false,Rx,0,8,3A,C8,01,D0,01,F0,03,02,
18602562,000000A9,false,Rx,0,8,6B,18,58,0F,15,58,CF,05,
18602567,000000AA,false,Rx,0,8,AA,D8,01,00,34,0D,80,64,
18602572,00000130,false,Rx,0,5,45,43,21,8F,33,00,00,00,
18602577,000001B6,false,Rx,0,7,00,FC,2E,04,46,A0,26,00,
18602582,000000C4,false,Rx,0,7,29,0A,FC,00,00,FF,F1,00,
18602587,000000A8,false,Rx,0,8,4B,D9,01,D0,01,F0,03,02,
18604483,000000B6,false,Rx,0,5,00,01,80,00,C8,00,00,00,
18604488,000000C4,false,Rx,0,7,29,0A,FC,00,00,FF,F1,00,
18604493,000000CE,false,Rx,0,8,00,00,00,00,00,00,00,00,
18604499,0000019E,false,Rx,0,8,00,E0,8F,FC,FE,00,00,0C,
18604504,000001A0,false,Rx,0,8,00,80,00,90,FF,00,10,C2,
18604509,000002B2,false,Rx,0,8,00,00,00,00,50,00,00,04,
18605135,000000A8,false,Rx,0,8,67,E5,01,E0,01,F0,03,02,
18605365,000000A9,false,Rx,0,8,56,15,57,0F,15,57,BF,05,
18605596,000000AA,false,Rx,0,8,9B,D5,01,00,28,0D,80,64,
18613035,000000C4,false,Rx,0,7,29,0A,FC,00,00,FF,F1,00,
18615645,000000A8,false,Rx,0,8,68,E6,01,E0,01,F0,03,02,
18615869,000000A9,false,Rx,0,8,57,16,57,0F,15,57,BF,05,
18616286,000000AA,false,Rx,0,8,AC,E6,01,00,28,0D,80,64,
18620181,000001D0,false,Rx,0,8,47,FF,62,C2,65,EB,CD,A9,
18624393,000000B6,false,Rx,0,5,02,02,80,00,C8,00,00,00,
18624398,000000C4,false,Rx,0,7,29,0A,FC,00,00,FF,F1,00,
18624403,000000CE,false,Rx,0,8,00,00,00,00,00,00,00,00,
18624408,0000019E,false,Rx,0,8,00,E0,8F,FC,FE,00,00,0C,
18624413,000001A0,false,Rx,0,8,00,80,00,50,00,FE,2F,A0,
18624419,000002B2,false,Rx,0,8,00,00,00,00,40,00,00,04,
18624424,000001A6,false,Rx,0,8,04,00,02,00,02,00,98,FF,
18624666,000004A9,false,Rx,0,8,00,42,FF,FF,FF,FF,FF,FF,
18625086,000000A8,false,Rx,0,8,29,C7,01,C0,01,F0,03,02,
18625318,000000A9,false,Rx,0,8,B8,17,57,0F,15,57,1F,06,
18625542,000000AA,false,Rx,0,8,BD,E7,01,00,38,0D,80,64,
18632906,000000C4,false,Rx,0,7,29,0A,FC,00,00,FF,F1,00,
18636265,000000A8,false,Rx,0,8,2A,C8,01,C0,01,F0,03,02,
18636488,000000A9,false,Rx,0,8,A9,18,57,FF,14,57,1F,06,
18636712,000000AA,false,Rx,0,8,9E,C8,01,00,38,0D,80,64,
18644420,000000B6,false,Rx,0,5,03,03,80,00,C8,00,00,00,
18644425,000000C4,false,Rx,0,7,29,0A,FC,00,00,FF,F1,00,
18644430,000000CE,false,Rx,0,8,00,00,00,00,00,00,00,00,
18644435,0000019E,false,Rx,0,8,00,E0,9F,FC,FE,00,00,1C,
18644440,000001A0,false,Rx,0,8,00,80,00,00,00,FE,3F,60,
18644445,000002B2,false,Rx,0,8,00,00,00,00,40,00,00,04,
18645069,000000A8,false,Rx,0,8,2B,C9,01,C0,01,F0,03,02,
18645298,000000A9,false,Rx,0,8,AA,19,57,FF,14,57,1F,06,
18645526,000000AA,false,Rx,0,8,9F,C9,01,00,38,0D,80,64,
18651428,000001B6,false,Rx,0,7,00,FC,2E,04,46,A0,26,00,
18652930,000000C4,false,Rx,0,7,29,0A,FC,00,00,FF,F1,00,
18654996,000000A8,false,Rx,0,8,2C,CA,01,C0,01,F0,03,02,
18655232,000000A9,false,Rx,0,8,6B,1A,57,FF,14,57,DF,05,
18655456,000000AA,false,Rx,0,8,A0,CA,01,00,38,0D,80,64,
18655679,00000200,false,Rx,0,8,42,81,C0,00,00,00,00,00,
18656821,000001B4,false,Rx,0,8,00,D0,E2,F4,04,32,FE,93,
18662956,000000B6,false,Rx,0,5,04,04,80,00,C8,00,00,00,
18665116,000000C4,false,Rx,0,7,29,0A,FC,00,00,FF,F1,00,
18665121,000000CE,false,Rx,0,8,00,00,00,00,00,00,00,00,
18665126,0000019E,false,Rx,0,8,00,E0,9F,FC,FE,00,00,1C,
18665131,000001A0,false,Rx,0,8,00,80,00,F0,FF,FE,4F,61,
18665136,000002B2,false,Rx,0,8,00,00,00,00,40,00,00,04,
18665141,000000A8,false,Rx,0,8,2D,CB,01,C0,01,F0,03,02,
18665647,000000A9,false,Rx,0,8,6C,1B,57,FF,14,57,DF,05,
18665652,000000AA,false,Rx,0,8,A1,CB,01,00,38,0D,80,64,
18672973,000000C4,false,Rx,0,7,29,0A,FC,00,00,FF,F1,00,
18673206,00000194,false,Rx,0,4,E8,F7,00,F0,00,00,00,00,
18673429,000001D6,false,Rx,0,2,FF,F3,00,00,00,00,00,00,
18675116,000000A8,false,Rx,0,8,2E,CC,01,C0,01,F0,03,02,
18675351,000000A9,false,Rx,0,8,1D,1C,57,FF,14,57,8F,05,
18675576,000000AA,false,Rx,0,8,A2,CC,01,00,38,0D,80,64,
18680011,0000031A,false,Rx,0,2,FD,FF,00,00,00,00,00,00,
18682985,000000B6,false,Rx,0,5,05,05,80,00,C8,00,00,00,
18683221,000000C4,false,Rx,0,7,29,0A,FC,00,00,FF,F1,00,
18684896,000000CE,false,Rx,0,8,00,00,00,00,00,00,00,00,
18684901,0000019E,false,Rx,0,8,00,E0,9F,FC,FE,00,00,1C,
18684906,000001A0,false,Rx,0,8,00,80,00,10,00,FE,5F,90,
18684911,000002B2,false,Rx,0,8,00,00,00,00,40,00,00,04,
18685157,000000A8,false,Rx,0,8,2F,CD,01,C0,01,F0,03,02,
18685396,000000A9,false,Rx,0,8,1E,1D,57,FF,14,57,8F,05,
18685630,000000AA,false,Rx,0,8,A3,CD,01,00,38,0D,80,64,
18689386,00000130,false,Rx,0,5,45,43,21,8F,55,00,00,00,
18693094,000000C4,false,Rx,0,7,29,0A,FC,00,00,FF,F1,00,
18694993,000000A8,false,Rx,0,8,30,CE,01,C0,01,F0,03,02,
18695232,000000A9,false,Rx,0,8,FE,1E,57,FF,14,57,6F,05,
18695456,000000AA,false,Rx,0,8,A0,CE,01,00,34,0D,80,64,
18703034,000000B6,false,Rx,0,5,06,06,80,00,C8,00,00,00,
18703265,000000C4,false,Rx,0,7,29,0A,FC,00,00,FF,F1,00,
18705040,000000CE,false,Rx,0,8,00,00,00,00,00,00,00,00,
18705045,0000019E,false,Rx,0,8,00,E0,9F,FC,FE,00,00,1C,
18705051,000001A0,false,Rx,0,8,00,80,00,F0,FF,FE,6F,81,
18705056,000002B2,false,Rx,0,8,00,00,00,00,40,00,00,04,
18706265,000000A8,false,Rx,0,8,22,C0,01,C0,01,F0,03,02,
18706490,000000A9,false,Rx,0,8,F0,10,57,FF,14,57,6F,05,
18706712,000000AA,false,Rx,0,8,92,C0,01,00,34,0D,80,64,
18713066,000000C4,false,Rx,0,7,29,0A,FC,00,00,FF,F1,00,
18713297,000000C8,false,Rx,0,6,1D,0A,AC,00,00,1C,00,00,
18713520,00000480,false,Rx,0,8,12,42,FD,FF,FF,FF,FF,FF,
18715024,000000A8,false,Rx,0,8,23,C1,01,C0,01,F0,03,02,
18715259,000000A9,false,Rx,0,8,F1,11,57,FF,14,57,6F,05,
18715484,000000AA,false,Rx,0,8,93,C1,01,00,34,0D,80,64,
18719560,000001D0,false,Rx,0,8,47,FF,63,C2,97,EB,CD,A9,
18722898,000000B6,false,Rx,0,5,07,07,80,00,C8,00,00,00,
18723124,000000C4,false,Rx,0,7,29,0A,FC,00,00,FF,F1,00,
18723354,000000CE,false,Rx,0,8,00,00,00,00,00,00,00,00,
18725038,0000019E,false,Rx,0,8,00,E0,9F,FC,FE,00,00,1C,
18725043,000001A0,false,Rx,0,8,00,80,00,50,00,00,70,E2,
18725048,000002B2,false,Rx,0,8,00,00,00,00,50,00,00,04,
18725053,000001A6,false,Rx,0,8,04,00,02,00,02,00,28,F1,
18726234,000000A8,false,Rx,0,8,24,C2,01,C0,01,F0,03,02,
18726459,000000A9,false,Rx,0,8,13,12,57,FF,14,57,8F,05,
18726683,000000AA,false,Rx,0,8,94,C2,01,00,34,0D,80,64,
18732286,000001B6,false,Rx,0,7,00,FC,2D,04,46,A0,26,00,
18733058,000000C4,false,Rx,0,7,29,0A,FC,00,00,FF,F1,00,
18734931,000000A8,false,Rx,0,8,25,C3,01,C0,01,F0,03,02,
18735160,000000A9,false,Rx,0,8,14,13,57,FF,14,57,8F,05,
18735390,000000AA,false,Rx,0,8,95,C3,01,00,34,0D,80,64,
18742940,000000B6,false,Rx,0,5,08,08,80,00,C8,00,00,00,
18743173,000000C4,false,Rx,0,7,29,0A,FC,00,00,FF,F1,00,
18743397,000000CE,false,Rx,0,8,00,00,00,00,00,00,00,00,
18745058,0000019E,false,Rx,0,8,00,E0,9F,FC,FE,00,00,1C,
18745063,000001A0,false,Rx,0,8,00,80,00,90,FF,FE,8F,41,
18745068,000002B2,false,Rx,0,8,00,00,00,00,40,00,00,04,
18745073,000000A8,false,Rx,0,8,26,C4,01,C0,01,F0,03,02,
18745512,000000A9,false,Rx,0,8,75,14,57,FF,14,57,EF,05,
18745751,000000AA,false,Rx,0,8,9A,C4,01,00,38,0D,80,64,
18753017,000000C4,false,Rx,0,7,29,0A,FC,00,00,FF,F1,00,
18755079,000000A8,false,Rx,0,8,27,C5,01,C0,01,F0,03,02,
18755310,000000A9,false,Rx,0,8,66,15,57,EF,14,57,EF,05,
18755533,000000AA,false,Rx,0,8,9B,C5,01,00,38,0D,80,64,
18757229,000001B4,false,Rx,0,8,00,D0,E2,F5,04,32,FE,94,
18762951,000000B6,false,Rx,0,5,09,09,80,00,C8,00,00,00,
18763185,000000C4,false,Rx,0,7,29,0A,FC,00,00,FF,F1,00,
18763409,000000CE,false,Rx,0,8,00,00,00,00,00,00,00,00,
18765109,0000019E,false,Rx,0,8,00,E0,9F,FC,FE,00,00,1C,
18765114,000001A0,false,Rx,0,8,00,80,00,60,00,FE,9F,21,
18765119,000002B2,false,Rx,0,8,00,00,00,00,40,00,00,04,
18765124,000000A8,false,Rx,0,8,08,B6,01,B0,01,F0,03,02,
18765129,000000A9,false,Rx,0,8,B7,16,57,EF,14,57,3F,06,
18765378,000000AA,false,Rx,0,8,A0,C6,01,00,3C,0D,80,64,
18773031,000000C4,false,Rx,0,7,29,0A,FC,00,00,FF,F1,00,
18773036,000001D6,false,Rx,0,2,FF,F3,00,00,00,00,00,00,
18774912,000000A8,false,Rx,0,8,09,B7,01,B0,01,F0,03,02,
18775137,000000A9,false,Rx,0,8,B8,17,57,EF,14,57,3F,06,
18775369,000000AA,false,Rx,0,8,91,B7,01,00,3C,0D,80,64,
18779990,0000031A,false,Rx,0,2,FD,FF,00,00,00,00,00,00,
18782965,000000B6,false,Rx,0,5,0A,0A,80,00,C8,00,00,00,
18783198,000000C4,false,Rx,0,7,29,0A,FC,00,00,FF,F1,00,
18783421,000000CE,false,Rx,0,8,00,00,00,00,00,00,00,00,
18783645,0000019E,false,Rx,0,8,00,E0,9F,FC,FE,00,00,1C,
18785293,000001A0,false,Rx,0,8,00,80,00,E0,FF,FE,AF,B1,
18785298,000002B2,false,Rx,0,8,00,00,00,00,40,00,00,04,
18785303,000000A8,false,Rx,0,8,0A,B8,01,B0,01,F0,03,02,
18785309,000000A9,false,Rx,0,8,B9,18,57,EF,14,57,3F,06,
18785551,000000AA,false,Rx,0,8,92,B8,01,00,3C,0D,80,64,
18789472,00000130,false,Rx,0,5,45,43,21,8F,76,00,00,00,
18793076,000000C4,false,Rx,0,7,29,0A,FC,00,00,FF,F1,00,
18796246,000000A8,false,Rx,0,8,0B,B9,01,B0,01,F0,03,02,
18796470,000000A9,false,Rx,0,8,BA,19,57,EF,14,57,3F,06,
18796695,000000AA,false,Rx,0,8,93,B9,01,00,3C,0D,80,64,
18802983,000000B6,false,Rx,0,5,0B,0B,80,00,C8,00,00,00,
18803218,000000C4,false,Rx,0,7,29,0A,FC,00,00,FF,F1,00,
18803443,000000CE,false,Rx,0,8,00,00,00,00,00,00,00,00,
18803666,0000019E,false,Rx,0,8,00,E0,9F,FC,FE,00,00,1C,
18805956,000001A0,false,Rx,0,8,00,80,00,30,00,FE,BF,11,
18805961,000002B2,false,Rx,0,8,00,00,00,00,40,00,00,04,
18805966,000000A8,false,Rx,0,8,0C,BA,01,B0,01,F0,03,02,
18805971,000000A9,false,Rx,0,8,6B,1A,57,EF,14,57,EF,05,
18805976,000000AA,false,Rx,0,8,90,BA,01,00,38,0D,80,64,
18805982,00000492,false,Rx,0,8,17,42,FF,FF,FF,FF,FF,FF,
18811035,000001B6,false,Rx,0,7,00,FC,30,04,46,A0,26,00,
18812960,000000C4,false,Rx,0,7,29,0A,FC,00,00,FF,F1,00,
18814837,000000A8,false,Rx,0,8,1D,BB,01,C0,01,F0,03,02,
18815253,000000A9,false,Rx,0,8,2C,1B,57,EF,14,57,AF,05,
18815476,000000AA,false,Rx,0,8,9D,CB,01,00,34,0D,80,64,
18819371,000001D0,false,Rx,0,8,47,FF,63,C2,C9,EB,CD,A9,
18822889,000000B6,false,Rx,0,5,0C,0C,80,00,C8,00,00,00,
18823115,000000C4,false,Rx,0,7,29,0A,FC,00,00,FF,F1,00,
18823344,000000CE,false,Rx,0,8,00,00,00,00,00,00,00,00,
18823568,0000019E,false,Rx,0,8,00,E0,9F,FC,FE,00,00,1C,
18825452,000001A0,false,Rx,0,8,00,80,00,00,00,FE,CF,F0,
18825457,000002B2,false,Rx,0,8,00,00,00,00,40,00,00,04,
18825462,000001A6,false,Rx,0,8,04,00,02,00,02,00,B8,F2,
18825467,000000A8,false,Rx,0,8,1E,BC,01,C0,01,F0,03,02,
18825472,000000A9,false,Rx,0,8,2D,1C,57,EF,14,57,AF,05,
18825716,000000AA,false,Rx,0,8,9E,CC,01,00,34,0D,80,64,
18833009,000000C4,false,Rx,0,7,29,0A,FC,00,00,FF,F1,00,
18834885,000000A8,false,Rx,0,8,1F,BD,01,C0,01,F0,03,02,
18835300,000000A9,false,Rx,0,8,6E,1D,57,FF,14,57,DF,05,
18835523,000000AA,false,Rx,0,8,9F,CD,01,00,34,0D,80,64,
18842893,000000B6,false,Rx,0,5,0D,0D,80,00,C8,00,00,00,
18843120,000000C4,false,Rx,0,7,29,0A,FC,00,00,FF,F1,00,
18843351,000000CE,false,Rx,0,8,00,00,00,00,00,00,00,00,
18843575,0000019E,false,Rx,0,8,00,E0,AF,FC,FE,00,00,2C,
18843798,000001A0,false,Rx,0,8,00,80,00,F0,FF,FE,DF,F1,
18845414,000002B2,false,Rx,0,8,00,00,00,00,40,00,00,04,
18845419,000000A8,false,Rx,0,8,20,BE,01,C0,01,F0,03,02,
18845424,000000A9,false,Rx,0,8,6F,1E,57,FF,14,57,DF,05,
18845668,000000AA,false,Rx,0,8,A0,CE,01,00,34,0D,80,64,
18853066,000000C4,false,Rx,0,7,29,0A,FC,00,00,FF,F1,00,
18854939,000000A8,false,Rx,0,8,22,C0,01,C0,01,F0,03,02,
18855173,000000A9,false,Rx,0,8,A1,10,57,FF,14,57,1F,06,
18855397,000000AA,false,Rx,0,8,8E,C0,01,00,30,0D,80,64,
18855805,00000200,false,Rx,0,8,42,81,C0,00,00,00,00,00,
18856945,000001B4,false,Rx,0,8,00,D0,E2,F6,04,32,FE,95,
18862878,000000B6,false,Rx,0,5,0E,0E,80,00,C8,00,00,00,
18863111,000000C4,false,Rx,0,7,29,0A,FC,00,00,FF,F1,00,
18863349,000000CE,false,Rx,0,8,00,00,00,00,00,00,00,00,
18863573,0000019E,false,Rx,0,8,00,E0,AF,FC,FE,00,00,2C,
18863797,000001A0,false,Rx,0,8,00,80,00,50,00,FE,EF,61,
18865555,000002B2,false,Rx,0,8,00,00,00,00,40,00,00,04,
18865560,000000A8,false,Rx,0,8,23,C1,01,C0,01,F0,03,02,
18865565,000000A9,false,Rx,0,8,A2,11,57,FF,14,57,1F,06,
18865570,000000AA,false,Rx,0,8,8F,C1,01,00,30,0D,80,64,
18873091,000000C4,false,Rx,0,7,29,0A,FC,00,00,FF,F1,00,
18873096,00000194,false,Rx,0,4,E9,F8,00,F0,00,00,00,00,
18873327,000001D6,false,Rx,0,2,FF,F3,00,00,00,00,00,00,
18875026,000000A8,false,Rx,0,8,44,D2,01,D0,01,F0,03,02,
18875441,000000A9,false,Rx,0,8,A3,12,57,FF,14,57,1F,06,
18875664,000000AA,false,Rx,0,8,9C,D2,01,00,2C,0D,80,64,
18879972,0000031A,false,Rx,0,2,FD,FF,00,00,00,00,00,00,
18882946,000000B6,false,Rx,0,5,FF,00,80,00,C8,00,00,00,
18883180,000000C4,false,Rx,0,7,29,0A,FC,00,00,FF,F1,00,
18883404,000000CE,false,Rx,0,8,00,00,00,00,00,00,00,00,
18883812,0000019E,false,Rx,0,8,00,E0,AF,FC,FE,00,00,2C,
18884039,000001A0,false,Rx,0,8,00,80,00,70,FF,FE,0F,A0,
18885643,000002B2,false,Rx,0,8,00,00,00,00,40,00,00,04,
18885648,000000A8,false,Rx,0,8,05,B3,01,B0,01,F0,03,02,
18885653,000000A9,false,Rx,0,8,84,13,57,FF,14,57,FF,05,
18885895,000000AA,false,Rx,0,8,AD,D3,01,00,3C,0D,80,64,
18889466,00000130,false,Rx,0,5,45,43,21,8F,87,00,00,00,
18893006,000000C4,false,Rx,0,7,29,0A,FC,00,00,FF,F1,00,
18895076,000000A8,false,Rx,0,8,06,B4,01,B0,01,F0,03,02,
18895307,000000A9,false,Rx,0,8,75,14,57,EF,14,57,FF,05,
18895531,000000AA,false,Rx,0,8,8E,B4,01,00,3C,0D,80,64,
18901092,00000497,false,Rx,0,8,29,42,FF,FF,FF,FF,FF,FF,
18903149,000000B6,false,Rx,0,5,00,01,80,00,C8,00,00,00,
18903380,000000C4,false,Rx,0,7,29,0A,FC,00,00,FF,F1,00,
18903603,000000CE,false,Rx,0,8,00,00,00,00,00,00,00,00,
18903831,0000019E,false,Rx,0,8,00,E0,AF,FC,FE,00,00,2C,
18904056,000001A0,false,Rx,0,8,00,80,00,80,00,FE,1F,C0,
18905678,000002B2,false,Rx,0,8,00,00,00,00,40,00,00,04,
18905683,000000A8,false,Rx,0,8,27,C5,01,C0,01,F0,03,02,
18905689,000000A9,false,Rx,0,8,56,15,57,EF,14,57,DF,05,
18905694,000000AA,false,Rx,0,8,87,B5,01,00,34,0D,80,64,
18913187,000000C4,false,Rx,0,7,29,0A,FC,00,00,FF,F1,00,
18913192,000000C8,false,Rx,0,6,1D,0A,0C,00,00,2C,00,00,
18914697,00000310,false,Rx,0,7,64,F7,45,50,00,FD,21,00,
18915293,000000A8,false,Rx,0,8,28,C6,01,C0,01,F0,03,02,
18915517,000000A9,false,Rx,0,8,67,16,57,FF,14,57,DF,05,
18915925,000000AA,false,Rx,0,8,98,C6,01,00,34,0D,80,64,
18919337,000001D0,false,Rx,0,8,47,FF,64,C2,FB,EB,CD,A9,
18923038,000000B6,false,Rx,0,5,02,02,80,00,C8,00,00,00,
18923269,000000C4,false,Rx,0,7,29,0A,FC,00,00,FF,F1,00,
18923494,000000CE,false,Rx,0,8,00,00,00,00,00,00,00,00,
18923722,0000019E,false,Rx,0,8,00,E0,AF,FC,FE,00,00,2C,
18923946,000001A0,false,Rx,0,8,00,80,00,F0,FF,FE,2F,41,
18924182,000002B2,false,Rx,0,8,00,00,00,00,40,00,00,04,
18925882,000001A6,false,Rx,0,8,04,00,02,00,02,00,48,F4,
18925887,000000A8,false,Rx,0,8,39,C7,01,D0,01,F0,03,02,
18925893,000000A9,false,Rx,0,8,A8,17,57,FF,14,57,1F,06,
18925898,000000AA,false,Rx,0,8,91,C7,01,00,2C,0D,80,64,
18931328,000001B6,false,Rx,0,7,00,FC,30,04,46,A0,26,00,
18933041,000000C4,false,Rx,0,7,29,0A,FC,00,00,FF,F1,00,
18934915,000000A8,false,Rx,0,8,4A,D8,01,D0,01,F0,03,02,
18935146,000000A9,false,Rx,0,8,A9,18,57,FF,14,57,1F,06,
18935379,000000AA,false,Rx,0,8,A2,D8,01,00,2C,0D,80,64,
18942941,000000B6,false,Rx,0,5,03,03,80,00,C8,00,00,00,
18943172,000000C4,false,Rx,0,7,29,0A,FC,00,00,FF,F1,00,
18943397,000000CE,false,Rx,0,8,00,00,00,00,00,00,00,00,
18943620,0000019E,false,Rx,0,8,00,E0,AF,FC,FE,00,00,2C,
18943844,000001A0,false,Rx,0,8,00,80,00,30,00,FE,3F,90,
18944262,000002B2,false,Rx,0,8,00,00,00,00,40,00,00,04,
18945796,000000A8,false,Rx,0,8,0B,B9,01,B0,01,F0,03,02,
18945801,000000A9,false,Rx,0,8,7A,19,57,FF,14,57,EF,05,
18945806,000000AA,false,Rx,0,8,B3,D9,01,00,3C,0D,80,64,
18948544,000003B0,false,Rx,0,2,FD,FF,00,00,00,00,00,00,
18949320,0000021A,false,Rx,0,3,00,20,FC,00,00,00,00,00,
18953018,000000C4,false,Rx,0,7,29,0A,FC,00,00,FF,F1,00,
18956194,000000A8,false,Rx,0,8,FB,AA,01,B0,01,F0,03,02,
18956603,000000A9,false,Rx,0,8,EA,1A,57,EF,14,57,6F,05,
18956825,000000AA,false,Rx,0,8,98,BA,01,00,40,0D,80,64,
18957241,000001B4,false,Rx,0,8,00,D0,E2,F7,04,32,FE,96,
18963032,000000B6,false,Rx,0,5,04,04,80,00,C8,00,00,00,
18963263,000000C4,false,Rx,0,7,29,0A,FC,00,00,FF,F1,00,
18963486,000000CE,false,Rx,0,8,00,00,00,00,00,00,00,00,
18963713,0000019E,false,Rx,0,8,00,E0,AF,FC,FE,00,00,2C,
18963938,000001A0,false,Rx,0,8,00,80,00,E0,FF,FE,4F,51,
18964171,000002B2,false,Rx,0,8,00,00,00,00,40,00,00,04,
18965972,000000A8,false,Rx,0,8,FC,AB,01,B0,01,F0,03,02,
18965977,000000A9,false,Rx,0,8,EB,1B,57,EF,14,57,6F,05,
18965982,000000AA,false,Rx,0,8,99,BB,01,00,40,0D,80,64,
18973066,000000C4,false,Rx,0,7,29,0A,FC,00,00,FF,F1,00,
18973071,000001D6,false,Rx,0,2,FF,F3,00,00,00,00,00,00,
18974769,000000A8,false,Rx,0,8,ED,AC,01,A0,01,F0,03,02,
18974992,000000A9,false,Rx,0,8,FC,1C,57,EF,14,57,7F,05,
18975225,000000AA,false,Rx,0,8,9A,BC,01,00,40,0D,80,64,
18980026,0000031A,false,Rx,0,2,FD,FF,00,00,00,00,00,00,
18981173,000001B5,false,Rx,0,6,00,FF,07,00,0A,FF,00,00,
18983065,000000B6,false,Rx,0,5,05,05,80,00,C8,00,00,00,
18983317,000000C4,false,Rx,0,7,29,0A,FC,00,00,FF,F1,00,
18983552,000000CE,false,Rx,0,8,00,00,00,00,00,00,00,00,
18983776,0000019E,false,Rx,0,8,00,E0,AF,FC,FE,00,00,2C,
18984001,000001A0,false,Rx,0,8,00,80,00,10,00,FE,5F,90,
18984234,000002B2,false,Rx,0,8,00,00,00,00,40,00,00,04,
18984457,000004A9,false,Rx,0,8,00,42,FF,FF,FF,FF,FF,FF,
18986097,000000A8,false,Rx,0,8,EE,AD,01,A0,01,F0,03,02,
18986102,000000A9,false,Rx,0,8,FD,1D,57,EF,14,57,7F,05,
18986107,000000AA,false,Rx,0,8,9B,BD,01,00,40,0D,80,64,
18989488,00000130,false,Rx,0,5,45,43,21,8F,98,00,00,00,
18993011,000000C4,false,Rx,0,7,29,0A,FC,00,00,FF,F1,00,
18994733,000000A8,false,Rx,0,8,EF,AE,01,A0,01,F0,03,02,
18994972,000000A9,false,Rx,0,8,5F,1E,57,EF,14,57,DF,05,
18995217,000000AA,false,Rx,0,8,A0,BE,01,00,44,0D,80,64,
19002971,000000B6,false,Rx,0,5,06,06,80,00,C8,00,00,00,
19003203,000000C4,false,Rx,0,7,29,0A,FC,00,00,FF,F1,00,
19003427,000000CE,false,Rx,0,8,00,00,00,00,00,00,00,00,
19003834,0000019E,false,Rx,0,8,00,E0,AF,FC,FE,00,00,2C,
19004061,000001A0,false,Rx,0,8,00,80,00,50,00,00,60,D2,
19004292,000002B2,false,Rx,0,8,00,00,00,00,50,00,00,04,
19006091,000000A8,false,Rx,0,8,E1,A0,01,A0,01,F0,03,02,
19006096,000000A9,false,Rx,0,8,51,10,57,EF,14,57,DF,05,
19006101,000000AA,false,Rx,0,8,92,B0,01,00,44,0D,80,64,
19006106,00000335,false,Rx,0,8,00,8C,5C,4F,35,96,64,3D,
19012631,000001B6,false,Rx,0,7,00,FC,2F,04,46,A0,26,00,
19013037,000000C4,false,Rx,0,7,29,0A,FC,00,00,FF,F1,00,
19014911,000000A8,false,Rx,0,8,E2,A1,01,A0,01,F0,03,02,
19015140,000000A9,false,Rx,0,8,52,11,57,EF,14,57,DF,05,
19015371,000000AA,false,Rx,0,8,83,A1,01,00,44,0D,80,64,
19019633,000001D0,false,Rx,0,8,47,FF,64,C3,2D,EC,CD,A9,
19022977,000000B6,false,Rx,0,5,07,07,80,00,C8,00,00,00,
19023212,000000C4,false,Rx,0,7,29,0A,FC,00,00,FF,F1,00,
19023436,000000CE,false,Rx,0,8,00,00,00,00,00,00,00,00,
19023661,0000019E,false,Rx,0,8,00,E0,AF,FC,FE,00,00,2C,
19023885,000001A0,false,Rx,0,8,00,80,00,90,FF,FE,7F,31,
19024116,000002B2,false,Rx,0,8,00,00,00,00,40,00,00,04,
19024363,000001A6,false,Rx,0,8,04,00,02,00,02,00,D8,F5,
19026279,000000A8,false,Rx,0,8,E3,A2,01,A0,01,F0,03,02,
19026521,000000A9,false,Rx,0,8,53,12,57,EF,14,57,DF,05,
19026945,000000AA,false,Rx,0,8,84,A2,01,00,44,0D,80,64,
19032911,000000C4,false,Rx,0,7,29,0A,FC,00,00,FF,F1,00,
19034788,000000A8,false,Rx,0,8,E4,A3,01,A0,01,F0,03,02,
19035013,000000A9,false,Rx,0,8,74,13,57,EF,14,57,FF,05,
19035432,000000AA,false,Rx,0,8,81,A3,01,00,40,0D,80,64,
19042983,000000B6,false,Rx,0,5,08,08,80,00,C8,00,00,00,
19043218,000000C4,false,Rx,0,7,29,0A,FC,00,00,FF,F1,00,
19043442,000000CE,false,Rx,0,8,00,00,00,00,00,00,00,00,
19043670,0000019E,false,Rx,0,8,00,E0,AF,FC,FE,00,00,2C,
19043894,000001A0,false,Rx,0,8,00,80,00,50,00,FE,8F,00,
19044135,000002B2,false,Rx,0,8,00,00,00,00,40,00,00,04,
19046247,000000A8,false,Rx,0,8,16,B4,01,C0,01,F0,03,02,
19046252,000000A9,false,Rx,0,8,75,14,57,EF,14,57,FF,05,
19046257,000000AA,false,Rx,0,8,72,A4,01,00,30,0D,80,64,
19052965,000000C4,false,Rx,0,7,29,0A,FC,00,00,FF,F1,00,
19054840,000000A8,false,Rx,0,8,27,C5,01,C0,01,F0,03,02,
19055064,000000A9,false,Rx,0,8,86,15,57,FF,14,57,FF,05,
19055295,000000AA,false,Rx,0,8,93,C5,01,00,30,0D,80,64,
19055702,00000200,false,Rx,0,8,42,81,C0,00,00,00,00,00,
19056841,000001B4,false,Rx,0,8,00,D0,E2,F8,04,32,FE,97,
19062928,000000B6,false,Rx,0,5,09,09,80,00,C8,00,00,00,
19063153,000000C4,false,Rx,0,7,29,0A,FC,00,00,FF,F1,00,
19063385,000000CE,false,Rx,0,8,00,00,00,00,00,00,00,00,
19063608,0000019E,false,Rx,0,8,00,E0,BF,FC,FE,00,00,3C,
19063832,000001A0,false,Rx,0,8,00,80,00,F0,FF,FE,9F,B1,
19064062,000002B2,false,Rx,0,8,00,00,00,00,40,00,00,04,
19064656,000000A8,false,Rx,0,8,48,D6,01,D0,01,F0,03,02,
19066408,000000A9,false,Rx,0,8,C7,16,57,FF,14,57,3F,06,
19066413,000000AA,false,Rx,0,8,8C,C6,01,00,28,0D,80,64,
19073068,000000C4,false,Rx,0,7,29,0A,FC,00,00,FF,F1,00,
19073300,00000194,false,Rx,0,4,EA,F9,00,F0,00,00,00,00,
19073557,00000480,false,Rx,0,8,12,42,FD,FF,FF,FF,FF,FF,
19073562,000001D6,false,Rx,0,2,FF,F3,00,00,00,00,00,00,
19073785,000002A6,false,Rx,0,2,00,FC,00,00,00,00,00,00,
19075108,000000A8,false,Rx,0,8,49,D7,01,D0,01,F0,03,02,
19075340,000000A9,false,Rx,0,8,D8,17,57,0F,15,57,3F,06,
19075563,000000AA,false,Rx,0,8,9D,D7,01,00,28,0D,80,64,
19079995,0000031A,false,Rx,0,2,FD,FF,00,00,00,00,00,00,
19083196,000000B6,false,Rx,0,5,0A,0A,80,00,C8,00,00,00,
19083201,000000C4,false,Rx,0,7,29,0A,FC,00,00,FF,F1,00,
19083609,000000CE,false,Rx,0,8,00,00,00,00,00,00,00,00,
19083832,0000019E,false,Rx,0,8,00,E0,BF,FC,FE,00,00,3C,
19084058,000001A0,false,Rx,0,8,00,80,00,30,00,FE,AF,00,
19084284,000002B2,false,Rx,0,8,00,00,00,00,40,00,00,04,
19084874,000000A8,false,Rx,0,8,4A,D8,01,D0,01,F0,03,02,
19086511,000000A9,false,Rx,0,8,D9,18,57,0F,15,57,3F,06,
19086516,000000AA,false,Rx,0,8,9E,D8,01,00,28,0D,80,64,
19089359,00000130,false,Rx,0,5,45,43,21,8F,A9,00,00,00,
19090884,000001B6,false,Rx,0,7,00,FC,31,04,46,A0,26,00,
19093146,000000C4,false,Rx,0,7,29,0A,FC,00,00,FF,F1,00,
19094843,000000A8,false,Rx,0,8,4B,D9,01,D0,01,F0,03,02,
19095072,000000A9,false,Rx,0,8,DA,19,57,0F,15,57,3F,06,
19095302,000000AA,false,Rx,0,8,9F,D9,01,00,28,0D,80,64,
19103057,000000B6,false,Rx,0,5,0B,0B,80,00,C8,00,00,00,
19103287,000000C4,false,Rx,0,7,29,0A,FC,00,00,FF,F1,00,
19103512,000000CE,false,Rx,0,8,00,00,00,00,00,00,00,00,
19103736,0000019E,false,Rx,0,8,00,E0,BF,FC,FE,00,00,3C,
19103961,000001A0,false,Rx,0,8,00,80,00,C0,FF,FE,BF,A1,
19104194,000002B2,false,Rx,0,8,00,00,00,00,40,00,00,04,
19104988,000000A8,false,Rx,0,8,3C,CA,01,D0,01,F0,03,02,
19106657,000000A9,false,Rx,0,8,AB,1A,57,0F,15,57,0F,06,
19106662,000000AA,false,Rx,0,8,A4,DA,01,00,2C,0D,80,64,
19113008,000000C4,false,Rx,0,7,29,0A,FC,00,00,FF,F1,00,
19113242,000000C8,false,Rx,0,6,1D,0A,5C,00,00,6C,00,00,
19117138,000000A8,false,Rx,0,8,0D,BB,01,B0,01,F0,03,02,
19117370,000000A9,false,Rx,0,8,7C,1B,57,FF,14,57,EF,05,
19117594,000000AA,false,Rx,0,8,B1,DB,01,00,38,0D,80,64,
19120038,000001D0,false,Rx,0,8,47,FF,65,C2,5F,EC,CD,A9,
19122881,000000B6,false,Rx,0,5,0C,0C,80,00,C8,00,00,00,
19123108,000000C4,false,Rx,0,7,29,0A,FC,00,00,FF,F1,00,
19123339,000000CE,false,Rx,0,8,00,00,00,00,00,00,00,00,
19123563,0000019E,false,Rx,0,8,00,E0,BF,FC,FE,00,00,3C,
19123972,000001A0,false,Rx,0,8,00,80,00,30,00,FE,CF,21,
19124208,000002B2,false,Rx,0,8,00,00,00,00,40,00,00,04,
19124433,000001A6,false,Rx,0,8,04,00,02,00,02,00,68,F7,
19124658,00000374,false,Rx,0,5,00,00,00,00,FC,00,00,00,
19124880,000000A8,false,Rx,0,8,0E,BC,01,B0,01,F0,03,02,
19126775,000000A9,false,Rx,0,8,7D,1C,57,FF,14,57,EF,05,
19126780,000000AA,false,Rx,0,8,B2,DC,01,00,38,0D,80,64,
19132923,000000C4,false,Rx,0,7,29,0A,FC,00,00,FF,F1,00,
19134619,000000A8,false,Rx,0,8,FE,AD,01,B0,01,F0,03,02,
19135032,000000A9,false,Rx,0,8,6E,1D,57,EF,14,57,EF,05,
19135262,000000AA,false,Rx,0,8,97,BD,01,00,3C,0D,80,64,
19142849,000000B6,false,Rx,0,5,0D,0D,80,00,C8,00,00,00,
19143077,000000C4,false,Rx,0,7,29,0A,FC,00,00,FF,F1,00,
19143308,000000CE,false,Rx,0,8,00,00,00,00,00,00,00,00,
19143716,0000019E,false,Rx,0,8,00,E0,BF,FC,FE,00,00,3C,
19143939,000001A0,false,Rx,0,8,00,80,00,50,00,FE,DF,51,
19144171,000002B2,false,Rx,0,8,00,00,00,00,40,00,00,04,
19144940,000000A8,false,Rx,0,8,FF,AE,01,B0,01,F0,03,02,
19145173,000000A9,false,Rx,0,8,6F,1E,57,EF,14,57,EF,05,
19146767,000000AA,false,Rx,0,8,98,BE,01,00,3C,0D,80,64,
19152910,000000C4,false,Rx,0,7,29,0A,FC,00,00,FF,F1,00,
19154789,000000A8,false,Rx,0,8,22,C0,01,C0,01,F0,03,02,
19155013,000000A9,false,Rx,0,8,51,10,57,EF,14,57,DF,05,
19155248,000000AA,false,Rx,0,8,7E,B0,01,00,30,0D,80,64,
19157119,000001B4,false,Rx,0,8,00,D0,E2,F9,04,32,FE,98,
19162950,000000B6,false,Rx,0,5,0E,0E,80,00,C8,00,00,00,
19163182,000000C4,false,Rx,0,7,29,0A,FC,00,00,FF,F1,00,
19163407,000000CE,false,Rx,0,8,00,00,00,00,00,00,00,00,
19163630,0000019E,false,Rx,0,8,00,E0,BF,FC,FE,00,00,3C,
19163855,000001A0,false,Rx,0,8,00,80,00,C0,FF,FE,EF,D1,
19164080,000002B2,false,Rx,0,8,00,00,00,00,40,00,00,04,
19164856,000000A8,false,Rx,0,8,23,C1,01,C0,01,F0,03,02,
19165272,000000A9,false,Rx,0,8,52,11,57,EF,14,57,DF,05,
19166891,000000AA,false,Rx,0,8,7F,B1,01,00,30,0D,80,64,
19166896,00000492,false,Rx,0,8,17,42,FF,FF,FF,FF,FF,FF,
19172279,000001B6,false,Rx,0,7,00,FC,30,04,46,A0,26,00,
19173086,000000C4,false,Rx,0,7,29,0A,FC,00,00,FF,F1,00,
19173091,000001D6,false,Rx,0,2,FF,F3,00,00,00,00,00,00,
19174781,000000A8,false,Rx,0,8,24,C2,01,C0,01,F0,03,02,
19175196,000000A9,false,Rx,0,8,63,12,57,FF,14,57,DF,05,
19175421,000000AA,false,Rx,0,8,90,C2,01,00,30,0D,80,64,
19180072,0000031A,false,Rx,0,2,FD,FF,00,00,00,00,00,00,
19183046,000000B6,false,Rx,0,5,FF,00,80,00,C8,00,00,00,
19183284,000000C4,false,Rx,0,7,29,0A,FC,00,00,FF,F1,00,
19183510,000000CE,false,Rx,0,8,00,00,00,00,00,00,00,00,
19183735,0000019E,false,Rx,0,8,00,E0,BF,FC,FE,00,00,3C,
19183958,000001A0,false,Rx,0,8,00,80,00,50,00,FE,0F,80,
19184183,000002B2,false,Rx,0,8,00,00,00,00,40,00,00,04,
19186868,000000A8,false,Rx,0,8,25,C3,01,C0,01,F0,03,02,
19186873,000000A9,false,Rx,0,8,64,13,57,FF,14,57,DF,05,
19186878,000000AA,false,Rx,0,8,91,C3,01,00,30,0D,80,64,
19189690,00000130,false,Rx,0,5,45,43,21,8F,BA,00,00,00,
19193026,000000C4,false,Rx,0,7,29,0A,FC,00,00,FF,F1,00,
19194756,000000A8,false,Rx,0,8,E5,A4,01,A0,01,F0,03,02,
19195173,000000A9,false,Rx,0,8,45,14,57,EF,14,57,CF,05,
19195396,000000AA,false,Rx,0,8,82,A4,01,00,40,0D,80,64,
19203046,000000B6,false,Rx,0,5,00,01,80,00,C8,00,00,00,
19203276,000000C4,false,Rx,0,7,29,0A,FC,00,00,FF,F1,00,
19203500,000000CE,false,Rx,0,8,00,00,00,00,00,00,00,00,
19203724,0000019E,false,Rx,0,8,00,E0,BF,FC,FE,00,00,3C,
19204136,000001A0,false,Rx,0,8,00,80,00,B0,FF,FE,1F,F0,
19204362,000002B2,false,Rx,0,8,00,00,00,00,40,00,00,04,
19204766,000000A8,false,Rx,0,8,E6,A5,01,A0,01,F0,03,02,
19204990,000000A9,false,Rx,0,8,46,15,57,EF,14,57,CF,05,
19205225,000000AA,false,Rx,0,8,83,A5,01,00,40,0D,80,64,
19213116,000000C4,false,Rx,0,7,29,0A,FC,00,00,FF,F1,00,
19215012,000000A8,false,Rx,0,8,E7,A6,01,A0,01,F0,03,02,
19215246,000000A9,false,Rx,0,8,47,16,57,EF,14,57,CF,05,
19215471,000000AA,false,Rx,0,8,84,A6,01,00,40,0D,80,64,
19218076,000001D0,false,Rx,0,8,47,FF,65,C2,91,EC,CD,A9,
19223104,000000B6,false,Rx,0,5,02,02,80,00,C8,00,00,00,
19223109,000000C4,false,Rx,0,7,29,0A,FC,00,00,FF,F1,00,
19223525,000000CE,false,Rx,0,8,00,00,00,00,00,00,00,00,
19223748,0000019E,false,Rx,0,8,00,E0,BF,FC,FE,00,00,3C,
19223976,000001A0,false,Rx,0,8,00,80,00,50,00,FE,2F,A0,
19224210,000002B2,false,Rx,0,8,00,00,00,00,40,00,00,04,
19224435,000001A6,false,Rx,0,8,04,00,02,00,02,00,F8,F8,
19224840,000000A8,false,Rx,0,8,D8,97,01,A0,01,F0,03,02,
19225258,000000A9,false,Rx,0,8,28,17,57,EF,14,57,AF,05,
19225482,000000AA,false,Rx,0,8,89,A7,01,00,44,0D,80,64,
19233092,000000C4,false,Rx,0,7,29,0A,FC,00,00,FF,F1,00,
19234614,000000A8,false,Rx,0,8,D9,98,01,A0,01,F0,03,02,
19234837,000000A9,false,Rx,0,8,29,18,57,EF,14,57,AF,05,
19235254,000000AA,false,Rx,0,8,8A,A8,01,00,44,0D,80,64,
19242845,000000B6,false,Rx,0,5,03,03,80,00,C8,00,00,00,
19243074,000000C4,false,Rx,0,7,29,0A,FC,00,00,FF,F1,00,
19243490,000000CE,false,Rx,0,8,00,00,00,00,00,00,00,00,
19243713,0000019E,false,Rx,0,8,00,E0,BF,FC,FE,00,00,3C,
19243937,000001A0,false,Rx,0,8,00,80,00,90,FF,FE,3F,F0,
19244180,000002B2,false,Rx,0,8,00,00,00,00,40,00,00,04,
19244767,000000A8,false,Rx,0,8,CA,99,01,90,01,F0,03,02,
19244995,000000A9,false,Rx,0,8,C9,19,57,EF,14,57,4F,05,
19245231,000000AA,false,Rx,0,8,8F,A9,01,00,48,0D,80,64,
19250921,000001B6,false,Rx,0,7,00,FC,2F,04,46,A0,26,00,
19253005,000000C4,false,Rx,0,7,29,0A,FC,00,00,FF,F1,00,
19254718,000000A8,false,Rx,0,8,CB,9A,01,90,01,F0,03,02,
19254942,000000A9,false,Rx,0,8,BA,1A,57,DF,14,57,4F,05,
19255175,000000AA,false,Rx,0,8,80,9A,01,00,48,0D,80,64,
19255398,00000200,false,Rx,0,8,42,81,C0,00,00,00,00,00,
19256918,000001B4,false,Rx,0,8,00,D0,E2,FA,04,32,FE,99,
19261060,00000497,false,Rx,0,8,29,42,FF,FF,FF,FF,FF,FF,
19262932,000000B6,false,Rx,0,5,04,04,80,00,C8,00,00,00,
19263160,000000C4,false,Rx,0,7,29,0A,FC,00,00,FF,F1,00,
19263391,000000CE,false,Rx,0,8,00,00,00,00,00,00,00,00,
19263614,0000019E,false,Rx,0,8,00,E0,CF,FC,FE,00,00,4C,
19264023,000001A0,false,Rx,0,8,00,80,00,50,00,FE,4F,C0,
19264254,000002B2,false,Rx,0,8,00,00,00,00,40,00,00,04,
19264658,000000A8,false,Rx,0,8,EC,AB,01,A0,01,F0,03,02,
19264883,000000A9,false,Rx,0,8,EB,1B,57,DF,14,57,7F,05,
19265299,000000AA,false,Rx,0,8,71,9B,01,00,38,0D,80,64,
19272969,000000C4,false,Rx,0,7,29,0A,FC,00,00,FF,F1,00,
19273213,00000194,false,Rx,0,4,EB,FA,00,F0,00,00,00,00,
19273434,000001D6,false,Rx,0,2,FF,F3,00,00,00,00,00,00,
19275509,000000A8,false,Rx,0,8,2E,CC,01,C0,01,F0,03,02,
19275733,000000A9,false,Rx,0,8,6D,1C,57,EF,14,57,EF,05,
19275956,000000AA,false,Rx,0,8,86,BC,01,00,2C,0D,80,64,
19280088,0000031A,false,Rx,0,2,FD,FF,00,00,00,00,00,00,
19283060,000000B6,false,Rx,0,5,05,05,80,00,C8,00,00,00,
19283292,000000C4,false,Rx,0,7,29,0A,FC,00,00,FF,F1,00,
19283519,000000CE,false,Rx,0,8,00,00,00,00,00,00,00,00,
19283744,0000019E,false,Rx,0,8,00,E0,CF,FC,FE,00,00,4C,
19283968,000001A0,false,Rx,0,8,00,80,00,30,00,FE,5F,B0,
19284202,000002B2,false,Rx,0,8,00,00,00,00,40,00,00,04,
19284608,000000A8,false,Rx,0,8,2F,CD,01,C0,01,F0,03,02,
19284831,000000A9,false,Rx,0,8,6E,1D,57,EF,14,57,EF,05,
19285062,000000AA,false,Rx,0,8,87,BD,01,00,2C,0D,80,64,
19289445,00000130,false,Rx,0,5,45,43,21,8F,CB,00,00,00,
19293059,000000C4,false,Rx,0,7,29,0A,FC,00,00,FF,F1,00,
19294580,000000A8,false,Rx,0,8,20,BE,01,C0,01,F0,03,02,
19294989,000000A9,false,Rx,0,8,5F,1E,57,FF,14,57,CF,05,
19295222,000000AA,false,Rx,0,8,9C,CE,01,00,30,0D,80,64,
19303135,000000B6,false,Rx,0,5,06,06,80,00,C8,00,00,00,
19303365,000000C4,false,Rx,0,7,29,0A,FC,00,00,FF,F1,00,
19303588,000000CE,false,Rx,0,8,00,00,00,00,00,00,00,00,
19303812,0000019E,false,Rx,0,8,00,E0,CF,FC,FE,00,00,4C,
19304042,000001A0,false,Rx,0,8,00,80,00,E0,FF,FE,6F,71,
19304272,000002B2,false,Rx,0,8,00,00,00,00,40,00,00,04,
19304677,000000A8,false,Rx,0,8,12,B0,01,C0,01,F0,03,02,
19305086,000000A9,false,Rx,0,8,51,10,57,FF,14,57,CF,05,
19305320,000000AA,false,Rx,0,8,8E,C0,01,00,30,0D,80,64,
19312996,000000C4,false,Rx,0,7,29,0A,FC,00,00,FF,F1,00,
19313230,000000C8,false,Rx,0,6,1D,0A,AC,00,00,8C,00,00,
19314734,000000A8,false,Rx,0,8,03,B1,01,B0,01,F0,03,02,
19314956,000000A9,false,Rx,0,8,32,11,57,FF,14,57,AF,05,
19315189,000000AA,false,Rx,0,8,97,C1,01,00,38,0D,80,64,
19319117,000001D0,false,Rx,0,8,47,FF,66,C2,C3,EC,CD,A9,
19323020,000000B6,false,Rx,0,5,07,07,80,00,C8,00,00,00,
19323251,000000C4,false,Rx,0,7,29,0A,FC,00,00,FF,F1,00,
19323474,000000CE,false,Rx,0,8,00,00,00,00,00,00,00,00,
19323699,0000019E,false,Rx,0,8,00,E0,CF,FC,FE,00,00,4C,
19323926,000001A0,false,Rx,0,8,00,80,00,50,00,FE,7F,F0,
19324154,000002B2,false,Rx,0,8,00,00,00,00,40,00,00,04,
19324384,000001A6,false,Rx,0,8,04,00,02,00,02,00,88,FA,
19324790,000000A8,false,Rx,0,8,04,B2,01,B0,01,F0,03,02,
19325208,000000A9,false,Rx,0,8,33,12,57,FF,14,57,AF,05,
19325431,000000AA,false,Rx,0,8,98,C2,01,00,38,0D,80,64,
19332603,000001B6,false,Rx,0,7,00,FC,2F,04,46,A0,26,00,
19333007,000000C4,false,Rx,0,7,29,0A,FC,00,00,FF,F1,00,
19334704,000000A8,false,Rx,0,8,F4,A3,01,B0,01,F0,03,02,
19334929,000000A9,false,Rx,0,8,24,13,57,EF,14,57,AF,05,
19335156,000000AA,false,Rx,0,8,89,B3,01,00,38,0D,80,64,
19342892,000000B6,false,Rx,0,5,08,08,80,00,C8,00,00,00,
19343117,000000C4,false,Rx,0,7,29,0A,FC,00,00,FF,F1,00,
19343348,000000CE,false,Rx,0,8,00,00,00,00,00,00,00,00,
19343572,0000019E,false,Rx,0,8,00,E0,CF,FC,FE,00,00,4C,
19343980,000001A0,false,Rx,0,8,00,80,00,C0,FF,FE,8F,71,
19344214,000002B2,false,Rx,0,8,00,00,00,00,40,00,00,04,
19344438,000004A9,false,Rx,0,8,00,42,FF,FF,FF,FF,FF,FF,
19346125,000000A8,false,Rx,0,8,F5,A4,01,B0,01,F0,03,02,
19347749,000000A9,false,Rx,0,8,25,14,57,EF,14,57,AF,05,
19347754,000000AA,false,Rx,0,8,8A,B4,01,00,38,0D,80,64,
19353036,000000C4,false,Rx,0,7,29,0A,FC,00,00,FF,F1,00,
19354560,000000A8,false,Rx,0,8,E6,A5,01,A0,01,F0,03,02,
19354785,000000A9,false,Rx,0,8,66,15,57,EF,14,57,EF,05,
19355200,000000AA,false,Rx,0,8,8B,B5,01,00,38,0D,80,64,
19357266,000001B4,false,Rx,0,8,00,D0,E2,FB,04,32,FE,9A,
19362889,000000B6,false,Rx,0,5,09,09,80,00,C8,00,00,00,
19363115,000000C4,false,Rx,0,7,29,0A,FC,00,00,FF,F1,00,
19363344,000000CE,false,Rx,0,8,00,00,00,00,00,00,00,00,
19363568,0000019E,false,Rx,0,8,00,E0,CF,FC,FE,00,00,4C,
19363976,000001A0,false,Rx,0,8,00,80,00,50,00,FA,9F,0D,
19364208,000002B2,false,Rx,0,8,00,00,00,00,30,00,00,04,
19364614,000000A8,false,Rx,0,8,D7,96,01,A0,01,F0,03,02,
19364838,000000A9,false,Rx,0,8,57,16,57,EF,14,57,DF,05,
19365063,000000AA,false,Rx,0,8,94,B6,01,00,40,0D,80,64,
19372989,000000C4,false,Rx,0,7,29,0A,FC,00,00,FF,F1,00,
19373223,000001D6,false,Rx,0,2,FF,F3,00,00,00,00,00,00,
19374728,000000A8,false,Rx,0,8,D8,97,01,A0,01,F0,03,02,
19374951,000000A9,false,Rx,0,8,58,17,57,EF,14,57,DF,05,
19375187,000000AA,false,Rx,0,8,85,A7,01,00,40,0D,80,64,
19381273,0000031A,false,Rx,0,2,FD,FF,00,00,00,00,00,00,
19382959,000000B6,false,Rx,0,5,0A,0A,80,00,C8,00,00,00,
19383191,000000C4,false,Rx,0,7,29,0A,FC,00,00,FF,F1,00,
19383599,000000CE,false,Rx,0,8,00,00,00,00,00,00,00,00,
19383823,0000019E,false,Rx,0,8,00,E0,CF,FC,FE,00,00,4C,
19384047,000001A0,false,Rx,0,8,00,80,00,90,FF,00,A0,53,
19384282,000002B2,false,Rx,0,8,00,00,00,00,50,00,00,04,
19384686,000000A8,false,Rx,0,8,E9,A8,01,A0,01,F0,03,02,
19385095,000000A9,false,Rx,0,8,F8,18,57,EF,14,57,7F,05,
19385326,000000AA,false,Rx,0,8,82,A8,01,00,3C,0D,80,64,
19389314,00000130,false,Rx,0,5,45,43,21,8F,DC,00,00,00,
19393068,000000C4,false,Rx,0,7,29,0A,FC,00,00,FF,F1,00,
19394765,000000A8,false,Rx,0,8,EA,A9,01,A0,01,F0,03,02,
19395182,000000A9,false,Rx,0,8,F9,19,57,EF,14,57,7F,05,
19395405,000000AA,false,Rx,0,8,83,A9,01,00,3C,0D,80,64,
19402949,000000B6,false,Rx,0,5,0B,0B,80,00,C8,00,00,00,
19403181,000000C4,false,Rx,0,7,29,0A,FC,00,00,FF,F1,00,
19403589,000000CE,false,Rx,0,8,00,00,00,00,00,00,00,00,
19403812,0000019E,false,Rx,0,8,00,E0,CF,FC,FE,00,00,4C,
19404038,000001A0,false,Rx,0,8,00,80,00,50,00,FE,BF,31,
19404269,000002B2,false,Rx,0,8,00,00,00,00,40,00,00,04,
19404857,000000A8,false,Rx,0,8,FB,AA,01,B0,01,F0,03,02,
19405082,000000A9,false,Rx,0,8,1B,1A,57,EF,14,57,9F,05,
19405314,000000AA,false,Rx,0,8,7C,AA,01,00,34,0D,80,64,
19410955,000001B6,false,Rx,0,7,00,FC,2F,04,46,A0,26,00,
19413035,000000C4,false,Rx,0,7,29,0A,FC,00,00,FF,F1,00,
19416574,000000A8,false,Rx,0,8,FC,AB,01,B0,01,F0,03,02,
19416799,000000A9,false,Rx,0,8,2C,1B,57,FF,14,57,9F,05,
19417024,000000AA,false,Rx,0,8,8D,BB,01,00,34,0D,80,64,
19419268,000001D0,false,Rx,0,8,47,FF,66,C2,F5,EC,CD,A9,
19422977,000000B6,false,Rx,0,5,0C,0C,80,00,C8,00,00,00,
19423214,000000C4,false,Rx,0,7,29,0A,FC,00,00,FF,F1,00,
19423438,000000CE,false,Rx,0,8,00,00,00,00,00,00,00,00,
19423661,0000019E,false,Rx,0,8,00,E0,CF,FC,FE,00,00,4C,
19423885,000001A0,false,Rx,0,8,00,80,00,10,00,FE,CF,00,
19424111,000002B2,false,Rx,0,8,00,00,00,00,40,00,00,04,
19424342,000001A6,false,Rx,0,8,04,00,02,00,02,00,18,FC,
19424566,000000A8,false,Rx,0,8,FD,AC,01,B0,01,F0,03,02,
19424790,000000A9,false,Rx,0,8,9D,1C,57,FF,14,57,0F,06,
19425208,000000AA,false,Rx,0,8,8E,BC,01,00,34,0D,80,64,
19432945,000000C4,false,Rx,0,7,29,0A,FC,00,00,FF,F1,00,
19433359,00000480,false,Rx,0,8,12,42,FD,FF,FF,FF,FF,FF,
19435978,000000A8,false,Rx,0,8,2F,CD,01,C0,01,F0,03,02,
19435983,000000A9,false,Rx,0,8,6E,1D,57,FF,14,57,DF,05,
19436227,000000AA,false,Rx,0,8,83,BD,01,00,28,0D,80,64,
19443061,000000B6,false,Rx,0,5,0D,0D,80,00,C8,00,00,00,
19443293,000000C4,false,Rx,0,7,29,0A,FC,00,00,FF,F1,00,
19443515,000000CE,false,Rx,0,8,00,00,00,00,00,00,00,00,
19443743,0000019E,false,Rx,0,8,00,E0,CF,FC,FE,00,00,4C,
19443975,000001A0,false,Rx,0,8,00,80,00,30,00,FE,DF,31,
19444226,000002B2,false,Rx,0,8,00,00,00,00,40,00,00,04,
19444813,000000A8,false,Rx,0,8,30,CE,01,C0,01,F0,03,02,
19445041,000000A9,false,Rx,0,8,6F,1E,57,FF,14,57,DF,05,
19445272,000000AA,false,Rx,0,8,84,BE,01,00,28,0D,80,64,
19452994,000000C4,false,Rx,0,7,29,0A,FC,00,00,FF,F1,00,
19454690,000000A8,false,Rx,0,8,22,C0,01,C0,01,F0,03,02,
19455098,000000A9,false,Rx,0,8,61,10,57,0F,15,57,CF,05,
19455332,000000AA,false,Rx,0,8,8A,C0,01,00,2C,0D,80,64,
19455556,00000200,false,Rx,0,8,42,81,C0,00,00,00,00,00,
19456880,000001B4,false,Rx,0,8,00,D0,E2,FC,04,32,FE,9B,
19463015,000000B6,false,Rx,0,5,0E,0E,80,00,C8,00,00,00,
19463251,000000C4,false,Rx,0,7,29,0A,FC,00,00,FF,F1,00,
19463475,000000CE,false,Rx,0,8,00,00,00,00,00,00,00,00,
19463699,0000019E,false,Rx,0,8,00,E0,CF,FC,FE,00,00,4C,
19463923,000001A0,false,Rx,0,8,00,80,00,10,00,FE,EF,21,
19464150,000002B2,false,Rx,0,8,00,00,00,00,40,00,00,04,
19464744,000000A8,false,Rx,0,8,23,C1,01,C0,01,F0,03,02,
19464967,000000A9,false,Rx,0,8,62,11,57,0F,15,57,CF,05,
19465385,000000AA,false,Rx,0,8,8B,C1,01,00,2C,0D,80,64,
19473030,000000C4,false,Rx,0,7,29,0A,FC,00,00,FF,F1,00,
19473295,00000194,false,Rx,0,4,EC,FB,00,F0,00,00,00,00,
19473300,000001D6,false,Rx,0,2,FF,F3,00,00,00,00,00,00,
19474623,000000A8,false,Rx,0,8,04,B2,01,B0,01,F0,03,02,
19475035,000000A9,false,Rx,0,8,33,12,57,FF,14,57,AF,05,
19475261,000000AA,false,Rx,0,8,94,C2,01,00,34,0D,80,64,
19480117,0000031A,false,Rx,0,2,FD,FF,00,00,00,00,00,00,
19483094,000000B6,false,Rx,0,5,FF,00,80,00,C8,00,00,00,
19483328,000000C4,false,Rx,0,7,29,0A,FC,00,00,FF,F1,00,
19483552,000000CE,false,Rx,0,8,00,00,00,00,00,00,00,00,
19483776,0000019E,false,Rx,0,8,00,E0,DF,FC,FE,00,00,5C,
19484001,000001A0,false,Rx,0,8,00,80,00,E0,FF,FE,0F,11,
19484226,000002B2,false,Rx,0,8,00,00,00,00,40,00,00,04,
19484825,000000A8,false,Rx,0,8,05,B3,01,B0,01,F0,03,02,
19485053,000000A9,false,Rx,0,8,34,13,57,FF,14,57,AF,05,
19485279,000000AA,false,Rx,0,8,95,C3,01,00,34,0D,80,64,
19489461,00000130,false,Rx,0,5,45,43,21,8F,ED,00,00,00,
19492106,000001B6,false,Rx,0,7,00,FC,2F,04,46,A0,26,00,
19493065,000000C4,false,Rx,0,7,29,0A,FC,00,00,FF,F1,00,
19494765,000000A8,false,Rx,0,8,E5,A4,01,A0,01,F0,03,02,
19494990,000000A9,false,Rx,0,8,35,14,57,FF,14,57,AF,05,
19495223,000000AA,false,Rx,0,8,8A,B4,01,00,38,0D,80,64,
19503135,000000B6,false,Rx,0,5,00,01,80,00,C8,00,00,00,
19503366,000000C4,false,Rx,0,7,29,0A,FC,00,00,FF,F1,00,
19503594,000000CE,false,Rx,0,8,00,00,00,00,00,00,00,00,
19503818,0000019E,false,Rx,0,8,00,E0,DF,FC,FE,00,00,5C,
19504044,000001A0,false,Rx,0,8,00,80,00,50,00,FE,1F,90,
19504270,000002B2,false,Rx,0,8,00,00,00,00,40,00,00,04,
19505775,000000A8,false,Rx,0,8,E6,A5,01,A0,01,F0,03,02,
19506002,000000A9,false,Rx,0,8,36,15,57,FF,14,57,AF,05,
19506236,000000AA,false,Rx,0,8,8B,B5,01,00,38,0D,80,64,
19513020,000000C4,false,Rx,0,7,29,0A,FC,00,00,FF,F1,00,
19513251,000000C8,false,Rx,0,6,1D,0A,0C,00,00,9C,00,00,
19514592,000000A8,false,Rx,0,8,E7,A6,01,A0,01,F0,03,02,
19514816,000000A9,false,Rx,0,8,17,16,57,EF,14,57,9F,05,
19515041,000000AA,false,Rx,0,8,80,A6,01,00,3C,0D,80,64,
19518567,000001D0,false,Rx,0,8,47,FF,67,C2,27,ED,CD,A9,
19523067,000000B6,false,Rx,0,5,02,02,80,00,C8,00,00,00,
19523072,000000C4,false,Rx,0,7,29,0A,FC,00,00,FF,F1,00,
19523487,000000CE,false,Rx,0,8,00,00,00,00,00,00,00,00,
19523710,0000019E,false,Rx,0,8,00,E0,DF,FC,FE,00,00,5C,
19523938,000001A0,false,Rx,0,8,00,80,00,90,FF,FE,2F,E0,
19524173,000002B2,false,Rx,0,8,00,00,00,00,40,00,00,04,
19524397,000001A6,false,Rx,0,8,04,00,02,00,02,00,A8,FD,
19524622,000000A8,false,Rx,0,8,09,B7,01,B0,01,F0,03,02,
19524845,000000A9,false,Rx,0,8,08,17,57,EF,14,57,8F,05,
19525074,000000AA,false,Rx,0,8,79,A7,01,00,34,0D,80,64,
19525489,00000492,false,Rx,0,8,17,42,FF,FF,FF,FF,FF,FF,
19533011,000000C4,false,Rx,0,7,29,0A,FC,00,00,FF,F1,00,
19534705,000000A8,false,Rx,0,8,0A,B8,01,B0,01,F0,03,02,
19534933,000000A9,false,Rx,0,8,19,18,57,FF,14,57,8F,05,
19535160,000000AA,false,Rx,0,8,8A,B8,01,00,34,0D,80,64,
19542892,000000B6,false,Rx,0,5,03,03,80,00,C8,00,00,00,
19543119,000000C4,false,Rx,0,7,29,0A,FC,00,00,FF,F1,00,
19543348,000000CE,false,Rx,0,8,00,00,00,00,00,00,00,00,
19543572,0000019E,false,Rx,0,8,00,E0,DF,FC,FE,00,00,5C,
19543981,000001A0,false,Rx,0,8,00,80,00,60,00,FE,3F,C0,
19544215,000002B2,false,Rx,0,8,00,00,00,00,40,00,00,04,
19544439,000000A8,false,Rx,0,8,EA,A9,01,A0,01,F0,03,02,
19544663,000000A9,false,Rx,0,8,3A,19,57,FF,14,57,AF,05,
19545071,000000AA,false,Rx,0,8,93,B9,01,00,3C,0D,80,64,
19552977,000000C4,false,Rx,0,7,29,0A,FC,00,00,FF,F1,00,
19554486,000000A8,false,Rx,0,8,EB,AA,01,A0,01,F0,03,02,
19554895,000000A9,false,Rx,0,8,2B,1A,57,EF,14,57,AF,05,
19555120,000000AA,false,Rx,0,8,84,AA,01,00,3C,0D,80,64,
19557185,000001B4,false,Rx,0,8,00,D0,E2,FD,04,32,FE,9C,
19562905,000000B6,false,Rx,0,5,04,04,80,00,C8,00,00,00,
19563130,000000C4,false,Rx,0,7,29,0A,FC,00,00,FF,F1,00,
19563361,000000CE,false,Rx,0,8,00,00,00,00,00,00,00,00,
19563585,0000019E,false,Rx,0,8,00,E0,DF,FC,FE,00,00,5C,
19563809,000001A0,false,Rx,0,8,00,80,00,F0,FF,FE,4F,61,
19564227,000002B2,false,Rx,0,8,00,00,00,00,40,00,00,04,
19564812,000000A8,false,Rx,0,8,CC,9B,01,90,01,F0,03,02,
19565042,000000A9,false,Rx,0,8,6C,1B,57,EF,14,57,EF,05,
19565273,000000AA,false,Rx,0,8,8D,AB,01,00,44,0D,80,64,
19571091,000001B6,false,Rx,0,7,00,FC,2F,04,46,A0,26,00,
19572986,000000C4,false,Rx,0,7,29,0A,FC,00,00,FF,F1,00,
19573221,000001D6,false,Rx,0,2,FF,F3,00,00,00,00,00,00,
19575824,000000A8,false,Rx,0,8,CD,9C,01,90,01,F0,03,02,
19576050,000000A9,false,Rx,0,8,6D,1C,57,EF,14,57,EF,05,
19576281,000000AA,false,Rx,0,8,7E,9C,01,00,44,0D,80,64,
19580230,0000031A,false,Rx,0,2,FD,FF,00,00,00,00,00,00,
19583012,000000B6,false,Rx,0,5,05,05,80,00,C8,00,00,00,
19583245,000000C4,false,Rx,0,7,29,0A,FC,00,00,FF,F1,00,
19583469,000000CE,false,Rx,0,8,00,00,00,00,00,00,00,00,
19583693,0000019E,false,Rx,0,8,00,E0,DF,FC,FE,00,00,5C,
19583917,000001A0,false,Rx,0,8,00,80,00,30,00,FE,5F,B0,
19584146,000002B2,false,Rx,0,8,00,00,00,00,40,00,00,04,
19584745,000000A8,false,Rx,0,8,CE,9D,01,90,01,F0,03,02,
19584969,000000A9,false,Rx,0,8,2E,1D,57,EF,14,57,AF,05,
19585203,000000AA,false,Rx,0,8,7F,9D,01,00,44,0D,80,64,
19589379,00000130,false,Rx,0,5,45,43,21,8F,FE,00,00,00,
19593130,000000C4,false,Rx,0,7,29,0A,FC,00,00,FF,F1,00,
19594654,000000A8,false,Rx,0,8,CF,9E,01,90,01,F0,03,02,
19594878,000000A9,false,Rx,0,8,0F,1E,57,EF,14,57,8F,05,
19595108,000000AA,false,Rx,0,8,7C,9E,01,00,40,0D,80,64,
19603041,000000B6,false,Rx,0,5,06,06,80,00,C8,00,00,00,
19603267,000000C4,false,Rx,0,7,29,0A,FC,00,00,FF,F1,00,
19603491,000000CE,false,Rx,0,8,00,00,00,00,00,00,00,00,
19603716,0000019E,false,Rx,0,8,00,E0,DF,FC,FE,00,00,5C,
19603939,000001A0,false,Rx,0,8,00,80,00,E0,FF,FE,6F,71,
19604172,000002B2,false,Rx,0,8,00,00,00,00,40,00,00,04,
19604578,000000A8,false,Rx,0,8,C1,90,01,90,01,F0,03,02,
19605173,000000A9,false,Rx,0,8,00,10,57,EF,14,57,8F,05,
19605401,000000AA,false,Rx,0,8,6E,90,01,00,40,0D,80,64,
19613108,000000C4,false,Rx,0,7,29,0A,FC,00,00,FF,F1,00,
19614433,000000A8,false,Rx,0,8,E2,A1,01,A0,01,F0,03,02,
19614658,000000A9,false,Rx,0,8,42,11,57,EF,14,57,CF,05,
19614881,000000AA,false,Rx,0,8,63,91,01,00,34,0D,80,64,
19619711,000001D0,false,Rx,0,8,47,FF,67,C2,59,ED,CD,A9,
19621035,00000497,false,Rx,0,8,29,42,FF,FF,FF,FF,FF,FF,
19622907,000000B6,false,Rx,0,5,07,07,80,00,C8,00,00,00,
19623133,000000C4,false,Rx,0,7,29,0A,FC,00,00,FF,F1,00,
19623364,000000CE,false,Rx,0,8,00,00,00,00,00,00,00,00,
19623772,0000019E,false,Rx,0,8,00,E0,DF,FC,FE,00,00,5C,
19623995,000001A0,false,Rx,0,8,00,80,00,E0,FF,00,70,73,
19624231,000002B2,false,Rx,0,8,00,00,00,00,50,00,00,04,
19624459,000001A6,false,Rx,0,8,04,00,02,00,02,00,38,FF,
19624683,000000A8,false,Rx,0,8,E3,A2,01,A0,01,F0,03,02,
19624907,000000A9,false,Rx,0,8,43,12,57,EF,14,57,CF,05,
19625132,000000AA,false,Rx,0,8,64,92,01,00,34,0D,80,64,
19633010,000000C4,false,Rx,0,7,29,0A,FC,00,00,FF,F1,00,
19634524,000000A8,false,Rx,0,8,05,B3,01,B0,01,F0,03,02,
19634752,000000A9,false,Rx,0,8,74,13,57,FF,14,57,EF,05,
19634976,000000AA,false,Rx,0,8,6D,A3,01,00,2C,0D,80,64,
19642915,000000B6,false,Rx,0,5,08,08,80,00,C8,00,00,00,
19643141,000000C4,false,Rx,0,7,29,0A,FC,00,00,FF,F1,00,
19643372,000000CE,false,Rx,0,8,00,00,00,00,00,00,00,00,
19643595,0000019E,false,Rx,0,8,00,E0,DF,FC,FE,00,00,5C,
19643820,000001A0,false,Rx,0,8,00,80,00,60,00,FE,8F,11,
19644247,000002B2,false,Rx,0,8,00,00,00,00,40,00,00,04,
19644655,000000A8,false,Rx,0,8,06,B4,01,B0,01,F0,03,02,
19644878,000000A9,false,Rx,0,8,75,14,57,FF,14,57,EF,05,
19645103,000000AA,false,Rx,0,8,6E,A4,01,00,2C,0D,80,64,
19651846,000001B6,false,Rx,0,7,00,FC,2F,04,46,A0,26,00,
19652989,000000C4,false,Rx,0,7,29,0A,FC,00,00,FF,F1,00,
19654536,000000A8,false,Rx,0,8,07,B5,01,B0,01,F0,03,02,
19654774,000000A9,false,Rx,0,8,76,15,57,FF,14,57,EF,05,
19655027,000000AA,false,Rx,0,8,7F,B5,01,00,2C,0D,80,64,
19655259,00000200,false,Rx,0,8,42,81,C0,00,00,00,00,00,
19658233,000001B4,false,Rx,0,8,00,D0,E2,FE,04,32,FE,9D,
19663031,000000B6,false,Rx,0,5,09,09,80,00,C8,00,00,00,
19663262,000000C4,false,Rx,0,7,29,0A,FC,00,00,FF,F1,00,
19663485,000000CE,false,Rx,0,8,00,00,00,00,00,00,00,00,
19663713,0000019E,false,Rx,0,8,00,E0,DF,FC,FE,00,00,5C,
19663940,000001A0,false,Rx,0,8,00,80,00,B0,FF,FE,9F,71,
19664173,000002B2,false,Rx,0,8,00,00,00,00,40,00,00,04,
19665981,000000A8,false,Rx,0,8,08,B6,01,B0,01,F0,03,02,
19666214,000000A9,false,Rx,0,8,57,16,57,FF,14,57,CF,05,
19666438,000000AA,false,Rx,0,8,84,B6,01,00,30,0D,80,64,
19672295,000001B5,false,Rx,0,6,00,FF,06,00,0A,FF,00,00,
19673069,000000C4,false,Rx,0,7,29,0A,FC,00,00,FF,F1,00,
19673336,00000194,false,Rx,0,4,ED,FC,00,F0,00,00,00,00,
19673341,000001D6,false,Rx,0,2,FF,F3,00,00,00,00,00,00,
19674482,000000A8,false,Rx,0,8,09,B7,01,B0,01,F0,03,02,
19674705,000000A9,false,Rx,0,8,58,17,57,FF,14,57,CF,05,
19674930,000000AA,false,Rx,0,8,85,B7,01,00,30,0D,80,64,
19680108,0000031A,false,Rx,0,2,FD,FF,00,00,00,00,00,00,
19683075,000000B6,false,Rx,0,5,0A,0A,80,00,C8,00,00,00,
19683306,000000C4,false,Rx,0,7,29,0A,FC,00,00,FF,F1,00,
19683533,000000CE,false,Rx,0,8,00,00,00,00,00,00,00,00,
19683758,0000019E,false,Rx,0,8,00,E0,EF,FC,FE,00,00,6C,
19683982,000001A0,false,Rx,0,8,00,80,00,80,00,FE,AF,51,
19684214,000002B2,false,Rx,0,8,00,00,00,00,40,00,00,04,
19684438,000000A8,false,Rx,0,8,0A,B8,01,B0,01,F0,03,02,
19684661,000000A9,false,Rx,0,8,49,18,57,FF,14,57,BF,05,
19685069,000000AA,false,Rx,0,8,86,B8,01,00,30,0D,80,64,
19689448,00000130,false,Rx,0,5,45,43,21,8F,00,00,00,00,
19693059,000000C4,false,Rx,0,7,29,0A,FC,00,00,FF,F1,00,
19694577,000000A8,false,Rx,0,8,0B,B9,01,B0,01,F0,03,02,
19694983,000000A9,false,Rx,0,8,4A,19,57,FF,14,57,BF,05,
19695222,000000AA,false,Rx,0,8,87,B9,01,00,30,0D,80,64,
19703135,000000B6,false,Rx,0,5,0B,0B,80,00,C8,00,00,00,
19703366,000000C4,false,Rx,0,7,29,0A,FC,00,00,FF,F1,00,
19703589,000000CE,false,Rx,0,8,00,00,00,00,00,00,00,00,
19703817,0000019E,false,Rx,0,8,00,E0,EF,FC,FE,00,00,6C,
19704042,000001A0,false,Rx,0,8,00,80,00,E0,FF,FE,BF,C1,
19704272,000002B2,false,Rx,0,8,00,00,00,00,40,00,00,04,
19704496,000000A8,false,Rx,0,8,0C,BA,01,B0,01,F0,03,02,
19704719,000004A9,false,Rx,0,8,00,42,FF,FF,FF,FF,FF,FF,
19704943,000000A9,false,Rx,0,8,6B,1A,57,FF,14,57,DF,05,
19705177,000000AA,false,Rx,0,8,88,BA,01,00,30,0D,80,64,
19713056,000000C4,false,Rx,0,7,29,0A,FC,00,00,FF,F1,00,
19713282,000000C8,false,Rx,0,6,1D,0A,5C,00,00,AC,00,00,
19714976,000000A8,false,Rx,0,8,0D,BB,01,B0,01,F0,03,02,
19715208,000000A9,false,Rx,0,8,6C,1B,57,FF,14,57,DF,05,
19715617,000000AA,false,Rx,0,8,99,CB,01,00,30,0D,80,64,
19718974,000001D0,false,Rx,0,8,47,FF,68,C2,8B,ED,CD,A9,
19723046,000000B6,false,Rx,0,5,0C,0C,80,00,C8,00,00,00,
19723276,000000C4,false,Rx,0,7,29,0A,FC,00,00,FF,F1,00,
19723504,000000CE,false,Rx,0,8,00,00,00,00,00,00,00,00,
19723729,0000019E,false,Rx,0,8,00,E0,EF,FC,FE,00,00,6C,
19723953,000001A0,false,Rx,0,8,00,80,00,50,00,FE,CF,41,
19724187,000002B2,false,Rx,0,8,00,00,00,00,40,00,00,04,
19724411,000001A6,false,Rx,0,8,04,00,02,00,02,00,C8,F0,
19724636,000000A8,false,Rx,0,8,2E,CC,01,C0,01,F0,03,02,
19724859,000000A9,false,Rx,0,8,4D,1C,57,FF,14,57,BF,05,
19725278,000000AA,false,Rx,0,8,96,CC,01,00,2C,0D,80,64,
19730731,000001B6,false,Rx,0,7,00,FC,2F,04,46,A0,26,00,
19733037,000000C4,false,Rx,0,7,29,0A,FC,00,00,FF,F1,00,
19735839,000000A8,false,Rx,0,8,2F,CD,01,C0,01,F0,03,02,
19736078,000000A9,false,Rx,0,8,5E,1D,57,0F,15,57,BF,05,
19736310,000000AA,false,Rx,0,8,97,CD,01,00,2C,0D,80,64,
19742939,000000B6,false,Rx,0,5,0D,0D,80,00,C8,00,00,00,
19743173,000000C4,false,Rx,0,7,29,0A,FC,00,00,FF,F1,00,
19743396,000000CE,false,Rx,0,8,00,00,00,00,00,00,00,00,
19743620,0000019E,false,Rx,0,8,00,E0,EF,FC,FE,00,00,6C,
19744032,000001A0,false,Rx,0,8,00,80,00,C0,FF,FE,DF,C1,
19744262,000002B2,false,Rx,0,8,00,00,00,00,40,00,00,04,
19744486,000000A8,false,Rx,0,8,20,BE,01,C0,01,F0,03,02,
19744714,000000A9,false,Rx,0,8,6F,1E,57,0F,15,57,CF,05,
19744938,000000AA,false,Rx,0,8,9C,CE,01,00,30,0D,80,64,
19753020,000000C4,false,Rx,0,7,29,0A,FC,00,00,FF,F1,00,
19755835,000000A8,false,Rx,0,8,01,B0,01,B0,01,F0,03,02,
19756060,000000A9,false,Rx,0,8,61,10,57,FF,14,57,DF,05,
19756292,000000AA,false,Rx,0,8,96,C0,01,00,38,0D,80,64,
19757074,000001B4,false,Rx,0,8,00,D0,E2,F0,04,32,FE,8F,
19762990,000000B6,false,Rx,0,5,0E,0E,80,00,C8,00,00,00,
19763224,000000C4,false,Rx,0,7,29,0A,FC,00,00,FF,F1,00,
19763448,000000CE,false,Rx,0,8,00,00,00,00,00,00,00,00,
19763673,0000019E,false,Rx,0,8,00,E0,EF,FC,FE,00,00,6C,
19763896,000001A0,false,Rx,0,8,00,80,00,30,00,FE,EF,41,
19764122,000002B2,false,Rx,0,8,00,00,00,00,40,00,00,04,
19764353,000000A8,false,Rx,0,8,03,B1,01,B0,01,F0,03,02,
19764761,000000A9,false,Rx,0,8,62,11,57,FF,14,57,DF,05,
19764984,000000AA,false,Rx,0,8,97,C1,01,00,38,0D,80,64,
19772438,000001B5,false,Rx,0,6,00,FF,07,00,0A,FF,00,00,
19773031,000000C4,false,Rx,0,7,29,0A,FC,00,00,FF,F1,00,
19773263,000001D6,false,Rx,0,2,FF,F3,00,00,00,00,00,00,
19774403,000000A8,false,Rx,0,8,04,B2,01,B0,01,F0,03,02,
19774628,000000A9,false,Rx,0,8,85,12,58,FF,14,58,FF,05,
19774851,000000AA,false,Rx,0,8,88,B2,01,00,38,0D,80,64,
19779970,0000031A,false,Rx,0,2,FD,FF,00,00,00,00,00,00,
19783130,000000B6,false,Rx,0,5,FF,00,80,00,C8,00,00,00,
19783177,000000C4,false,Rx,0,7,29,0A,FC,00,00,FF,F1,00,
19783585,000000CE,false,Rx,0,8,00,00,00,00,00,00,00,00,
19783808,0000019E,false,Rx,0,8,00,E0,EF,FC,FE,00,00,6C,
19784039,000001A0,false,Rx,0,8,00,80,00,30,00,FE,0F,60,
19784270,000002B2,false,Rx,0,8,00,00,00,00,40,00,00,04,
19784856,000000A8,false,Rx,0,8,05,B3,01,B0,01,F0,03,02,
19785082,000000A9,false,Rx,0,8,86,13,58,FF,14,58,FF,05,
19785497,000000AA,false,Rx,0,8,89,B3,01,00,38,0D,80,64,
19789706,00000130,false,Rx,0,5,45,43,21,8F,11,00,00,00,
19793079,000000C4,false,Rx,0,7,29,0A,FC,00,00,FF,F1,00,
19793492,00000480,false,Rx,0,8,12,42,FD,FF,FF,FF,FF,FF,
19794647,000000A8,false,Rx,0,8,F5,A4,01,B0,01,F0,03,02,
19794871,000000A9,false,Rx,0,8,55,14,57,FF,14,57,CF,05,
19795100,000000AA,false,Rx,0,8,86,B4,01,00,34,0D,80,64,
19803046,000000B6,false,Rx,0,5,00,01,80,00,C8,00,00,00,
19803276,000000C4,false,Rx,0,7,29,0A,FC,00,00,FF,F1,00,
19803500,000000CE,false,Rx,0,8,00,00,00,00,00,00,00,00,
19803724,0000019E,false,Rx,0,8,00,E0,EF,FC,FE,00,00,6C,
19803948,000001A0,false,Rx,0,8,00,80,00,B0,FF,FE,1F,F0,
19804356,000002B2,false,Rx,0,8,00,00,00,00,40,00,00,04,
19804589,000000A8,false,Rx,0,8,F6,A5,01,B0,01,F0,03,02,
19804818,000000A9,false,Rx,0,8,56,15,57,FF,14,57,CF,05,
19805043,000000AA,false,Rx,0,8,87,B5,01,00,34,0D,80,64,
19811843,000001B6,false,Rx,0,7,00,FC,2F,04,46,A0,26,00,
19812983,000000C4,false,Rx,0,7,29,0A,FC,00,00,FF,F1,00,
19814331,000000A8,false,Rx,0,8,08,B6,01,B0,01,F0,03,02,
19814563,000000A9,false,Rx,0,8,57,16,57,FF,14,57,CF,05,
19814971,000000AA,false,Rx,0,8,88,B6,01,00,34,0D,80,64,
19819082,000001D0,false,Rx,0,8,47,FF,68,C2,BD,ED,CD,A9,
19822993,000000B6,false,Rx,0,5,02,02,80,00,C8,00,00,00,
19823227,000000C4,false,Rx,0,7,29,0A,FC,00,00,FF,F1,00,
19823455,000000CE,false,Rx,0,8,00,00,00,00,00,00,00,00,
19823679,0000019E,false,Rx,0,8,00,E0,EF,FC,FE,00,00,6C,
19823903,000001A0,false,Rx,0,8,00,80,00,60,00,FE,2F,B0,
19824129,000002B2,false,Rx,0,8,00,00,00,00,40,00,00,04,
19824360,000001A6,false,Rx,0,8,04,00,02,00,02,00,58,F2,
19825681,000000A8,false,Rx,0,8,09,B7,01,B0,01,F0,03,02,
19825905,000000A9,false,Rx,0,8,58,17,57,FF,14,57,CF,05,
19826321,000000AA,false,Rx,0,8,89,B7,01,00,34,0D,80,64,
19833063,000000C4,false,Rx,0,7,29,0A,FC,00,00,FF,F1,00,
19834442,000000A8,false,Rx,0,8,0A,B8,01,B0,01,F0,03,02,
19834675,000000A9,false,Rx,0,8,09,18,57,FF,14,57,7F,05,
19835085,000000AA,false,Rx,0,8,8A,B8,01,00,34,0D,80,64,
19843020,000000B6,false,Rx,0,5,03,03,80,00,C8,00,00,00,
19843252,000000C4,false,Rx,0,7,29,0A,FC,00,00,FF,F1,00,
19843475,000000CE,false,Rx,0,8,00,00,00,00,00,00,00,00,
19843698,0000019E,false,Rx,0,8,00,E0,EF,FC,FE,00,00,6C,
19843925,000001A0,false,Rx,0,8,00,80,00,C0,FF,FE,3F,21,
19844173,000002B2,false,Rx,0,8,00,00,00,00,40,00,00,04,
19844578,000000A8,false,Rx,0,8,0B,B9,01,B0,01,F0,03,02,
19844803,000000A9,false,Rx,0,8,8A,19,57,FF,14,57,FF,05,
19845030,000000AA,false,Rx,0,8,8B,B9,01,00,34,0D,80,64,
19852947,000000C4,false,Rx,0,7,29,0A,FC,00,00,FF,F1,00,
19854643,000000A8,false,Rx,0,8,0C,BA,01,B0,01,F0,03,02,
19854870,000000A9,false,Rx,0,8,8B,1A,57,FF,14,57,FF,05,
19855095,000000AA,false,Rx,0,8,8C,BA,01,00,34,0D,80,64,
19855326,00000200,false,Rx,0,8,42,81,C0,00,00,00,00,00,
19856828,000001B4,false,Rx,0,8,00,D0,E2,F1,04,32,FE,90,
19862922,000000B6,false,Rx,0,5,04,04,80,00,C8,00,00,00,
19863150,000000C4,false,Rx,0,7,29,0A,FC,00,00,FF,F1,00,
19863380,000000CE,false,Rx,0,8,00,00,00,00,00,00,00,00,
19863604,0000019E,false,Rx,0,8,00,E0,EF,FC,FE,00,00,6C,
19863829,000001A0,false,Rx,0,8,00,80,00,50,00,FE,4F,C0,
19864246,000002B2,false,Rx,0,8,00,00,00,00,40,00,00,04,
19864469,000000A8,false,Rx,0,8,0D,BB,01,B0,01,F0,03,02,
19864875,000000A9,false,Rx,0,8,6C,1B,57,FF,14,57,DF,05,
19865101,000000AA,false,Rx,0,8,8D,BB,01,00,34,0D,80,64,
19873120,000000C4,false,Rx,0,7,29,0A,FC,00,00,FF,F1,00,
19873125,00000194,false,Rx,0,4,EE,FD,00,F0,00,00,00,00,
19873355,000001D6,false,Rx,0,2,FF,F3,00,00,00,00,00,00,
19874317,000000A8,false,Rx,0,8,FD,AC,01,B0,01,F0,03,02,
19874541,000000A9,false,Rx,0,8,5D,1C,57,FF,14,57,CF,05,
19874764,000000AA,false,Rx,0,8,8E,BC,01,00,34,0D,80,64,
19880021,0000031A,false,Rx,0,2,FD,FF,00,00,00,00,00,00,
19883061,000000B6,false,Rx,0,5,05,05,80,00,C8,00,00,00,
19883292,000000C4,false,Rx,0,7,29,0A,FC,00,00,FF,F1,00,
19883516,000000CE,false,Rx,0,8,00,00,00,00,00,00,00,00,
19883740,0000019E,false,Rx,0,8,00,E0,EF,FC,FE,00,00,6C,
19883964,000001A0,false,Rx,0,8,00,80,00,B0,FF,FE,5F,31,
19884197,000002B2,false,Rx,0,8,00,00,00,00,40,00,00,04,
19884421,000000A8,false,Rx,0,8,EE,AD,01,A0,01,F0,03,02,
19884827,000000A9,false,Rx,0,8,4E,1D,57,FF,14,57,BF,05,
19885053,00000492,false,Rx,0,8,17,42,FF,FF,FF,FF,FF,FF,
19885278,000000AA,false,Rx,0,8,93,BD,01,00,38,0D,80,64,
19890349,00000130,false,Rx,0,5,45,43,21,8F,22,00,00,00,
19893177,000000C4,false,Rx,0,7,29,0A,FC,00,00,FF,F1,00,
19895999,000000A8,false,Rx,0,8,EF,AE,01,A0,01,F0,03,02,
19896235,000000A9,false,Rx,0,8,4F,1E,57,FF,14,57,BF,05,
19896459,000000AA,false,Rx,0,8,94,BE,01,00,38,0D,80,64,
19903098,000000B6,false,Rx,0,5,06,06,80,00,C8,00,00,00,
19903330,000000C4,false,Rx,0,7,29,0A,FC,00,00,FF,F1,00,
19903554,000000CE,false,Rx,0,8,00,00,00,00,00,00,00,00,
19903778,0000019E,false,Rx,0,8,00,E0,0F,FC,FE,00,00,8B,
19904002,000001A0,false,Rx,0,8,00,80,00,50,00,FE,6F,E0,
19904226,000002B2,false,Rx,0,8,00,00,00,00,40,00,00,04,
19904458,000000A8,false,Rx,0,8,C1,90,01,90,01,F0,03,02,
19904865,000000A9,false,Rx,0,8,11,10,57,FF,14,57,8F,05,
19905091,000000AA,false,Rx,0,8,8E,B0,01,00,40,0D,80,64,
19910484,000001B6,false,Rx,0,7,00,FC,2F,04,46,A0,26,00,
19913004,000000C4,false,Rx,0,7,29,0A,FC,00,00,FF,F1,00,
19913239,000000C8,false,Rx,0,6,1D,0A,AC,00,00,CC,00,00,
19914187,000000A8,false,Rx,0,8,C2,91,01,90,01,F0,03,02,
19914603,000000A9,false,Rx,0,8,E1,11,57,EF,14,57,6F,05,
19914830,000000AA,false,Rx,0,8,83,A1,01,00,44,0D,80,64,
19915060,00000310,false,Rx,0,7,64,F8,45,50,00,FD,21,00,
19918955,000001D0,false,Rx,0,8,47,FF,69,C2,EF,ED,CD,A9,
19923032,000000B6,false,Rx,0,5,07,07,80,00,C8,00,00,00,
19923263,000000C4,false,Rx,0,7,29,0A,FC,00,00,FF,F1,00,
19923497,000000CE,false,Rx,0,8,00,00,00,00,00,00,00,00,
19923739,0000019E,false,Rx,0,8,00,E0,0F,FC,FE,00,00,8B,
19923964,000001A0,false,Rx,0,8,00,80,00,50,00,FE,7F,F0,
19924196,000002B2,false,Rx,0,8,00,00,00,00,40,00,00,04,
19924420,000001A6,false,Rx,0,8,04,00,02,00,02,00,E8,F3,
19924830,000000A8,false,Rx,0,8,C3,92,01,90,01,F0,03,02,
19925056,000000A9,false,Rx,0,8,E2,12,57,EF,14,57,6F,05,
19925287,000000AA,false,Rx,0,8,84,A2,01,00,44,0D,80,64,
19933002,000000C4,false,Rx,0,7,29,0A,FC,00,00,FF,F1,00,
19934535,000000A8,false,Rx,0,8,C4,93,01,90,01,F0,03,02,
19934760,000000A9,false,Rx,0,8,D3,13,57,EF,14,57,5F,05,
19934984,000000AA,false,Rx,0,8,71,93,01,00,40,0D,80,64,
19943019,000000B6,false,Rx,0,5,08,08,80,00,C8,00,00,00,
19943250,000000C4,false,Rx,0,7,29,0A,FC,00,00,FF,F1,00,
19943473,000000CE,false,Rx,0,8,00,00,00,00,00,00,00,00,
19943698,0000019E,false,Rx,0,8,00,E0,0F,FC,FE,00,00,8B,
19943922,000001A0,false,Rx,0,8,00,80,00,E0,FF,FE,8F,91,
19944149,000002B2,false,Rx,0,8,00,00,00,00,40,00,00,04,
19944380,000000A8,false,Rx,0,8,C5,94,01,90,01,F0,03,02,
19944603,000000A9,false,Rx,0,8,D4,14,57,EF,14,57,5F,05,
19944828,000000AA,false,Rx,0,8,72,94,01,00,40,0D,80,64,
19952947,000000C4,false,Rx,0,7,29,0A,FC,00,00,FF,F1,00,
19954343,000000A8,false,Rx,0,8,D6,95,01,A0,01,F0,03,02,
19954567,000000A9,false,Rx,0,8,B5,15,57,EF,14,57,3F,05,
19954975,000000AA,false,Rx,0,8,6B,95,01,00,38,0D,80,64,
19957221,000001B4,false,Rx,0,8,00,D0,E2,F2,04,32,FE,91,
19958362,000003B0,false,Rx,0,2,FD,FF,00,00,00,00,00,00,
19962983,000000B6,false,Rx,0,5,09,09,80,00,C8,00,00,00,
19963222,000000C4,false,Rx,0,7,29,0A,FC,00,00,FF,F1,00,
19963447,000000CE,false,Rx,0,8,00,00,00,00,00,00,00,00,
19963670,0000019E,false,Rx,0,8,00,E0,0F,FC,FE,00,00,8B,
19963895,000001A0,false,Rx,0,8,00,80,00,30,00,FE,9F,F0,
19964119,000002B2,false,Rx,0,8,00,00,00,00,40,00,00,04,
19964534,000000A8,false,Rx,0,8,D7,96,01,A0,01,F0,03,02,
19964758,000000A9,false,Rx,0,8,B6,16,57,EF,14,57,3F,05,
19964983,000000AA,false,Rx,0,8,6C,96,01,00,38,0D,80,64,
19973036,000000C4,false,Rx,0,7,29,0A,FC,00,00,FF,F1,00,
19973282,000001D6,false,Rx,0,2,FF,F3,00,00,00,00,00,00,
19974459,000000A8,false,Rx,0,8,C8,97,01,90,01,F0,03,02,
19974681,000000A9,false,Rx,0,8,C7,17,57,FF,14,57,3F,05,
19975090,000000AA,false,Rx,0,8,81,A7,01,00,3C,0D,80,64,
19980081,0000031A,false,Rx,0,2,FD,FF,00,00,00,00,00,00,
19981041,00000497,false,Rx,0,8,29,42,FF,FF,FF,FF,FF,FF,
19981273,000001B5,false,Rx,0,6,00,FF,07,00,0A,FF,00,00,
19983147,000000B6,false,Rx,0,5,0A,0A,80,00,C8,00,00,00,
19983380,000000C4,false,Rx,0,7,29,0A,FC,00,00,FF,F1,00,
19983604,000000CE,false,Rx,0,8,00,00,00,00,00,00,00,00,
19983829,0000019E,false,Rx,0,8,00,E0,0F,FC,FE,00,00,8B,
19984056,000001A0,false,Rx,0,8,00,80,00,C0,FF,FE,AF,91,
19984288,000002B2,false,Rx,0,8,00,00,00,00,40,00,00,04,
19985059,000000A8,false,Rx,0,8,C9,98,01,90,01,F0,03,02,
19985291,000000A9,false,Rx,0,8,F8,18,57,FF,14,57,6F,05,
19985514,000000AA,false,Rx,0,8,86,A8,01,00,40,0D,80,64,
19990756,00000130,false,Rx,0,5,45,43,21,8F,33,00,00,00,
19993210,000000C4,false,Rx,0,7,29,0A,FC,00,00,FF,F1,00,
19994362,000000A8,false,Rx,0,8,CA,99,01,90,01,F0,03,02,
19994788,000000A9,false,Rx,0,8,E9,19,57,EF,14,57,6F,05,
19995012,000000AA,false,Rx,0,8,77,99,01,00,40,0D,80,64,
20003056,000000B6,false,Rx,0,5,0B,0B,80,00,C8,00,00,00,
20003288,000000C4,false,Rx,0,7,29,0A,FC,00,00,FF,F1,00,
20003511,000000CE,false,Rx,0,8,00,00,00,00,00,00,00,00,
20003736,0000019E,false,Rx,0,8,00,E0,0F,FC,FE,00,00,8B,
20004145,000001A0,false,Rx,0,8,00,80,00,50,00,FE,BF,31,
20004376,000002B2,false,Rx,0,8,00,00,00,00,40,00,00,04,
20004599,000000A8,false,Rx,0,8,AB,8A,01,80,01,F0,03,02,
20004827,000000A9,false,Rx,0,8,0B,1A,57,EF,14,57,8F,05,
20005053,000000AA,false,Rx,0,8,7C,9A,01,00,44,0D,80,64,
20006010,00000335,false,Rx,0,8,00,9C,5C,50,35,95,64,3D,
20010868,000001B6,false,Rx,0,7,00,FC,2D,04,46,A0,26,00,
20013139,000000C4,false,Rx,0,7,29,0A,FC,00,00,FF,F1,00,
20015049,000000A8,false,Rx,0,8,AC,8B,01,80,01,F0,03,02,
20015286,000000A9,false,Rx,0,8,0C,1B,57,EF,14,57,8F,05,
20015524,000000AA,false,Rx,0,8,6D,8B,01,00,44,0D,80,64,
20019043,000001D0,false,Rx,0,8,47,FF,69,C2,21,EE,CD,A9,
20022930,000000B6,false,Rx,0,5,0C,0C,80,00,C8,00,00,00,
20023158,000000C4,false,Rx,0,7,29,0A,FC,00,00,FF,F1,00,
20023389,000000CE,false,Rx,0,8,00,00,00,00,00,00,00,00,
20023797,0000019E,false,Rx,0,8,00,E0,0F,FC,FE,00,00,8B,
20024020,000001A0,false,Rx,0,8,00,80,00,70,FF,00,C0,53,
20024256,000002B2,false,Rx,0,8,00,00,00,00,50,00,00,04,
20024484,000000A8,false,Rx,0,8,CD,9C,01,90,01,F0,03,02,
20024708,000001A6,false,Rx,0,8,04,00,02,00,02,00,78,F5,
20024933,000000A9,false,Rx,0,8,0D,1C,57,EF,14,57,8F,05,
20025160,000000AA,false,Rx,0,8,66,8C,01,00,3C,0D,80,64,
20033037,000000C4,false,Rx,0,7,29,0A,FC,00,00,FF,F1,00,
20034570,000000A8,false,Rx,0,8,CE,9D,01,90,01,F0,03,02,
20034793,000000A9,false,Rx,0,8,0E,1D,57,EF,14,57,8F,05,
20035020,000000AA,false,Rx,0,8,77,9D,01,00,3C,0D,80,64,
20043035,000000B6,false,Rx,0,5,0D,0D,80,00,C8,00,00,00,
20043266,000000C4,false,Rx,0,7,29,0A,FC,00,00,FF,F1,00,
20043494,000000CE,false,Rx,0,8,00,00,00,00,00,00,00,00,
20043718,0000019E,false,Rx,0,8,00,E0,0F,FC,FE,00,00,8B,
20043943,000001A0,false,Rx,0,8,00,80,00,50,00,FE,DF,51,
20044185,000002B2,false,Rx,0,8,00,00,00,00,40,00,00,04,
20044409,000000A8,false,Rx,0,8,DF,9E,01,A0,01,F0,03,02,
20044816,000000A9,false,Rx,0,8,3F,1E,57,EF,14,57,BF,05,
20045043,000000AA,false,Rx,0,8,70,9E,01,00,34,0D,80,64,
20052971,000000C4,false,Rx,0,7,29,0A,FC,00,00,FF,F1,00,
20055632,000000A8,false,Rx,0,8,D1,90,01,A0,01,F0,03,02,
20055855,000000A9,false,Rx,0,8,41,10,57,FF,14,57,BF,05,
20056080,000000AA,false,Rx,0,8,72,A0,01,00,34,0D,80,64,
20056312,00000200,false,Rx,0,8,42,81,C0,00,00,00,00,00,
20056900,000001B4,false,Rx,0,8,00,D0,E2,F3,04,32,FE,92,
20062990,000000B6,false,Rx,0,5,0E,0E,80,00,C8,00,00,00,
20063227,000000C4,false,Rx,0,7,29,0A,FC,00,00,FF,F1,00,
20063452,000000CE,false,Rx,0,8,00,00,00,00,00,00,00,00,
20063676,0000019E,false,Rx,0,8,00,E0,0F,FC,FE,00,00,8B,
20063901,000001A0,false,Rx,0,8,00,80,00,10,00,FE,EF,21,
20064126,000002B2,false,Rx,0,8,00,00,00,00,40,00,00,04,
20064356,000000A8,false,Rx,0,8,E2,A1,01,A0,01,F0,03,02,
20064581,000004A9,false,Rx,0,8,00,42,FF,FF,FF,FF,FF,FF,
20064805,000000A9,false,Rx,0,8,62,11,57,FF,14,57,DF,05,
20065226,000000AA,false,Rx,0,8,6F,A1,01,00,30,0D,80,64,
20073086,000000C4,false,Rx,0,7,29,0A,FC,00,00,FF,F1,00,
20073351,00000194,false,Rx,0,4,EF,FE,00,F0,00,00,00,00,
20073356,000001D6,false,Rx,0,2,FF,F3,00,00,00,00,00,00,
20073588,000002A6,false,Rx,0,2,00,FC,00,00,00,00,00,00,
20074383,000000A8,false,Rx,0,8,E3,A2,01,A0,01,F0,03,02,
20074608,000000A9,false,Rx,0,8,83,12,57,FF,14,57,FF,05,
20074832,000000AA,false,Rx,0,8,70,A2,01,00,30,0D,80,64,
20080005,0000031A,false,Rx,0,2,FD,FF,00,00,00,00,00,00,
20083161,000000B6,false,Rx,0,5,FF,00,80,00,C8,00,00,00,
20083392,000000C4,false,Rx,0,7,29,0A,FC,00,00,FF,F1,00,
20083615,000000CE,false,Rx,0,8,00,00,00,00,00,00,00,00,
20083843,0000019E,false,Rx,0,8,00,E0,0F,FC,FE,00,00,8B,
20084068,000001A0,false,Rx,0,8,00,80,00,00,00,FE,0F,30,
20084294,000000A8,false,Rx,0,8,E4,A3,01,A0,01,F0,03,02,
20084519,000002B2,false,Rx,0,8,00,00,00,00,40,00,00,04,
20084743,000000A9,false,Rx,0,8,84,13,57,FF,14,57,FF,05,
20084966,000000AA,false,Rx,0,8,71,A3,01,00,30,0D,80,64,
20089409,00000130,false,Rx,0,5,45,43,21,8F,44,00,00,00,
20091581,000001B6,false,Rx,0,7,00,FC,2F,04,46,A0,26,00,
20093094,000000C4,false,Rx,0,7,29,0A,FC,00,00,FF,F1,00,
20094432,000000A8,false,Rx,0,8,06,B4,01,B0,01,F0,03,02,
20094655,000000A9,false,Rx,0,8,75,14,57,FF,14,57,EF,05,
20094879,000000AA,false,Rx,0,8,6E,A4,01,00,2C,0D,80,64,
20103004,000000B6,false,Rx,0,5,00,01,80,00,C8,00,00,00,
20103232,000000C4,false,Rx,0,7,29,0A,FC,00,00,FF,F1,00,
20103456,000000CE,false,Rx,0,8,00,00,00,00,00,00,00,00,
20103864,0000019E,false,Rx,0,8,00,E0,1F,FC,FE,00,00,9B,
20104089,000001A0,false,Rx,0,8,00,80,00,30,00,FE,1F,70,
20104324,000002B2,false,Rx,0,8,00,00,00,00,40,00,00,04,
20104551,000000A8,false,Rx,0,8,07,B5,01,B0,01,F0,03,02,
20104776,000000A9,false,Rx,0,8,76,15,57,FF,14,57,EF,05,
20105001,000000AA,false,Rx,0,8,6F,A5,01,00,2C,0D,80,64,
20113067,000000C4,false,Rx,0,7,29,0A,FC,00,00,FF,F1,00,
20113301,000000C8,false,Rx,0,6,1D,0A,0C,00,00,EC,00,00,
20114262,000000A8,false,Rx,0,8,08,B6,01,B0,01,F0,03,02,
20114485,000000A9,false,Rx,0,8,87,16,57,FF,14,57,FF,05,
20114709,000000AA,false,Rx,0,8,80,B6,01,00,2C,0D,80,64,
20119143,000001D0,false,Rx,0,8,47,FF,6A,C3,53,EE,CD,A9,
20122952,000000B6,false,Rx,0,5,02,02,80,00,C8,00,00,00,
20123209,000000C4,false,Rx,0,7,29,0A,FC,00,00,FF,F1,00,
20123465,000000CE,false,Rx,0,8,00,00,00,00,00,00,00,00,
20123708,0000019E,false,Rx,0,8,00,E0,1F,FC,FE,00,00,9B,
20123980,000001A0,false,Rx,0,8,00,80,00,E0,FF,FE,2F,31,
20124219,000002B2,false,Rx,0,8,00,00,00,00,40,00,00,04,
20124443,000000A8,false,Rx,0,8,09,B7,01,B0,01,F0,03,02,
20124671,000001A6,false,Rx,0,8,04,00,02,00,02,00,08,F7,
20124896,000000A9,false,Rx,0,8,88,17,57,FF,14,57,FF,05,
20125123,00000374,false,Rx,0,5,00,00,00,00,FC,00,00,00,
20125354,000000AA,false,Rx,0,8,81,B7,01,00,2C,0D,80,64,
20133092,000000C4,false,Rx,0,7,29,0A,FC,00,00,FF,F1,00,
20134421,000000A8,false,Rx,0,8,0A,B8,01,B0,01,F0,03,02,
20134645,000000A9,false,Rx,0,8,89,18,57,FF,14,57,FF,05,
20134869,000000AA,false,Rx,0,8,82,B8,01,00,2C,0D,80,64,
20143021,000000B6,false,Rx,0,5,03,03,80,00,C8,00,00,00,
20143253,000000C4,false,Rx,0,7,29,0A,FC,00,00,FF,F1,00,
20143479,000000CE,false,Rx,0,8,00,00,00,00,00,00,00,00,
20143708,0000019E,false,Rx,0,8,00,E0,1F,FC,FE,00,00,9B,
20143938,000001A0,false,Rx,0,8,00,80,00,60,00,FE,3F,C0,
20144173,000002B2,false,Rx,0,8,00,00,00,00,40,00,00,04,
20145496,000000A8,false,Rx,0,8,0B,B9,01,B0,01,F0,03,02,
20145718,000000A9,false,Rx,0,8,8A,19,57,FF,14,57,FF,05,
20145943,000000AA,false,Rx,0,8,83,B9,01,00,2C,0D,80,64,
20153054,000000C4,false,Rx,0,7,29,0A,FC,00,00,FF,F1,00,
20153465,00000480,false,Rx,0,8,12,42,FD,FF,FF,FF,FF,FF,
20154244,000000A8,false,Rx,0,8,2C,CA,01,C0,01,F0,03,02,
20154468,000000A9,false,Rx,0,8,9B,1A,57,0F,15,57,FF,05,
20154692,000000AA,false,Rx,0,8,8C,CA,01,00,24,0D,80,64,
20157304,000001B4,false,Rx,0,8,00,D0,E2,F4,04,32,FE,93,
20162957,000000B6,false,Rx,0,5,04,04,80,00,C8,00,00,00,
20163253,000000C4,false,Rx,0,7,29,0A,FC,00,00,FF,F1,00,
20163481,000000CE,false,Rx,0,8,00,00,00,00,00,00,00,00,
20163709,0000019E,false,Rx,0,8,00,E0,1F,FC,FE,00,00,9B,
20163933,000001A0,false,Rx,0,8,00,80,00,70,FF,00,40,D2,
20164160,000002B2,false,Rx,0,8,00,00,00,00,50,00,00,04,
20164391,000000A8,false,Rx,0,8,2D,CB,01,C0,01,F0,03,02,
20164616,000000A9,false,Rx,0,8,8C,1B,57,0F,15,57,EF,05,
20164838,000000AA,false,Rx,0,8,8D,CB,01,00,24,0D,80,64,
20173106,000000C4,false,Rx,0,7,29,0A,FC,00,00,FF,F1,00,
20173111,000001D6,false,Rx,0,2,FF,F3,00,00,00,00,00,00,
20174257,000000A8,false,Rx,0,8,2E,CC,01,C0,01,F0,03,02,
20174482,000000A9,false,Rx,0,8,8D,1C,57,0F,15,57,EF,05,
20174705,000000AA,false,Rx,0,8,8E,CC,01,00,24,0D,80,64,
20180062,0000031A,false,Rx,0,2,FD,FF,00,00,00,00,00,00,
20183067,000000B6,false,Rx,0,5,05,05,80,00,C8,00,00,00,
20183291,000000C4,false,Rx,0,7,29,0A,FC,00,00,FF,F1,00,
20183535,000000CE,false,Rx,0,8,00,00,00,00,00,00,00,00,
20183759,0000019E,false,Rx,0,8,00,E0,1F,FC,FE,00,00,9B,
20183984,000001A0,false,Rx,0,8,00,80,00,60,00,FE,5F,E0,
20184218,000002B2,false,Rx,0,8,00,00,00,00,40,00,00,04,
20184440,000000A8,false,Rx,0,8,0F,BD,01,B0,01,F0,03,02,
20184665,000000A9,false,Rx,0,8,BE,1D,57,0F,15,57,1F,06,
20185075,000000AA,false,Rx,0,8,97,CD,01,00,2C,0D,80,64,
20189399,00000130,false,Rx,0,5,45,43,21,8F,55,00,00,00,
20191732,000001B6,false,Rx,0,7,00,FC,30,04,46,A0,26,00,
20193072,000000C4,false,Rx,0,7,29,0A,FC,00,00,FF,F1,00,
20194246,000000A8,false,Rx,0,8,10,BE,01,B0,01,F0,03,02,
20194471,000000A9,false,Rx,0,8,AF,1E,57,FF,14,57,1F,06,
20194695,000000AA,false,Rx,0,8,98,CE,01,00,2C,0D,80,64,
20203091,000000B6,false,Rx,0,5,06,06,80,00,C8,00,00,00,
20203321,000000C4,false,Rx,0,7,29,0A,FC,00,00,FF,F1,00,
20203545,000000CE,false,Rx,0,8,00,00,00,00,00,00,00,00,
20203770,0000019E,false,Rx,0,8,00,E0,1F,FC,FE,00,00,9B,
20203994,000001A0,false,Rx,0,8,00,80,00,F0,FF,FE,6F,81,
20204221,000002B2,false,Rx,0,8,00,00,00,00,40,00,00,04,
20204445,000000A8,false,Rx,0,8,01,B0,01,B0,01,F0,03,02,
20204853,000000A9,false,Rx,0,8,B1,10,57,FF,14,57,2F,06,
20205080,000000AA,false,Rx,0,8,8E,C0,01,00,30,0D,80,64,
20212992,000000C4,false,Rx,0,7,29,0A,FC,00,00,FF,F1,00,
20216065,000000A8,false,Rx,0,8,03,B1,01,B0,01,F0,03,02,
20216296,000000A9,false,Rx,0,8,B2,11,57,FF,14,57,2F,06,
20216704,000000AA,false,Rx,0,8,7F,B1,01,00,30,0D,80,64,
20218940,000001D0,false,Rx,0,8,47,FF,6A,C3,85,EE,CD,A9,
20223011,000000B6,false,Rx,0,5,07,07,80,00,C8,00,00,00,
20223243,000000C4,false,Rx,0,7,29,0A,FC,00,00,FF,F1,00,
20223471,000000CE,false,Rx,0,8,00,00,00,00,00,00,00,00,
20223696,0000019E,false,Rx,0,8,00,E0,1F,FC,FE,00,00,9B,
20223920,000001A0,false,Rx,0,8,00,80,00,30,00,FE,7F,D0,
20224147,000002B2,false,Rx,0,8,00,00,00,00,40,00,00,04,
20224378,000000A8,false,Rx,0,8,F3,A2,01,B0,01,F0,03,02,
20224601,000001A6,false,Rx,0,8,04,00,02,00,02,00,98,F8,
20224826,000000A9,false,Rx,0,8,53,12,57,FF,14,57,CF,05,
20225052,000000AA,false,Rx,0,8,84,B2,01,00,34,0D,80,64,
20232956,000000C4,false,Rx,0,7,29,0A,FC,00,00,FF,F1,00,
20234306,000000A8,false,Rx,0,8,05,B3,01,B0,01,F0,03,02,
20234713,000000A9,false,Rx,0,8,14,13,57,FF,14,57,8F,05,
20234936,000000AA,false,Rx,0,8,81,B3,01,00,30,0D,80,64,
20242875,000000B6,false,Rx,0,5,08,08,80,00,C8,00,00,00,
20243101,000000C4,false,Rx,0,7,29,0A,FC,00,00,FF,F1,00,
20243517,000000CE,false,Rx,0,8,00,00,00,00,00,00,00,00,
20243740,0000019E,false,Rx,0,8,00,E0,1F,FC,FE,00,00,9B,
20243964,000001A0,false,Rx,0,8,00,80,00,10,00,FE,8F,C0,
20244212,000000A8,false,Rx,0,8,06,B4,01,B0,01,F0,03,02,
20244440,000002B2,false,Rx,0,8,00,00,00,00,40,00,00,04,
20244668,000000A9,false,Rx,0,8,15,14,57,FF,14,57,8F,05,
20244893,000000AA,false,Rx,0,8,82,B4,01,00,30,0D,80,64,
20245119,00000492,false,Rx,0,8,17,42,FF,FF,FF,FF,FF,FF,
20253143,000000C4,false,Rx,0,7,29,0A,FC,00,00,FF,F1,00,
20254292,000000A8,false,Rx,0,8,27,C5,01,C0,01,F0,03,02,
20254516,000000A9,false,Rx,0,8,56,15,57,FF,14,57,CF,05,
20254739,000000AA,false,Rx,0,8,7B,B5,01,00,28,0D,80,64,
20254964,00000200,false,Rx,0,8,42,81,C0,00,00,00,00,00,
20257937,000001B4,false,Rx,0,8,00,D0,E2,F5,04,32,FE,94,
20262995,000000B6,false,Rx,0,5,09,09,80,00,C8,00,00,00,
20263227,000000C4,false,Rx,0,7,29,0A,FC,00,00,FF,F1,00,
20263452,000000CE,false,Rx,0,8,00,00,00,00,00,00,00,00,
20263677,0000019E,false,Rx,0,8,00,E0,1F,FC,FE,00,00,9B,
20263899,000001A0,false,Rx,0,8,00,80,00,F0,FF,FE,9F,B1,
20264125,000000A8,false,Rx,0,8,28,C6,01,C0,01,F0,03,02,
20264540,000002B2,false,Rx,0,8,00,00,00,00,40,00,00,04,
20264764,000000A9,false,Rx,0,8,57,16,57,FF,14,57,CF,05,
20264986,000000AA,false,Rx,0,8,7C,B6,01,00,28,0D,80,64,
20272151,000001B6,false,Rx,0,7,00,FC,30,04,46,A0,26,00,
20273169,000000C4,false,Rx,0,7,29,0A,FC,00,00,FF,F1,00,
20273174,00000194,false,Rx,0,4,E1,F0,00,F0,00,00,00,00,
20273398,000001D6,false,Rx,0,2,FF,F3,00,00,00,00,00,00,
20274175,000000A8,false,Rx,0,8,29,C7,01,C0,01,F0,03,02,
20274398,000000A9,false,Rx,0,8,A8,17,57,0F,15,57,0F,06,
20274623,000000AA,false,Rx,0,8,91,C7,01,00,2C,0D,80,64,
20279972,0000031A,false,Rx,0,2,FD,FF,00,00,00,00,00,00,
20283130,000000B6,false,Rx,0,5,0A,0A,80,00,C8,00,00,00,
20283361,000000C4,false,Rx,0,7,29,0A,FC,00,00,FF,F1,00,
20283589,000000CE,false,Rx,0,8,00,00,00,00,00,00,00,00,
20283812,0000019E,false,Rx,0,8,00,E0,1F,FC,FE,00,00,9B,
20284037,000001A0,false,Rx,0,8,00,80,00,50,00,00,A0,13,
20284263,000002B2,false,Rx,0,8,00,00,00,00,50,00,00,04,
20284488,000000A8,false,Rx,0,8,2A,C8,01,C0,01,F0,03,02,
20284711,000000A9,false,Rx,0,8,A9,18,57,0F,15,57,0F,06,
20285123,000000AA,false,Rx,0,8,92,C8,01,00,2C,0D,80,64,
20289402,00000130,false,Rx,0,5,45,43,21,8F,76,00,00,00,
20293054,000000C4,false,Rx,0,7,29,0A,FC,00,00,FF,F1,00,
20294038,000000A8,false,Rx,0,8,2B,C9,01,C0,01,F0,03,02,
20294270,000000A9,false,Rx,0,8,9A,19,57,FF,14,57,0F,06,
20294689,000000AA,false,Rx,0,8,93,C9,01,00,2C,0D,80,64,
20303162,000000B6,false,Rx,0,5,0B,0B,80,00,C8,00,00,00,
20303393,000000C4,false,Rx,0,7,29,0A,FC,00,00,FF,F1,00,
20303620,000000CE,false,Rx,0,8,00,00,00,00,00,00,00,00,
20303848,0000019E,false,Rx,0,8,00,E0,1F,FC,FE,00,00,9B,
20304074,000001A0,false,Rx,0,8,00,80,00,90,FF,00,B0,63,
20304305,000002B2,false,Rx,0,8,00,00,00,00,50,00,00,04,
20305258,000000A8,false,Rx,0,8,1C,BA,01,C0,01,F0,03,02,
20305483,000000A9,false,Rx,0,8,8B,1A,57,FF,14,57,FF,05,
20305706,000000AA,false,Rx,0,8,98,CA,01,00,30,0D,80,64,
20313115,000000C4,false,Rx,0,7,29,0A,FC,00,00,FF,F1,00,
20313345,000000C8,false,Rx,0,6,1D,0A,5C,00,00,0C,00,00,
20314120,000000A8,false,Rx,0,8,1D,BB,01,C0,01,F0,03,02,
20314352,000000A9,false,Rx,0,8,8C,1B,57,FF,14,57,FF,05,
20314576,000000AA,false,Rx,0,8,99,CB,01,00,30,0D,80,64,
20318547,000001D0,false,Rx,0,8,47,FF,6B,C2,B7,EE,CD,A9,
20323100,000000B6,false,Rx,0,5,0C,0C,80,00,C8,00,00,00,
20323105,000000C4,false,Rx,0,7,29,0A,FC,00,00,FF,F1,00,
20323519,000000CE,false,Rx,0,8,00,00,00,00,00,00,00,00,
20323742,0000019E,false,Rx,0,8,00,E0,2F,FC,FE,00,00,AB,
20323967,000001A0,false,Rx,0,8,00,80,00,60,00,FE,CF,51,
20324206,000002B2,false,Rx,0,8,00,00,00,00,40,00,00,04,
20324431,000000A8,false,Rx,0,8,ED,AC,01,A0,01,F0,03,02,
20324655,000001A6,false,Rx,0,8,04,00,02,00,02,00,28,FA,
20324879,000000A9,false,Rx,0,8,8D,1C,57,FF,14,57,FF,05,
20325106,000000AA,false,Rx,0,8,A6,CC,01,00,3C,0D,80,64,
20333038,000000C4,false,Rx,0,7,29,0A,FC,00,00,FF,F1,00,
20334016,000000A8,false,Rx,0,8,EE,AD,01,A0,01,F0,03,02,
20334249,000000A9,false,Rx,0,8,7E,1D,57,EF,14,57,FF,05,
20334656,000000AA,false,Rx,0,8,87,AD,01,00,3C,0D,80,64,
20340946,00000497,false,Rx,0,8,29,42,FF,FF,FF,FF,FF,FF,
20343035,000000B6,false,Rx,0,5,0D,0D,80,00,C8,00,00,00,
20343266,000000C4,false,Rx,0,7,29,0A,FC,00,00,FF,F1,00,
20343490,000000CE,false,Rx,0,8,00,00,00,00,00,00,00,00,
20343716,0000019E,false,Rx,0,8,00,E0,2F,FC,FE,00,00,AB,
20343949,000001A0,false,Rx,0,8,00,80,00,E0,FF,FE,DF,E1,
20344183,000000A8,false,Rx,0,8,EF,AE,01,A0,01,F0,03,02,
20344418,000002B2,false,Rx,0,8,00,00,00,00,40,00,00,04,
20344642,000000A9,false,Rx,0,8,5F,1E,57,EF,14,57,DF,05,
20344865,000000AA,false,Rx,0,8,88,AE,01,00,3C,0D,80,64,
20353001,000000C4,false,Rx,0,7,29,0A,FC,00,00,FF,F1,00,
20354352,000000A8,false,Rx,0,8,E1,A0,01,A0,01,F0,03,02,
20354576,000000A9,false,Rx,0,8,51,10,57,EF,14,57,DF,05,
20354801,000000AA,false,Rx,0,8,7A,A0,01,00,3C,0D,80,64,
20357147,000001B4,false,Rx,0,8,00,D0,E2,F6,04,32,FE,95,
20363051,000000B6,false,Rx,0,5,0E,0E,80,00,C8,00,00,00,
20363091,000000C4,false,Rx,0,7,29,0A,FC,00,00,FF,F1,00,
20363506,000000CE,false,Rx,0,8,00,00,00,00,00,00,00,00,
20363730,0000019E,false,Rx,0,8,00,E0,2F,FC,FE,00,00,AB,
20363956,000001A0,false,Rx,0,8,00,80,00,50,00,FE,EF,61,
20364193,000000A8,false,Rx,0,8,E2,A1,01,A0,01,F0,03,02,
20364417,000002B2,false,Rx,0,8,00,00,00,00,40,00,00,04,
20364642,000000A9,false,Rx,0,8,22,11,57,EF,14,57,AF,05,
20364866,000000AA,false,Rx,0,8,77,A1,01,00,38,0D,80,64,
20370038,000001B6,false,Rx,0,7,00,FC,30,04,46,A0,26,00,
20373179,000000C4,false,Rx,0,7,29,0A,FC,00,00,FF,F1,00,
20373184,000001D6,false,Rx,0,2,FF,F3,00,00,00,00,00,00,
20375643,000000A8,false,Rx,0,8,E3,A2,01,A0,01,F0,03,02,
20375877,000000A9,false,Rx,0,8,23,12,57,EF,14,57,AF,05,
20376105,000000AA,false,Rx,0,8,78,A2,01,00,38,0D,80,64,
20381283,0000031A,false,Rx,0,2,FD,FF,00,00,00,00,00,00,
20383193,000000B6,false,Rx,0,5,FF,00,80,00,C8,00,00,00,
20383198,000000C4,false,Rx,0,7,29,0A,FC,00,00,FF,F1,00,
20383609,000000CE,false,Rx,0,8,00,00,00,00,00,00,00,00,
20383844,0000019E,false,Rx,0,8,00,E0,2F,FC,FE,00,00,AB,
20384069,000000A8,false,Rx,0,8,E4,A3,01,A0,01,F0,03,02,
20384297,000001A0,false,Rx,0,8,00,80,00,E0,FF,00,00,02,
20384525,000000A9,false,Rx,0,8,F3,13,57,EF,14,57,7F,05,
20384750,000002B2,false,Rx,0,8,00,00,00,00,50,00,00,04,
20384974,000000AA,false,Rx,0,8,79,A3,01,00,38,0D,80,64,
20389415,00000130,false,Rx,0,5,45,43,21,8F,87,00,00,00,
20393161,000000C4,false,Rx,0,7,29,0A,FC,00,00,FF,F1,00,
20394317,000000A8,false,Rx,0,8,E5,A4,01,A0,01,F0,03,02,
20394541,000000A9,false,Rx,0,8,35,14,57,EF,14,57,BF,05,
20394766,000000AA,false,Rx,0,8,7A,A4,01,00,38,0D,80,64,
20403010,000000B6,false,Rx,0,5,00,01,80,00,C8,00,00,00,
20403244,000000C4,false,Rx,0,7,29,0A,FC,00,00,FF,F1,00,
20403469,000000CE,false,Rx,0,8,00,00,00,00,00,00,00,00,
20403877,0000019E,false,Rx,0,8,00,E0,2F,FC,FE,00,00,AB,
20404102,000001A0,false,Rx,0,8,00,80,00,F0,FF,FE,1F,31,
20404333,000000A8,false,Rx,0,8,E6,A5,01,A0,01,F0,03,02,
20404560,000002B2,false,Rx,0,8,00,00,00,00,40,00,00,04,
20404788,000000A9,false,Rx,0,8,36,15,57,EF,14,57,BF,05,
20405012,000000AA,false,Rx,0,8,7B,A5,01,00,38,0D,80,64,
20413043,000000C4,false,Rx,0,7,29,0A,FC,00,00,FF,F1,00,
20414010,000000A8,false,Rx,0,8,E7,A6,01,A0,01,F0,03,02,
20414428,000000A9,false,Rx,0,8,87,16,57,EF,14,57,0F,06,
20414651,000000AA,false,Rx,0,8,7C,A6,01,00,38,0D,80,64,
20416388,000002C0,false,Rx,0,3,3F,81,37,00,00,00,00,00,
20418449,000001D0,false,Rx,0,8,47,FF,6B,C2,E9,EE,CD,A9,
20423070,000000B6,false,Rx,0,5,02,02,80,00,C8,00,00,00,
20423300,000000C4,false,Rx,0,7,29,0A,FC,00,00,FF,F1,00,
20423523,000000CE,false,Rx,0,8,00,00,00,00,00,00,00,00,
20423748,0000019E,false,Rx,0,8,00,E0,2F,FC,FE,00,00,AB,
20423972,000001A0,false,Rx,0,8,00,80,00,30,00,FE,2F,80,
20424205,000002B2,false,Rx,0,8,00,00,00,00,40,00,00,04,
20424428,000000A8,false,Rx,0,8,E8,A7,01,A0,01,F0,03,02,
20424652,000001A6,false,Rx,0,8,04,00,02,00,02,00,B8,FB,
20424877,000000A9,false,Rx,0,8,88,17,57,EF,14,57,0F,06,
20425105,000004A9,false,Rx,0,8,00,42,FF,FF,FF,FF,FF,FF,
20425336,000000AA,false,Rx,0,8,7D,A7,01,00,38,0D,80,64,
20432983,000000C4,false,Rx,0,7,29,0A,FC,00,00,FF,F1,00,
20434142,000000A8,false,Rx,0,8,0A,B8,01,B0,01,F0,03,02,
20434372,000000A9,false,Rx,0,8,29,18,57,EF,14,57,AF,05,
20434596,000000AA,false,Rx,0,8,76,A8,01,00,30,0D,80,64,
20442920,000000B6,false,Rx,0,5,03,03,80,00,C8,00,00,00,
20443151,000000C4,false,Rx,0,7,29,0A,FC,00,00,FF,F1,00,
20443399,000000CE,false,Rx,0,8,00,00,00,00,00,00,00,00,
20443630,0000019E,false,Rx,0,8,00,E0,2F,FC,FE,00,00,AB,
20443861,000001A0,false,Rx,0,8,00,80,00,90,FF,FE,3F,F0,
20444109,000002B2,false,Rx,0,8,00,00,00,00,40,00,00,04,
20445634,000000A8,false,Rx,0,8,0B,B9,01,B0,01,F0,03,02,
20445858,000000A9,false,Rx,0,8,2A,19,57,EF,14,57,AF,05,
20446084,000000AA,false,Rx,0,8,77,A9,01,00,30,0D,80,64,
20453016,000001B6,false,Rx,0,7,00,FC,30,04,46,A0,26,00,
20453022,000000C4,false,Rx,0,7,29,0A,FC,00,00,FF,F1,00,
20454218,000000A8,false,Rx,0,8,0C,BA,01,B0,01,F0,03,02,
20454442,000000A9,false,Rx,0,8,4B,1A,57,FF,14,57,BF,05,
20454858,000000AA,false,Rx,0,8,88,BA,01,00,30,0D,80,64,
20455090,00000200,false,Rx,0,8,42,81,C0,00,00,00,00,00,
20457957,000001B4,false,Rx,0,8,00,D0,E2,F7,04,32,FE,96,
20462947,000000B6,false,Rx,0,5,04,04,80,00,C8,00,00,00,
20463182,000000C4,false,Rx,0,7,29,0A,FC,00,00,FF,F1,00,
20463405,000000CE,false,Rx,0,8,00,00,00,00,00,00,00,00,
20463630,0000019E,false,Rx,0,8,00,E0,2F,FC,FE,00,00,AB,
20464043,000001A0,false,Rx,0,8,00,80,00,50,00,FE,4F,C0,
20464274,000002B2,false,Rx,0,8,00,00,00,00,40,00,00,04,
20465778,000000A8,false,Rx,0,8,FC,AB,01,B0,01,F0,03,02,
20466005,000000A9,false,Rx,0,8,2C,1B,57,FF,14,57,9F,05,
20466240,000000AA,false,Rx,0,8,8D,BB,01,00,34,0D,80,64,
20473200,000000C4,false,Rx,0,7,29,0A,FC,00,00,FF,F1,00,
20473205,00000194,false,Rx,0,4,E2,F1,00,F0,00,00,00,00,
20473441,000001D6,false,Rx,0,2,FF,F3,00,00,00,00,00,00,
20474233,000000A8,false,Rx,0,8,FD,AC,01,B0,01,F0,03,02,
20474464,000000A9,false,Rx,0,8,2D,1C,57,FF,14,57,9F,05,
20474687,000000AA,false,Rx,0,8,8E,BC,01,00,34,0D,80,64,
20480072,0000031A,false,Rx,0,2,FD,FF,00,00,00,00,00,00,
20483072,000000B6,false,Rx,0,5,05,05,80,00,C8,00,00,00,
20483306,000000C4,false,Rx,0,7,29,0A,FC,00,00,FF,F1,00,
20483530,000000CE,false,Rx,0,8,00,00,00,00,00,00,00,00,
20483755,0000019E,false,Rx,0,8,00,E0,2F,FC,FE,00,00,AB,
20483979,000001A0,false,Rx,0,8,00,80,00,C0,FF,FE,5F,41,
20484214,000000A8,false,Rx,0,8,FE,AD,01,B0,01,F0,03,02,
20484451,000002B2,false,Rx,0,8,00,00,00,00,40,00,00,04,
20484675,000000A9,false,Rx,0,8,DD,1D,57,FF,14,57,4F,05,
20484898,000000AA,false,Rx,0,8,8F,BD,01,00,34,0D,80,64,
20489927,00000130,false,Rx,0,5,45,43,21,8F,98,00,00,00,
20493199,000000C4,false,Rx,0,7,29,0A,FC,00,00,FF,F1,00,
20494178,000000A8,false,Rx,0,8,FF,AE,01,B0,01,F0,03,02,
20494586,000000A9,false,Rx,0,8,DE,1E,57,FF,14,57,4F,05,
20494809,000000AA,false,Rx,0,8,90,BE,01,00,34,0D,80,64,
20503154,000000B6,false,Rx,0,5,06,06,80,00,C8,00,00,00,
20503384,000000C4,false,Rx,0,7,29,0A,FC,00,00,FF,F1,00,
20503608,000000CE,false,Rx,0,8,00,00,00,00,00,00,00,00,
20503832,0000019E,false,Rx,0,8,00,E0,2F,FC,FE,00,00,AB,
20504061,000001A0,false,Rx,0,8,00,80,00,60,00,FE,6F,F0,
20504291,000000A8,false,Rx,0,8,01,B0,01,B0,01,F0,03,02,
20504516,000002B2,false,Rx,0,8,00,00,00,00,40,00,00,04,
20504740,000000A9,false,Rx,0,8,11,10,57,FF,14,57,8F,05,
20504965,000000AA,false,Rx,0,8,7E,B0,01,00,30,0D,80,64,
20513124,000000C4,false,Rx,0,7,29,0A,FC,00,00,FF,F1,00,
20513373,000000C8,false,Rx,0,6,1D,0A,AC,00,00,1C,00,00,
20513613,00000480,false,Rx,0,8,12,42,FD,FF,FF,FF,FF,FF,
20514407,000000A8,false,Rx,0,8,03,B1,01,B0,01,F0,03,02,
20514630,000000A9,false,Rx,0,8,22,11,57,FF,14,57,9F,05,
20514854,000000AA,false,Rx,0,8,7F,B1,01,00,30,0D,80,64,
20518446,000001D0,false,Rx,0,8,47,FF,6C,C3,1B,EF,CD,A9,
20523066,000000B6,false,Rx,0,5,07,07,80,00,C8,00,00,00,
20523297,000000C4,false,Rx,0,7,29,0A,FC,00,00,FF,F1,00,
20523524,000000CE,false,Rx,0,8,00,00,00,00,00,00,00,00,
20523749,0000019E,false,Rx,0,8,00,E0,3F,FC,FE,00,00,BB,
20523973,000001A0,false,Rx,0,8,00,80,00,E0,FF,FE,7F,81,
20524206,000000A8,false,Rx,0,8,04,B2,01,B0,01,F0,03,02,
20524430,000002B2,false,Rx,0,8,00,00,00,00,40,00,00,04,
20524655,000000A9,false,Rx,0,8,43,12,57,FF,14,57,BF,05,
20524878,000001A6,false,Rx,0,8,04,00,02,00,02,00,48,FD,
20525104,000000AA,false,Rx,0,8,80,B2,01,00,30,0D,80,64,
20530286,000001B6,false,Rx,0,7,00,FC,2E,04,46,A0,26,00,
20533312,000000C4,false,Rx,0,7,29,0A,FC,00,00,FF,F1,00,
20535242,000000A8,false,Rx,0,8,05,B3,01,B0,01,F0,03,02,
20535470,000000A9,false,Rx,0,8,44,13,57,FF,14,57,BF,05,
20535707,000000AA,false,Rx,0,8,81,B3,01,00,30,0D,80,64,
20542939,000000B6,false,Rx,0,5,08,08,80,00,C8,00,00,00,
20543172,000000C4,false,Rx,0,7,29,0A,FC,00,00,FF,F1,00,
20543397,000000CE,false,Rx,0,8,00,00,00,00,00,00,00,00,
20543805,0000019E,false,Rx,0,8,00,E0,3F,FC,FE,00,00,BB,
20544032,000001A0,false,Rx,0,8,00,80,00,10,00,FE,8F,C0,
20544261,000000A8,false,Rx,0,8,26,C4,01,C0,01,F0,03,02,
20544489,000002B2,false,Rx,0,8,00,00,00,00,40,00,00,04,
20544717,000000A9,false,Rx,0,8,F4,14,57,FF,14,57,6F,05,
20544941,000000AA,false,Rx,0,8,7A,B4,01,00,28,0D,80,64,
20553425,000000C4,false,Rx,0,7,29,0A,FC,00,00,FF,F1,00,
20554050,000000A8,false,Rx,0,8,37,C5,01,D0,01,F0,03,02,
20554281,000000A9,false,Rx,0,8,16,15,57,0F,15,57,7F,05,
20554505,000000AA,false,Rx,0,8,87,C5,01,00,24,0D,80,64,
20557154,000001B4,false,Rx,0,8,00,D0,E2,F8,04,32,FE,97,
20563060,000000B6,false,Rx,0,5,09,09,80,00,C8,00,00,00,
20563291,000000C4,false,Rx,0,7,29,0A,FC,00,00,FF,F1,00,
20563519,000000CE,false,Rx,0,8,00,00,00,00,00,00,00,00,
20563747,0000019E,false,Rx,0,8,00,E0,3F,FC,FE,00,00,BB,
20563972,000001A0,false,Rx,0,8,00,80,00,10,00,FE,9F,D0,
20564205,000002B2,false,Rx,0,8,00,00,00,00,40,00,00,04,
20564430,000000A8,false,Rx,0,8,38,C6,01,D0,01,F0,03,02,
20564653,000000A9,false,Rx,0,8,17,16,57,0F,15,57,7F,05,
20564878,000000AA,false,Rx,0,8,88,C6,01,00,24,0D,80,64,
20573415,000000C4,false,Rx,0,7,29,0A,FC,00,00,FF,F1,00,
20573420,000001D6,false,Rx,0,2,FF,F3,00,00,00,00,00,00,
20574228,000000A8,false,Rx,0,8,29,C7,01,C0,01,F0,03,02,
20574452,000000A9,false,Rx,0,8,08,17,57,0F,15,57,6F,05,
20574676,000000AA,false,Rx,0,8,A1,D7,01,00,2C,0D,80,64,
20580070,0000031A,false,Rx,0,2,FD,FF,00,00,00,00,00,00,
20583042,000000B6,false,Rx,0,5,0A,0A,80,00,C8,00,00,00,
20583274,000000C4,false,Rx,0,7,29,0A,FC,00,00,FF,F1,00,
20583497,000000CE,false,Rx,0,8,00,00,00,00,00,00,00,00,
20583721,0000019E,false,Rx,0,8,00,E0,3F,FC,FE,00,00,BB,
20584131,000000A8,false,Rx,0,8,2A,C8,01,C0,01,F0,03,02,
20584362,000001A0,false,Rx,0,8,00,80,00,B0,FF,FE,AF,81,
20584586,000000A9,false,Rx,0,8,09,18,57,0F,15,57,6F,05,
20584809,000002B2,false,Rx,0,8,00,00,00,00,40,00,00,04,
20585035,000000AA,false,Rx,0,8,A2,D8,01,00,2C,0D,80,64,
20589295,00000130,false,Rx,0,5,45,43,21,8F,A9,00,00,00,
20593413,000000C4,false,Rx,0,7,29,0A,FC,00,00,FF,F1,00,
20594027,000000A8,false,Rx,0,8,0B,B9,01,B0,01,F0,03,02,
20594265,000000A9,false,Rx,0,8,F9,19,57,FF,14,57,6F,05,
20594505,000000AA,false,Rx,0,8,9B,C9,01,00,34,0D,80,64,
20603035,000000B6,false,Rx,0,5,0B,0B,80,00,C8,00,00,00,
20603260,000000C4,false,Rx,0,7,29,0A,FC,00,00,FF,F1,00,
20603484,000000CE,false,Rx,0,8,00,00,00,00,00,00,00,00,
20603708,0000019E,false,Rx,0,8,00,E0,3F,FC,FE,00,00,BB,
20604120,000000A8,false,Rx,0,8,0C,BA,01,B0,01,F0,03,02,
20604352,000001A0,false,Rx,0,8,00,80,00,50,00,FE,BF,31,
20604575,000000A9,false,Rx,0,8,FA,1A,57,FF,14,57,6F,05,
20604798,000002B2,false,Rx,0,8,00,00,00,00,40,00,00,04,
20605027,000000AA,false,Rx,0,8,9C,CA,01,00,34,0D,80,64,
20605262,00000492,false,Rx,0,8,17,42,FF,FF,FF,FF,FF,FF,
20611711,000001B6,false,Rx,0,7,00,FC,2C,04,46,A0,26,00,
20613458,000000C4,false,Rx,0,7,29,0A,FC,00,00,FF,F1,00,
20613880,000000A8,false,Rx,0,8,0D,BB,01,B0,01,F0,03,02,
20614296,000000A9,false,Rx,0,8,FB,1B,57,FF,14,57,6F,05,
20614536,000000AA,false,Rx,0,8,8D,BB,01,00,34,0D,80,64,
20618856,000001D0,false,Rx,0,8,47,FF,6C,C2,4D,EF,CD,A9,
20622927,000000B6,false,Rx,0,5,0C,0C,80,00,C8,00,00,00,
20623152,000000C4,false,Rx,0,7,29,0A,FC,00,00,FF,F1,00,
20623383,000000CE,false,Rx,0,8,00,00,00,00,00,00,00,00,
20623608,0000019E,false,Rx,0,8,00,E0,3F,FC,FE,00,00,BB,
20624016,000001A0,false,Rx,0,8,00,80,00,C0,FF,FE,CF,B1,
20624248,000002B2,false,Rx,0,8,00,00,00,00,40,00,00,04,
20624472,000001A6,false,Rx,0,8,04,00,02,00,02,00,D8,FE,
20625061,000000A8,false,Rx,0,8,2E,CC,01,C0,01,F0,03,02,
20625292,000000A9,false,Rx,0,8,5D,1C,57,FF,14,57,CF,05,
20625515,000000AA,false,Rx,0,8,86,BC,01,00,2C,0D,80,64,
20633485,000000C4,false,Rx,0,7,29,0A,FC,00,00,FF,F1,00,
20634107,000000A8,false,Rx,0,8,2F,CD,01,C0,01,F0,03,02,
20634338,000000A9,false,Rx,0,8,5E,1D,57,FF,14,57,CF,05,
20634746,000000AA,false,Rx,0,8,97,CD,01,00,2C,0D,80,64,
20642906,000000B6,false,Rx,0,5,0D,0D,80,00,C8,00,00,00,
20643131,000000C4,false,Rx,0,7,29,0A,FC,00,00,FF,F1,00,
20643363,000000CE,false,Rx,0,8,00,00,00,00,00,00,00,00,
20643771,0000019E,false,Rx,0,8,00,E0,3F,FC,FE,00,00,BB,
20643996,000001A0,false,Rx,0,8,00,80,00,60,00,FE,DF,61,
20644240,000000A8,false,Rx,0,8,10,BE,01,B0,01,F0,03,02,
20644465,000002B2,false,Rx,0,8,00,00,00,00,40,00,00,04,
20644689,000000A9,false,Rx,0,8,AF,1E,57,FF,14,57,1F,06,
20644913,000000AA,false,Rx,0,8,A0,CE,01,00,34,0D,80,64,
20653746,000000C4,false,Rx,0,7,29,0A,FC,00,00,FF,F1,00,
20653989,000000A8,false,Rx,0,8,01,B0,01,B0,01,F0,03,02,
20654225,000000A9,false,Rx,0,8,A1,10,57,FF,14,57,1F,06,
20654447,000000AA,false,Rx,0,8,92,C0,01,00,34,0D,80,64,
20654856,00000200,false,Rx,0,8,42,81,C0,00,00,00,00,00,
20657655,000001B4,false,Rx,0,8,00,D0,E2,F9,04,32,FE,98,
20663061,000000B6,false,Rx,0,5,0E,0E,80,00,C8,00,00,00,
20663292,000000C4,false,Rx,0,7,29,0A,FC,00,00,FF,F1,00,
20663514,000000CE,false,Rx,0,8,00,00,00,00,00,00,00,00,
20663739,0000019E,false,Rx,0,8,00,E0,3F,FC,FE,00,00,BB,
20663967,000001A0,false,Rx,0,8,00,80,00,70,FF,FE,EF,81,
20664203,000000A8,false,Rx,0,8,03,B1,01,B0,01,F0,03,02,
20664427,000002B2,false,Rx,0,8,00,00,00,00,40,00,00,04,
20664652,000000A9,false,Rx,0,8,52,11,57,FF,14,57,CF,05,
20664876,000000AA,false,Rx,0,8,93,C1,01,00,34,0D,80,64,
20673775,000000C4,false,Rx,0,7,29,0A,FC,00,00,FF,F1,00,
20673780,00000194,false,Rx,0,4,E3,F2,00,F0,00,00,00,00,
20673784,000001D6,false,Rx,0,2,FF,F3,00,00,00,00,00,00,
20674230,000000A8,false,Rx,0,8,04,B2,01,B0,01,F0,03,02,
20674460,000000A9,false,Rx,0,8,53,12,57,FF,14,57,CF,05,
20674685,000000AA,false,Rx,0,8,94,C2,01,00,34,0D,80,64,
20680098,0000031A,false,Rx,0,2,FD,FF,00,00,00,00,00,00,
20683068,000000B6,false,Rx,0,5,FF,00,80,00,C8,00,00,00,
20683298,000000C4,false,Rx,0,7,29,0A,FC,00,00,FF,F1,00,
20683523,000000CE,false,Rx,0,8,00,00,00,00,00,00,00,00,
20683747,0000019E,false,Rx,0,8,00,E0,3F,FC,FE,00,00,BB,
20683972,000000A8,false,Rx,0,8,25,C3,01,C0,01,F0,03,02,
20684203,000001A0,false,Rx,0,8,00,80,00,60,00,FE,0F,90,
20684427,000000A9,false,Rx,0,8,34,13,57,FF,14,57,AF,05,
20684651,000002B2,false,Rx,0,8,00,00,00,00,40,00,00,04,
20685061,000000AA,false,Rx,0,8,91,C3,01,00,30,0D,80,64,
20689318,00000130,false,Rx,0,5,45,43,21,8F,BA,00,00,00,
20689906,000001B6,false,Rx,0,7,00,FC,2E,04,46,A0,26,00,
20693924,000000C4,false,Rx,0,7,29,0A,FC,00,00,FF,F1,00,
20695458,000000A8,false,Rx,0,8,26,C4,01,C0,01,F0,03,02,
20695682,000000A9,false,Rx,0,8,35,14,57,FF,14,57,AF,05,
20695907,000000AA,false,Rx,0,8,92,C4,01,00,30,0D,80,64,
20701113,00000497,false,Rx,0,8,29,42,FF,FF,FF,FF,FF,FF,
20703254,000000B6,false,Rx,0,5,00,01,80,00,C8,00,00,00,
20703259,000000C4,false,Rx,0,7,29,0A,FC,00,00,FF,F1,00,
20703666,000000CE,false,Rx,0,8,00,00,00,00,00,00,00,00,
20703890,0000019E,false,Rx,0,8,00,E0,3F,FC,FE,00,00,BB,
20704120,000000A8,false,Rx,0,8,17,B5,01,C0,01,F0,03,02,
20704356,000001A0,false,Rx,0,8,00,80,00,00,00,FE,1F,40,
20704580,000000A9,false,Rx,0,8,66,15,57,FF,14,57,DF,05,
20704805,000002B2,false,Rx,0,8,00,00,00,00,40,00,00,04,
20705030,000000AA,false,Rx,0,8,97,C5,01,00,34,0D,80,64,
20713963,000000C4,false,Rx,0,7,29,0A,FC,00,00,FF,F1,00,
20713968,000000C8,false,Rx,0,6,1D,0A,0C,00,00,2C,00,00,
20714219,000000A8,false,Rx,0,8,28,C6,01,C0,01,F0,03,02,
20714454,000000A9,false,Rx,0,8,57,16,57,FF,14,57,CF,05,
20714682,000000AA,false,Rx,0,8,94,C6,01,00,30,0D,80,64,
20718452,000001D0,false,Rx,0,8,47,FF,6D,C2,7F,EF,CD,A9,
20722892,000000B6,false,Rx,0,5,02,02,80,00,C8,00,00,00,
20723117,000000C4,false,Rx,0,7,29,0A,FC,00,00,FF,F1,00,
20723532,000000CE,false,Rx,0,8,00,00,00,00,00,00,00,00,
20723756,0000019E,false,Rx,0,8,00,E0,3F,FC,FE,00,00,BB,
20723979,000000A8,false,Rx,0,8,29,C7,01,C0,01,F0,03,02,
20724213,000001A0,false,Rx,0,8,00,80,00,00,00,FE,2F,50,
20724438,000000A9,false,Rx,0,8,58,17,57,FF,14,57,CF,05,
20724662,000002B2,false,Rx,0,8,00,00,00,00,40,00,00,04,
20724886,000000AA,false,Rx,0,8,95,C7,01,00,30,0D,80,64,
20725113,000001A6,false,Rx,0,8,04,00,02,00,02,00,68,F0,
20734040,000000C4,false,Rx,0,7,29,0A,FC,00,00,FF,F1,00,
20734045,000000A8,false,Rx,0,8,2A,C8,01,C0,01,F0,03,02,
20734298,000000A9,false,Rx,0,8,59,18,57,FF,14,57,CF,05,
20734527,000000AA,false,Rx,0,8,96,C8,01,00,30,0D,80,64,
20743076,000000B6,false,Rx,0,5,03,03,80,00,C8,00,00,00,
20743307,000000C4,false,Rx,0,7,29,0A,FC,00,00,FF,F1,00,
20743530,000000CE,false,Rx,0,8,00,00,00,00,00,00,00,00,
20743754,0000019E,false,Rx,0,8,00,E0,4F,FC,FE,00,00,CB,
20743982,000001A0,false,Rx,0,8,00,80,00,00,00,FE,3F,60,
20744214,000000A8,false,Rx,0,8,2B,C9,01,C0,01,F0,03,02,
20744438,000002B2,false,Rx,0,8,00,00,00,00,40,00,00,04,
20744662,000000A9,false,Rx,0,8,5A,19,57,FF,14,57,CF,05,
20744887,000000AA,false,Rx,0,8,97,C9,01,00,30,0D,80,64,
20754359,000000C4,false,Rx,0,7,29,0A,FC,00,00,FF,F1,00,
20754364,000000A8,false,Rx,0,8,4C,DA,01,D0,01,F0,03,02,
20754369,000000A9,false,Rx,0,8,8B,1A,57,FF,14,57,FF,05,
20754374,000000AA,false,Rx,0,8,90,CA,01,00,28,0D,80,64,
20757186,000001B4,false,Rx,0,8,00,D0,E2,FA,04,32,FE,99,
20762976,000000B6,false,Rx,0,5,04,04,80,00,C8,00,00,00,
20763211,000000C4,false,Rx,0,7,29,0A,FC,00,00,FF,F1,00,
20763435,000000CE,false,Rx,0,8,00,00,00,00,00,00,00,00,
20763660,0000019E,false,Rx,0,8,00,E0,4F,FC,FE,00,00,CB,
20763884,000001A0,false,Rx,0,8,00,80,00,C0,FF,FE,4F,31,
20764108,000000A8,false,Rx,0,8,4D,DB,01,D0,01,F0,03,02,
20764340,000002B2,false,Rx,0,8,00,00,00,00,40,00,00,04,
20764564,000000A9,false,Rx,0,8,8C,1B,57,FF,14,57,FF,05,
20764971,000000AA,false,Rx,0,8,91,CB,01,00,28,0D,80,64,
20771430,000001B6,false,Rx,0,7,00,FC,2F,04,46,A0,26,00,
20774358,000000C4,false,Rx,0,7,29,0A,FC,00,00,FF,F1,00,
20774363,000001D6,false,Rx,0,2,FF,F3,00,00,00,00,00,00,
20774368,000000A8,false,Rx,0,8,4E,DC,01,D0,01,F0,03,02,
20774373,000000A9,false,Rx,0,8,9D,1C,57,0F,15,57,FF,05,
20774378,000000AA,false,Rx,0,8,9E,DC,01,00,24,0D,80,64,
20780011,0000031A,false,Rx,0,2,FD,FF,00,00,00,00,00,00,
20783213,000000B6,false,Rx,0,5,05,05,80,00,C8,00,00,00,
20783218,000000C4,false,Rx,0,7,29,0A,FC,00,00,FF,F1,00,
20783625,000000CE,false,Rx,0,8,00,00,00,00,00,00,00,00,
20783849,0000019E,false,Rx,0,8,00,E0,4F,FC,FE,00,00,CB,
20784078,000001A0,false,Rx,0,8,00,80,00,60,00,FE,5F,E0,
20784304,000002B2,false,Rx,0,8,00,00,00,00,40,00,00,04,
20784528,000004A9,false,Rx,0,8,00,42,FF,FF,FF,FF,FF,FF,
20785305,000000A8,false,Rx,0,8,2F,CD,01,C0,01,F0,03,02,
20785530,000000A9,false,Rx,0,8,CE,1D,57,0F,15,57,2F,06,
20785753,000000AA,false,Rx,0,8,AF,DD,01,00,34,0D,80,64,
20789284,00000130,false,Rx,0,5,45,43,21,8F,CB,00,00,00,
20794450,000000C4,false,Rx,0,7,29,0A,FC,00,00,FF,F1,00,
20794455,000000A8,false,Rx,0,8,30,CE,01,C0,01,F0,03,02,
20794495,000000A9,false,Rx,0,8,BF,1E,57,FF,14,57,2F,06,
20794500,000000AA,false,Rx,0,8,A0,CE,01,00,34,0D,80,64,
20803045,000000B6,false,Rx,0,5,06,06,80,00,C8,00,00,00,
20803276,000000C4,false,Rx,0,7,29,0A,FC,00,00,FF,F1,00,
20803684,000000CE,false,Rx,0,8,00,00,00,00,00,00,00,00,
20803908,0000019E,false,Rx,0,8,00,E0,4F,FC,FE,00,00,CB,
20804135,000000A8,false,Rx,0,8,22,C0,01,C0,01,F0,03,02,
20804366,000001A0,false,Rx,0,8,00,80,00,90,FF,FE,6F,21,
20804594,000000A9,false,Rx,0,8,21,10,57,FF,14,57,9F,05,
20804818,000002B2,false,Rx,0,8,00,00,00,00,40,00,00,04,
20805043,000000AA,false,Rx,0,8,92,C0,01,00,34,0D,80,64,
20814537,000000C4,false,Rx,0,7,29,0A,FC,00,00,FF,F1,00,
20814542,000000A8,false,Rx,0,8,23,C1,01,C0,01,F0,03,02,
20814547,000000A9,false,Rx,0,8,22,11,57,FF,14,57,9F,05,
20814979,000000AA,false,Rx,0,8,93,C1,01,00,34,0D,80,64,
20817245,000001D0,false,Rx,0,8,47,FF,6D,C2,B1,EF,CD,A9,
20823030,000000B6,false,Rx,0,5,07,07,80,00,C8,00,00,00,
20823262,000000C4,false,Rx,0,7,29,0A,FC,00,00,FF,F1,00,
20823486,000000CE,false,Rx,0,8,00,00,00,00,00,00,00,00,
20823710,0000019E,false,Rx,0,8,00,E0,4F,FC,FE,00,00,CB,
20823934,000000A8,false,Rx,0,8,04,B2,01,B0,01,F0,03,02,
20824159,000001A0,false,Rx,0,8,00,80,00,50,00,FE,7F,F0,
20824390,000000A9,false,Rx,0,8,33,12,57,FF,14,57,AF,05,
20824615,000002B2,false,Rx,0,8,00,00,00,00,40,00,00,04,
20825024,000000AA,false,Rx,0,8,98,C2,01,00,38,0D,80,64,
20825256,000001A6,false,Rx,0,8,04,00,02,00,02,00,F8,F1,
20832986,000000C4,false,Rx,0,7,29,0A,FC,00,00,FF,F1,00,
20834566,000000A8,false,Rx,0,8,05,B3,01,B0,01,F0,03,02,
20834571,000000A9,false,Rx,0,8,24,13,57,EF,14,57,AF,05,
20834576,000000AA,false,Rx,0,8,99,C3,01,00,38,0D,80,64,
20842946,000000B6,false,Rx,0,5,08,08,80,00,C8,00,00,00,
20843180,000000C4,false,Rx,0,7,29,0A,FC,00,00,FF,F1,00,
20843405,000000CE,false,Rx,0,8,00,00,00,00,00,00,00,00,
20843813,0000019E,false,Rx,0,8,00,E0,4F,FC,FE,00,00,CB,
20844041,000001A0,false,Rx,0,8,00,80,00,E0,FF,FE,8F,91,
20844282,000000A8,false,Rx,0,8,26,C4,01,C0,01,F0,03,02,
20844507,000002B2,false,Rx,0,8,00,00,00,00,40,00,00,04,
20844731,000000A9,false,Rx,0,8,25,14,57,EF,14,57,AF,05,
20844955,000000AA,false,Rx,0,8,96,C4,01,00,34,0D,80,64,
20850356,000001B6,false,Rx,0,7,00,FC,2E,04,46,A0,26,00,
20852980,000000C4,false,Rx,0,7,29,0A,FC,00,00,FF,F1,00,
20855087,000000A8,false,Rx,0,8,27,C5,01,C0,01,F0,03,02,
20855502,000000A9,false,Rx,0,8,36,15,57,FF,14,57,AF,05,
20855726,000000AA,false,Rx,0,8,97,C5,01,00,34,0D,80,64,
20855950,00000200,false,Rx,0,8,42,81,C0,00,00,00,00,00,
20856927,000001B4,false,Rx,0,8,00,D0,E2,FB,04,32,FE,9A,
20862903,000000B6,false,Rx,0,5,09,09,80,00,C8,00,00,00,
20863129,000000C4,false,Rx,0,7,29,0A,FC,00,00,FF,F1,00,
20863543,000000CE,false,Rx,0,8,00,00,00,00,00,00,00,00,
20863767,0000019E,false,Rx,0,8,00,E0,4F,FC,FE,00,00,CB,
20863991,000001A0,false,Rx,0,8,00,80,00,00,00,00,90,B2,
20864229,000000A8,false,Rx,0,8,68,E6,01,E0,01,F0,03,02,
20864453,000002B2,false,Rx,0,8,00,00,00,00,50,00,00,04,
20864678,000000A9,false,Rx,0,8,F6,16,57,FF,14,57,6F,05,
20864902,000000AA,false,Rx,0,8,84,C6,01,00,20,0D,80,64,
20873011,000000C4,false,Rx,0,7,29,0A,FC,00,00,FF,F1,00,
20873245,00000194,false,Rx,0,4,E4,F3,00,F0,00,00,00,00,
20874912,000001D6,false,Rx,0,2,FF,F3,00,00,00,00,00,00,
20874916,00000480,false,Rx,0,8,12,42,FD,FF,FF,FF,FF,FF,
20874922,000000A8,false,Rx,0,8,99,F7,01,00,02,F0,03,02,
