Time Stamp,ID,Extended,Dir,Bus,LEN,D1,D2,D3,D4,D5,D6,D7,D8
20855340,00000480,false,Rx,0,8,00,01,FD,FF,FF,FF,FF,FF,
20859116,00000130,false,Rx,0,5,00,03,C0,0F,EA,00,00,00,
20861472,000000A8,false,Rx,0,8,69,0B,21,E0,21,1F,0F,64,
20861698,000000A9,false,Rx,0,8,F4,0B,79,DF,1D,C7,E0,21,
20861925,000000BA,false,Rx,0,7,03,FF,0F,00,00,58,8B,00,
20870690,000002C0,false,Rx,0,3,FE,81,FE,00,00,00,00,00,
20871484,000000A8,false,Rx,0,8,6A,0C,21,E0,21,1F,0F,64,
20871711,000000A9,false,Rx,0,8,F5,0C,79,DF,1D,C7,E0,21,
20871937,000000BA,false,Rx,0,7,03,FF,0F,00,00,59,8C,00,
20872178,000001D2,false,Rx,0,5,E1,0C,8F,B0,F0,00,00,00,
20874857,000002F8,false,Rx,0,8,10,1A,05,12,6F,E8,07,FD,
20876612,00000330,false,Rx,0,8,71,48,06,26,FF,FF,DC,12,
20878787,00000130,false,Rx,0,5,00,03,C0,0F,FB,00,00,00,
20879980,000003BE,false,Rx,0,2,00,F0,00,00,00,00,00,00,
20881551,000000A8,false,Rx,0,8,6B,0D,21,E0,21,1F,0F,64,
20881777,000000A9,false,Rx,0,8,F6,0D,79,DF,1D,C7,E0,21,
20882004,000000BA,false,Rx,0,7,03,FF,0F,00,00,5A,8D,00,
20891403,000000A8,false,Rx,0,8,6C,0E,21,E0,21,1F,0F,64,
20891627,000000A9,false,Rx,0,8,F7,0E,79,DF,1D,C7,E0,21,
20891853,000000BA,false,Rx,0,7,03,FF,0F,00,00,5B,8E,00,
20901447,000000A8,false,Rx,0,8,5E,00,21,E0,21,1F,0F,64,
20901676,000000A9,false,Rx,0,8,E9,00,79,DF,1D,C7,E0,21,
20901903,000000BA,false,Rx,0,7,03,FF,0F,00,00,4D,80,00,
20911421,000000A8,false,Rx,0,8,5F,01,21,E0,21,1F,0F,64,
20911670,000000A9,false,Rx,0,8,EA,01,79,DF,1D,C7,E0,21,
20911919,000000BA,false,Rx,0,7,03,FF,0F,00,00,4E,81,00,
20915931,00000332,false,Rx,0,2,61,82,00,00,00,00,00,00,
20916169,00000332,false,Rx,0,2,61,82,00,00,00,00,00,00,
20916427,000001D0,false,Rx,0,8,3C,FF,09,C3,00,00,CD,82,
20916433,00000332,false,Rx,0,2,61,82,00,00,00,00,00,00,
20921559,000000A8,false,Rx,0,8,60,02,21,E0,21,1F,0F,64,
20921842,000000A9,false,Rx,0,8,EB,02,79,DF,1D,C7,E0,21,
20921847,000000BA,false,Rx,0,7,03,FF,0F,00,00,4F,82,00,
20931544,000000A8,false,Rx,0,8,61,03,21,E0,21,1F,0F,64,
20931770,000000A9,false,Rx,0,8,EC,03,79,DF,1D,C7,E0,21,
20931996,000000BA,false,Rx,0,7,03,FF,0F,00,00,50,83,00,
20938932,00000480,false,Rx,0,8,00,02,FD,FF,FF,FF,FF,FF,
20938939,000004B0,false,Rx,0,8,30,01,FE,FF,FF,FF,FF,FF,
20941524,000000A8,false,Rx,0,8,62,04,21,E0,21,1F,0F,64,
20941752,000000A9,false,Rx,0,8,ED,04,79,DF,1D,C7,E0,21,
20941978,000000BA,false,Rx,0,7,03,FF,0F,00,00,51,84,00,
20951474,000000A8,false,Rx,0,8,63,05,21,E0,21,1F,0F,64,
20951700,000000A9,false,Rx,0,8,EE,05,79,DF,1D,C7,E0,21,
20951925,000000BA,false,Rx,0,7,03,FF,0F,00,00,52,85,00,
20952346,00000202,false,Rx,0,2,FE,FF,00,00,00,00,00,00,
20955418,00000130,false,Rx,0,5,00,03,C0,0F,1C,00,00,00,
20961545,000000A8,false,Rx,0,8,64,06,21,E0,21,1F,0F,64,
20961775,000000A9,false,Rx,0,8,EF,06,79,DF,1D,C7,E0,21,
20962001,000000BA,false,Rx,0,7,03,FF,0F,00,00,53,86,00,
20971499,000000A8,false,Rx,0,8,65,07,21,E0,21,1F,0F,64,
20971740,000000A9,false,Rx,0,8,F0,07,79,DF,1D,C7,E0,21,
20971974,000000BA,false,Rx,0,7,03,FF,0F,00,00,54,87,00,
20981494,000000A8,false,Rx,0,8,66,08,21,E0,21,1F,0F,64,
20981723,000000A9,false,Rx,0,8,F1,08,79,DF,1D,C7,E0,21,
20981949,000000BA,false,Rx,0,7,03,FF,0F,00,00,55,88,00,
20991468,000000A8,false,Rx,0,8,67,09,21,E0,21,1F,0F,64,
20991694,000000A9,false,Rx,0,8,F2,09,79,DF,1D,C7,E0,21,
20991920,000000BA,false,Rx,0,7,03,FF,0F,00,00,56,89,00,
21001483,000000A8,false,Rx,0,8,68,0A,21,E0,21,1F,0F,64,
21001713,000000A9,false,Rx,0,8,F3,0A,79,DF,1D,C7,E0,21,
21001939,000000BA,false,Rx,0,7,03,FF,0F,00,00,57,8A,00,
21011433,000000A8,false,Rx,0,8,69,0B,21,E0,21,1F,0F,64,
21011659,000000A9,false,Rx,0,8,F4,0B,79,DF,1D,C7,E0,21,
21011886,000000BA,false,Rx,0,7,03,FF,0F,00,00,58,8B,00,
21015898,00000332,false,Rx,0,2,61,82,00,00,00,00,00,00,
21016127,00000332,false,Rx,0,2,61,82,00,00,00,00,00,00,
21016392,000001D0,false,Rx,0,8,3C,FF,0A,C3,00,00,CD,82,
21016398,00000332,false,Rx,0,2,61,82,00,00,00,00,00,00,
21021517,000000A8,false,Rx,0,8,6A,0C,21,E0,21,1F,0F,64,
21021747,000000A9,false,Rx,0,8,F5,0C,79,DF,1D,C7,E0,21,
21021973,000000BA,false,Rx,0,7,03,FF,0F,00,00,59,8C,00,
21031551,000000A8,false,Rx,0,8,6B,0D,21,E0,21,1F,0F,64,
21031777,000000A9,false,Rx,0,8,F6,0D,79,DF,1D,C7,E0,21,
21032004,000000BA,false,Rx,0,7,03,FF,0F,00,00,5A,8D,00,
21041469,000000A8,false,Rx,0,8,6C,0E,21,E0,21,1F,0F,64,
21041698,000000A9,false,Rx,0,8,F7,0E,79,DF,1D,C7,E0,21,
21041924,000000BA,false,Rx,0,7,03,FF,0F,00,00,5B,8E,00,
21051500,000000A8,false,Rx,0,8,5E,00,21,E0,21,1F,0F,64,
21051726,000000A9,false,Rx,0,8,E9,00,79,DF,1D,C7,E0,21,
21051952,000000BA,false,Rx,0,7,03,FF,0F,00,00,4D,80,00,
21055402,00000130,false,Rx,0,5,00,03,C0,0F,2D,00,00,00,
21061472,000000A8,false,Rx,0,8,5F,01,21,E0,21,1F,0F,64,
21061731,000000A9,false,Rx,0,8,EA,01,79,DF,1D,C7,E0,21,
21061985,000000BA,false,Rx,0,7,03,FF,0F,00,00,4E,81,00,
21062228,000002FC,false,Rx,0,7,81,01,00,FF,FF,FF,FF,00,
21071532,000000A8,false,Rx,0,8,60,02,21,E0,21,1F,0F,64,
21071758,000000A9,false,Rx,0,8,EB,02,79,DF,1D,C7,E0,21,
21071984,000000BA,false,Rx,0,7,03,FF,0F,00,00,4F,82,00,
21072220,000001D2,false,Rx,0,5,E1,0C,8F,C0,F0,00,00,00,
21076244,000002F6,false,Rx,0,2,55,F5,00,00,00,00,00,00,
21080013,000003BE,false,Rx,0,2,B3,F0,00,00,00,00,00,00,
21081402,000000A8,false,Rx,0,8,61,03,21,E0,21,1F,0F,64,
21081638,000000A9,false,Rx,0,8,EC,03,79,DF,1D,C7,E0,21,
21081869,000000BA,false,Rx,0,7,03,FF,0F,00,00,50,83,00,
21089557,00000497,false,Rx,0,8,17,01,FF,FF,FF,FF,FF,FF,
21091488,000000A8,false,Rx,0,8,62,04,21,E0,21,1F,0F,64,
21091714,000000A9,false,Rx,0,8,ED,04,79,DF,1D,C7,E0,21,
21091940,000000BA,false,Rx,0,7,03,FF,0F,00,00,51,84,00,
21092739,000004B0,false,Rx,0,8,17,02,FE,FF,FF,FF,FF,FF,
21099958,00000480,false,Rx,0,8,17,01,FD,FF,FF,FF,FF,FF,
21101544,000000A8,false,Rx,0,8,63,05,21,E0,21,1F,0F,64,
21101770,000000A9,false,Rx,0,8,EE,05,79,DF,1D,C7,E0,21,
21101997,000000BA,false,Rx,0,7,03,FF,0F,00,00,52,85,00,
21102982,00000330,false,Rx,0,8,71,48,06,26,FF,FF,4C,1E,
21104262,000005F8,false,Rx,0,8,01,02,3A,FF,FF,FF,FF,FF,
21105433,00000310,false,Rx,0,7,78,0F,93,B8,00,E7,22,00,
21111523,000000A8,false,Rx,0,8,64,06,21,E0,21,1F,0F,64,
21111749,000000A9,false,Rx,0,8,EF,06,79,DF,1D,C7,E0,21,
21111975,000000BA,false,Rx,0,7,03,FF,0F,00,00,53,86,00,
21116024,00000332,false,Rx,0,2,61,82,00,00,00,00,00,00,
21116029,00000332,false,Rx,0,2,61,82,00,00,00,00,00,00,
21116482,000001D0,false,Rx,0,8,3C,FF,0A,C3,00,00,CD,82,
21116488,00000332,false,Rx,0,2,61,82,00,00,00,00,00,00,
21121392,000000A8,false,Rx,0,8,65,07,21,E0,21,1F,0F,64,
21121621,000000A9,false,Rx,0,8,F0,07,79,DF,1D,C7,E0,21,
21121847,000000BA,false,Rx,0,7,03,FF,0F,00,00,54,87,00,
21131450,000000A8,false,Rx,0,8,66,08,21,E0,21,1F,0F,64,
21131676,000000A9,false,Rx,0,8,F1,08,79,DF,1D,C7,E0,21,
21131902,000000BA,false,Rx,0,7,03,FF,0F,00,00,55,88,00,
21141376,000000A8,false,Rx,0,8,67,09,21,E0,21,1F,0F,64,
21141792,000000A9,false,Rx,0,8,F2,09,79,DF,1D,C7,E0,21,
21141831,000000BA,false,Rx,0,7,03,FF,0F,00,00,56,89,00,
21151403,000000A8,false,Rx,0,8,68,0A,21,E0,21,1F,0F,64,
21151629,000000A9,false,Rx,0,8,F3,0A,79,DF,1D,C7,E0,21,
21151855,000000BA,false,Rx,0,7,03,FF,0F,00,00,57,8A,00,
21152088,000004A9,false,Rx,0,8,29,01,FF,FF,FF,FF,FF,FF,
21155535,00000130,false,Rx,0,5,00,03,C0,0F,3E,00,00,00,
21161400,000000A8,false,Rx,0,8,69,0B,21,E0,21,1F,0F,64,
21161630,000000A9,false,Rx,0,8,F4,0B,79,DF,1D,C7,E0,21,
21161855,000000BA,false,Rx,0,7,03,FF,0F,00,00,58,8B,00,
21162088,000000C4,false,Rx,0,7,93,01,FC,1C,FF,FF,F1,00,
21171447,000000A8,false,Rx,0,8,6A,0C,21,E0,21,1F,0F,64,
21171673,000000A9,false,Rx,0,8,F5,0C,79,DF,1D,C7,E0,21,
21171899,000000B6,false,Rx,0,5,00,01,80,00,C8,00,00,00,
21172131,000000BA,false,Rx,0,7,03,FF,0F,00,00,59,8C,00,
21172364,000000C4,false,Rx,0,7,93,01,FC,00,00,FF,F1,00,
21172590,000000CE,false,Rx,0,8,00,00,00,00,00,00,00,00,
21172816,0000019E,false,Rx,0,8,00,F8,1F,FC,FE,41,FF,F4,
21173051,000001A0,false,Rx,0,8,00,80,00,00,80,00,18,BA,
21173284,000002B2,false,Rx,0,8,00,00,00,00,00,80,00,04,
21181434,000000A8,false,Rx,0,8,6B,0D,21,E0,21,1F,0F,64,
21181663,000000A9,false,Rx,0,8,F6,0D,79,DF,1D,C7,E0,21,
21181890,000000BA,false,Rx,0,7,03,FF,0F,00,00,5A,8D,00,
21182120,000000C4,false,Rx,0,7,93,01,FC,00,00,FF,F1,00,
21189680,00000497,false,Rx,0,8,29,02,FF,FF,FF,FF,FF,FF,
21191421,000000A8,false,Rx,0,8,6C,0E,21,E0,21,1F,0F,64,
21191648,000000A9,false,Rx,0,8,F7,0E,79,DF,1D,C7,E0,21,
21191873,000000B6,false,Rx,0,5,02,02,80,00,C8,00,00,00,
21192101,000000BA,false,Rx,0,7,03,FF,0F,00,00,5B,8E,00,
21192334,000000C4,false,Rx,0,7,93,01,FC,00,00,FF,F1,00,
21192560,000000CE,false,Rx,0,8,00,00,00,00,00,00,00,00,
21192786,0000019E,false,Rx,0,8,00,EA,1F,FC,FE,61,FF,07,
21193013,000001A0,false,Rx,0,8,00,80,00,00,80,00,28,CA,
21193245,000001FB,false,Rx,0,2,F1,FF,00,00,00,00,00,00,
21193471,000002B2,false,Rx,0,8,00,00,00,00,00,80,00,04,
21201500,000000A8,false,Rx,0,8,5E,00,21,E0,21,1F,0F,64,
21201730,000000A9,false,Rx,0,8,E9,00,79,DF,1D,C7,E0,21,
21201955,000000BA,false,Rx,0,7,03,FF,0F,00,00,4D,80,00,
21202239,000000C4,false,Rx,0,7,93,01,FC,00,00,FF,F1,00,
21202244,000001D6,false,Rx,0,2,FF,F3,00,00,00,00,00,00,
21211450,000000A8,false,Rx,0,8,5F,01,21,E0,21,1F,0F,64,
21211675,000000A9,false,Rx,0,8,EA,01,79,DF,1D,C7,E0,21,
21211901,000000B6,false,Rx,0,5,03,03,80,00,C8,00,00,00,
21212130,000000BA,false,Rx,0,7,03,FF,0F,00,00,4E,81,00,
21212363,000000C4,false,Rx,0,7,93,01,FC,00,00,FF,F1,00,
21212589,000000CE,false,Rx,0,8,00,00,00,00,00,00,00,00,
21212816,0000019E,false,Rx,0,8,00,EA,1F,FC,FE,61,00,07,
21213051,000001A0,false,Rx,0,8,00,80,00,00,80,00,38,DA,
21213284,000002B2,false,Rx,0,8,00,00,00,00,00,80,00,04,
21213510,000005F8,false,Rx,0,8,01,02,3A,FF,FF,FF,FF,FF,
21216038,00000332,false,Rx,0,2,61,82,00,00,00,00,00,00,
21216043,00000332,false,Rx,0,2,61,82,00,00,00,00,00,00,
21216274,000001D0,false,Rx,0,8,3C,FF,0B,C3,00,00,CD,82,
21216500,00000332,false,Rx,0,2,61,82,00,00,00,00,00,00,
21221443,000000A8,false,Rx,0,8,60,02,21,E0,21,1F,0F,64,
21221672,000000A9,false,Rx,0,8,EB,02,79,DF,1D,C7,E0,21,
21221899,000000BA,false,Rx,0,7,03,FF,0F,00,00,4F,82,00,
21222130,000000C4,false,Rx,0,7,93,01,FC,00,00,FF,F1,00,
21222362,000002A6,false,Rx,0,2,00,FC,00,00,00,00,00,00,
21222586,000005F8,false,Rx,0,8,08,08,00,00,FF,FF,FF,FF,
21222812,000001B5,false,Rx,0,7,C8,FF,04,00,88,FF,FF,00,
21224556,00000242,false,Rx,0,5,01,F0,FF,FF,FF,00,00,00,
21231454,000000A8,false,Rx,0,8,61,03,21,E0,21,1F,0F,64,
21231681,000000A9,false,Rx,0,8,EC,03,79,DF,1D,C7,E0,21,
21231907,000000B6,false,Rx,0,5,04,04,80,00,C8,00,00,00,
21232134,000000BA,false,Rx,0,7,03,FF,0F,00,00,50,83,00,
21232367,000000C4,false,Rx,0,7,93,01,FC,00,00,FF,F1,00,
21232593,000000CE,false,Rx,0,8,00,00,00,00,00,00,00,00,
21232819,0000019E,false,Rx,0,8,00,EA,1F,FC,FE,61,00,07,
21233051,000001A0,false,Rx,0,8,00,80,00,00,80,00,48,EA,
21233284,000002B2,false,Rx,0,8,00,00,00,00,00,80,00,04,
21241449,000000A8,false,Rx,0,8,62,04,21,E0,21,1F,0F,64,
21241679,000000A9,false,Rx,0,8,ED,04,79,DF,1D,C7,E0,21,
21241904,000000BA,false,Rx,0,7,03,FF,0F,00,00,51,84,00,
21242140,000000C4,false,Rx,0,7,93,01,FC,00,00,FF,F1,00,
21251493,000000A8,false,Rx,0,8,63,05,21,E0,21,1F,0F,64,
21251720,000000A9,false,Rx,0,8,EE,05,79,DF,1D,C7,E0,21,
21251945,000000B6,false,Rx,0,5,05,05,80,00,C8,00,00,00,
21252186,000000BA,false,Rx,0,7,03,FF,0F,00,00,52,85,00,
21252412,000000C4,false,Rx,0,7,96,01,FC,16,00,FF,F1,00,
21252638,000000CE,false,Rx,0,8,00,00,00,00,00,00,00,00,
21252864,0000019E,false,Rx,0,8,00,EA,1F,FC,FE,61,00,07,
21253095,000001A0,false,Rx,0,8,00,80,00,00,80,00,58,FA,
21253328,000002B2,false,Rx,0,8,00,00,00,00,00,80,00,04,
21253554,000001A6,false,Rx,0,8,FF,FF,00,00,00,00,00,F0,
21256242,00000130,false,Rx,0,5,00,03,C0,0F,40,00,00,00,
21261554,000000A8,false,Rx,0,8,64,06,21,E0,21,1F,0F,64,
21261783,000000A9,false,Rx,0,8,EF,06,79,DF,1D,C7,E0,21,
21262009,000000BA,false,Rx,0,7,03,FF,0F,00,00,53,86,00,
21262244,000000C4,false,Rx,0,7,93,01,FC,16,00,FF,F1,00,
21271428,000000A8,false,Rx,0,8,65,07,21,E0,21,1F,0F,64,
21271654,000000A9,false,Rx,0,8,F0,07,79,DF,1D,C7,E0,21,
21271880,000000B6,false,Rx,0,5,06,06,80,00,C8,00,00,00,
21272113,000000BA,false,Rx,0,7,03,FF,0F,00,00,54,87,00,
21272345,000000C4,false,Rx,0,7,93,01,FC,00,00,FF,F1,00,
21272572,000000CE,false,Rx,0,8,00,00,00,00,00,00,00,00,
21272798,0000019E,false,Rx,0,8,00,EA,2F,FC,FE,61,00,17,
21273031,000001A0,false,Rx,0,8,00,80,00,00,80,00,68,0B,
21273256,000001D2,false,Rx,0,5,E1,0C,8F,D0,F0,00,00,00,
21273490,000002B2,false,Rx,0,8,00,00,00,00,00,80,00,04,
21273716,000004A9,false,Rx,0,8,17,12,FF,FF,FF,FF,FF,FF,
21279100,00000480,false,Rx,0,8,17,01,FD,FF,FF,FF,FF,FF,
21279105,000002F6,false,Rx,0,2,55,F5,00,00,00,00,00,00,
21281041,000003BE,false,Rx,0,2,B3,F0,00,00,00,00,00,00,
21281486,000000A8,false,Rx,0,8,66,08,21,E0,21,1F,0F,64,
21281723,000000A9,false,Rx,0,8,F1,08,79,DF,1D,C7,E0,21,
21281949,000000BA,false,Rx,0,7,03,FF,0F,00,00,55,88,00,
21282192,000000C4,false,Rx,0,7,93,01,FC,00,00,FF,F1,00,
21282791,000004B0,false,Rx,0,8,00,01,FE,FF,FF,FF,FF,FF,
21291560,000000A8,false,Rx,0,8,67,09,21,E0,21,1F,0F,64,
21291829,000000A9,false,Rx,0,8,F2,09,79,DF,1D,C7,E0,21,
21291834,000000B6,false,Rx,0,5,07,07,80,00,C8,00,00,00,
21292082,000000BA,false,Rx,0,7,03,FF,0F,00,00,56,89,00,
21292328,000000C4,false,Rx,0,7,93,01,FC,00,00,FF,F1,00,
21292562,000000CE,false,Rx,0,8,00,00,00,00,00,00,00,00,
21292788,0000019E,false,Rx,0,8,00,EA,2F,FC,FE,61,00,17,
21293017,000001A0,false,Rx,0,8,00,80,00,00,80,00,78,1B,
21293252,000002B2,false,Rx,0,8,00,00,00,00,00,80,00,04,
21301034,0000021A,false,Rx,0,3,00,20,FC,00,00,00,00,00,
21301478,000000A8,false,Rx,0,8,68,0A,21,E0,21,1F,0F,64,
21301706,000000A9,false,Rx,0,8,F3,0A,79,DF,1D,C7,E0,21,
21301932,000000BA,false,Rx,0,7,03,FF,0F,00,00,57,8A,00,
21302203,000000C4,false,Rx,0,7,93,01,FC,00,00,FF,F1,00,
21302209,000001D6,false,Rx,0,2,FF,F3,00,00,00,00,00,00,
21309076,000005F8,false,Rx,0,8,01,03,80,00,FF,FF,FF,FF,
21311425,000000A8,false,Rx,0,8,69,0B,21,E0,21,1F,0F,64,
21311651,000000A9,false,Rx,0,8,F4,0B,79,DF,1D,C7,E0,21,
21311876,000000B6,false,Rx,0,5,08,08,80,00,C8,00,00,00,
21312109,000000BA,false,Rx,0,7,03,FF,0F,00,00,58,8B,00,
21312341,000000C4,false,Rx,0,7,93,01,FC,00,00,FF,F1,00,
21312567,000000CE,false,Rx,0,8,00,00,00,00,00,00,00,00,
21312794,0000019E,false,Rx,0,8,00,EA,2F,FC,FE,61,00,17,
21313027,000001A0,false,Rx,0,8,00,80,00,00,80,00,88,2B,
21313260,000002B2,false,Rx,0,8,00,00,00,00,03,80,00,04,
21315937,00000332,false,Rx,0,2,61,82,00,00,00,00,00,00,
21316170,00000332,false,Rx,0,2,61,82,00,00,00,00,00,00,
21316429,000001D0,false,Rx,0,8,3C,FF,0B,C3,00,00,CD,82,
21316434,00000332,false,Rx,0,2,61,82,00,00,00,00,00,00,
21316660,00000380,false,Rx,0,7,4B,57,31,34,35,39,32,00,
21321405,000000A8,false,Rx,0,8,6A,0C,21,E0,21,1F,0F,64,
21321635,000000A9,false,Rx,0,8,F5,0C,79,DF,1D,C7,E0,21,
21321861,000000BA,false,Rx,0,7,03,FF,0F,00,00,59,8C,00,
21322094,000000C4,false,Rx,0,7,93,01,FC,00,00,FF,F1,00,
21331506,000000A8,false,Rx,0,8,6B,0D,21,E0,21,1F,0F,64,
21331732,000000A9,false,Rx,0,8,F6,0D,79,DF,1D,C7,E0,21,
21331958,000000B6,false,Rx,0,5,09,09,80,00,C8,00,00,00,
21332197,000000BA,false,Rx,0,7,03,FF,0F,00,00,5A,8D,00,
21332423,000000C4,false,Rx,0,7,93,01,FC,00,00,FF,F1,00,
21332649,000000CE,false,Rx,0,8,00,00,00,00,00,00,00,00,
21332875,0000019E,false,Rx,0,8,00,EA,2F,FC,FE,61,00,17,
21333108,000001A0,false,Rx,0,8,00,80,00,00,80,00,98,3B,
21333342,000002B2,false,Rx,0,8,00,00,00,00,0F,80,00,04,
21341469,000000A8,false,Rx,0,8,6C,0E,21,E0,21,1F,0F,64,
21341701,000000A9,false,Rx,0,8,F7,0E,79,DF,1D,C7,E0,21,
21341927,000000BA,false,Rx,0,7,03,FF,0F,00,00,5B,8E,00,
21342170,000000C4,false,Rx,0,7,93,01,FC,00,00,FF,F1,00,
21342395,000000C8,false,Rx,0,6,92,01,8C,00,00,0C,00,00,
21351568,000000A8,false,Rx,0,8,5E,00,21,E0,21,1F,0F,64,
21351828,000000A9,false,Rx,0,8,E9,00,79,DF,1D,C7,E0,21,
21351834,000000B6,false,Rx,0,5,0A,0A,80,00,C8,00,00,00,
21352061,000000BA,false,Rx,0,7,03,FF,0F,00,00,4D,80,00,
21352295,000000C4,false,Rx,0,7,93,01,FC,00,00,FF,F1,00,
21352520,000000CE,false,Rx,0,8,00,00,00,00,00,00,00,00,
21352746,0000019E,false,Rx,0,8,00,EA,2F,FC,FE,61,00,17,
21353173,000001A0,false,Rx,0,8,00,80,00,00,80,00,A8,4B,
21353398,000002B2,false,Rx,0,8,00,00,00,00,0F,80,00,04,
21353625,000001A6,false,Rx,0,8,00,00,00,00,00,00,90,F1,
21357066,00000130,false,Rx,0,5,00,03,C0,0F,51,00,00,00,
21361391,000000A8,false,Rx,0,8,5F,01,21,E0,21,1F,0F,64,
21361632,000000A9,false,Rx,0,8,EA,01,79,DF,1D,C7,E0,21,
21361867,000000BA,false,Rx,0,7,03,FF,0F,00,00,4E,81,00,
21362097,000000C4,false,Rx,0,7,93,01,FC,00,00,FF,F1,00,
21369609,00000497,false,Rx,0,8,29,02,FF,FF,FF,FF,FF,FF,
21371545,000000A8,false,Rx,0,8,60,02,21,E0,21,1F,0F,64,
21371805,000000A9,false,Rx,0,8,EB,02,79,DF,1D,C7,E0,21,
21371811,000000B6,false,Rx,0,5,0B,0B,80,00,C8,00,00,00,
21372043,000000BA,false,Rx,0,7,03,FF,0F,00,00,4F,82,00,
21372274,000000C4,false,Rx,0,7,93,01,FC,00,00,FF,F1,00,
21372686,000000CE,false,Rx,0,8,00,00,00,00,00,00,00,00,
21372912,0000019E,false,Rx,0,8,00,EA,2F,FC,FE,61,00,17,
21373153,000001A0,false,Rx,0,8,00,80,00,00,80,00,B8,5B,
21373379,000002B2,false,Rx,0,8,00,00,00,00,0F,80,00,04,
21381652,000000A8,false,Rx,0,8,61,03,21,E0,21,1F,0F,64,
21381659,000000A9,false,Rx,0,8,EC,03,79,DF,1D,C7,E0,21,
21381906,000000BA,false,Rx,0,7,03,FF,0F,00,00,50,83,00,
21382149,000000C4,false,Rx,0,7,93,01,FC,00,00,FF,F1,00,
21382374,000002A6,false,Rx,0,2,00,FC,00,00,00,00,00,00,
21382786,000001FB,false,Rx,0,2,F2,FF,00,00,00,00,00,00,
21391433,000000A8,false,Rx,0,8,62,04,21,E0,21,1F,0F,64,
21391659,000000A9,false,Rx,0,8,ED,04,79,DF,1D,C7,E0,21,
21391884,000000B6,false,Rx,0,5,0C,0C,80,00,C8,00,00,00,
21392112,000000BA,false,Rx,0,7,03,FF,0F,00,00,51,84,00,
21392345,000000C4,false,Rx,0,7,93,01,FC,00,00,FF,F1,00,
21392572,000000CE,false,Rx,0,8,00,00,00,00,00,00,00,00,
21392798,0000019E,false,Rx,0,8,00,EA,2F,FC,FE,61,00,17,
21393031,000001A0,false,Rx,0,8,00,80,00,00,80,00,C8,6B,
21393264,000002B2,false,Rx,0,8,00,00,00,00,0F,80,00,04,
21401659,000000A8,false,Rx,0,8,63,05,21,E0,21,1F,0F,64,
21401667,000000A9,false,Rx,0,8,EE,05,79,DF,1D,C7,E0,21,
21401908,000000BA,false,Rx,0,7,03,FF,0F,00,00,52,85,00,
21402189,000000C4,false,Rx,0,7,93,01,FC,00,00,FF,F1,00,
21402194,000001D6,false,Rx,0,2,FF,F3,00,00,00,00,00,00,
21409103,000005F8,false,Rx,0,8,01,02,F7,00,FF,FF,FF,FF,
21411418,000000A8,false,Rx,0,8,64,06,21,E0,21,1F,0F,64,
21411644,000000A9,false,Rx,0,8,EF,06,79,DF,1D,C7,E0,21,
21411869,000000B6,false,Rx,0,5,0D,0D,80,00,C8,00,00,00,
21412098,000000BA,false,Rx,0,7,03,FF,0F,00,00,53,86,00,
21412331,000000C4,false,Rx,0,7,93,01,FC,00,00,FF,F1,00,
21412557,000000CE,false,Rx,0,8,00,00,00,00,00,00,00,00,
21412783,0000019E,false,Rx,0,8,00,EA,2F,FC,FE,61,00,17,
21413013,000001A0,false,Rx,0,8,00,80,00,00,80,00,D8,7B,
21413247,000002B2,false,Rx,0,8,00,00,00,00,0F,80,00,04,
21415923,00000332,false,Rx,0,2,61,82,00,00,00,00,00,00,
21416157,00000332,false,Rx,0,2,61,82,00,00,00,00,00,00,
21416415,000001D0,false,Rx,0,8,3C,FF,0C,C3,00,00,CD,82,
21416420,00000332,false,Rx,0,2,61,82,00,00,00,00,00,00,
21421692,000000A8,false,Rx,0,8,65,07,21,E0,21,1F,0F,64,
21421699,000000A9,false,Rx,0,8,F0,07,79,DF,1D,C7,E0,21,
21421939,000000BA,false,Rx,0,7,03,FF,0F,00,00,54,87,00,
21422181,000000C4,false,Rx,0,7,93,01,FC,00,00,FF,F1,00,
21431566,000000A8,false,Rx,0,8,66,08,21,E0,21,1F,0F,64,
21431828,000000A9,false,Rx,0,8,F1,08,79,DF,1D,C7,E0,21,
21431833,000000B6,false,Rx,0,5,0E,0E,80,00,C8,00,00,00,
21432067,000000BA,false,Rx,0,7,03,FF,0F,00,00,55,88,00,
21432300,000000C4,false,Rx,0,7,96,01,FC,0B,00,FF,F1,00,
21432526,000000CE,false,Rx,0,8,00,00,00,00,00,00,00,00,
21432750,0000019E,false,Rx,0,8,00,EA,2F,FC,FE,61,00,17,
21433176,000001A0,false,Rx,0,8,00,80,00,00,80,00,E8,8B,
21433402,000002B2,false,Rx,0,8,00,00,00,00,0F,80,00,04,
21441668,000000A8,false,Rx,0,8,67,09,21,E0,21,1F,0F,64,
21441674,000000A9,false,Rx,0,8,F2,09,79,DF,1D,C7,E0,21,
21441912,000000BA,false,Rx,0,7,03,FF,0F,00,00,56,89,00,
21442160,000000C4,false,Rx,0,7,93,01,FC,0B,00,FF,F1,00,
21451545,000000A8,false,Rx,0,8,68,0A,21,E0,21,1F,0F,64,
21451804,000000A9,false,Rx,0,8,F3,0A,79,DF,1D,C7,E0,21,
21451809,000000B6,false,Rx,0,5,FF,00,80,00,C8,00,00,00,
21452037,000000BA,false,Rx,0,7,03,FF,0F,00,00,57,8A,00,
21452271,000000C4,false,Rx,0,7,93,01,FC,00,00,FF,F1,00,
21452682,000000CE,false,Rx,0,8,00,00,00,00,00,00,00,00,
21452908,0000019E,false,Rx,0,8,00,EA,2F,FC,FE,61,00,17,
21453139,000001A0,false,Rx,0,8,00,80,00,00,80,00,08,AA,
21453372,000002B2,false,Rx,0,8,00,00,00,00,0F,80,00,04,
21453598,000001A6,false,Rx,0,8,00,00,00,00,00,00,20,F3,
21453825,000004A9,false,Rx,0,8,30,12,FF,FF,FF,FF,FF,FF,
21456136,00000130,false,Rx,0,5,00,03,C0,0F,62,00,00,00,
21461787,000000A8,false,Rx,0,8,69,0B,21,E0,21,1F,0F,64,
21461794,000000A9,false,Rx,0,8,F4,0B,79,DF,1D,C7,E0,21,
21462068,000000BA,false,Rx,0,7,03,FF,0F,00,00,58,8B,00,
21462075,000000C4,false,Rx,0,7,93,01,FC,00,00,FF,F1,00,
21471446,000000A8,false,Rx,0,8,6A,0C,21,E0,21,1F,0F,64,
21471672,000000A9,false,Rx,0,8,F5,0C,79,DF,1D,C7,E0,21,
21471898,000000B6,false,Rx,0,5,00,01,80,00,C8,00,00,00,
21472125,000000BA,false,Rx,0,7,03,FF,0F,00,00,59,8C,00,
21472359,000000C4,false,Rx,0,7,93,01,FC,00,00,FF,F1,00,
21472584,000000CE,false,Rx,0,8,00,00,00,00,00,00,00,00,
21472811,0000019E,false,Rx,0,8,00,EA,3F,FC,FE,61,00,27,
21473040,000001A0,false,Rx,0,8,00,80,00,00,80,00,18,BA,
21473272,000001D2,false,Rx,0,5,E1,0C,8F,E0,F0,00,00,00,
21473498,000002B2,false,Rx,0,8,00,00,00,00,0F,80,00,04,
21480160,000003BE,false,Rx,0,2,B3,F0,00,00,00,00,00,00,
21481880,000002F6,false,Rx,0,2,55,F5,00,00,00,00,00,00,
21481886,000000A8,false,Rx,0,8,6B,0D,21,E0,21,1F,0F,64,
21481892,000000A9,false,Rx,0,8,F6,0D,79,DF,1D,C7,E0,21,
21481897,000000BA,false,Rx,0,7,03,FF,0F,00,00,5A,8D,00,
21482153,000000C4,false,Rx,0,7,93,01,FC,00,00,FF,F1,00,
21491393,000000A8,false,Rx,0,8,6C,0E,21,E0,21,1F,0F,64,
21491633,000000A9,false,Rx,0,8,F7,0E,79,DF,1D,C7,E0,21,
21491859,000000B6,false,Rx,0,5,02,02,80,00,C8,00,00,00,
21492087,000000BA,false,Rx,0,7,03,FF,0F,00,00,5B,8E,00,
21492320,000000C4,false,Rx,0,7,93,01,FC,00,00,FF,F1,00,
21492546,000000CE,false,Rx,0,8,00,00,00,00,00,00,00,00,
21492772,0000019E,false,Rx,0,8,00,EA,3F,FC,FE,61,00,27,
21492999,000001A0,false,Rx,0,8,00,80,00,00,80,00,28,CA,
21493239,000002B2,false,Rx,0,8,00,00,00,00,0F,80,00,04,
21493465,000001D6,false,Rx,0,2,FF,F3,00,00,00,00,00,00,
21502085,000000A8,false,Rx,0,8,5E,00,21,E0,21,1F,0F,64,
21502092,000000A9,false,Rx,0,8,E9,00,79,DF,1D,C7,E0,21,
21502097,000000BA,false,Rx,0,7,03,FF,0F,00,00,4D,80,00,
21502102,000000C4,false,Rx,0,7,93,01,FC,00,00,FF,F1,00,
21511546,000000A8,false,Rx,0,8,5F,01,21,E0,21,1F,0F,64,
21511807,000000A9,false,Rx,0,8,EA,01,79,DF,1D,C7,E0,21,
21511812,000000B6,false,Rx,0,5,03,03,80,00,C8,00,00,00,
21512040,000000BA,false,Rx,0,7,03,FF,0F,00,00,4E,81,00,
21512274,000000C4,false,Rx,0,7,93,01,FC,00,00,FF,F1,00,
21512686,000000CE,false,Rx,0,8,00,00,00,00,00,00,00,00,
21512912,0000019E,false,Rx,0,8,00,EA,3F,FC,FE,61,00,27,
21513153,000001A0,false,Rx,0,8,00,80,00,00,80,00,38,DA,
21513379,000002B2,false,Rx,0,8,00,00,00,00,0F,80,00,04,
21516088,00000332,false,Rx,0,2,61,82,00,00,00,00,00,00,
21516093,00000332,false,Rx,0,2,61,82,00,00,00,00,00,00,
21516326,000001D0,false,Rx,0,8,3C,FF,0C,C3,00,00,CD,82,
21516552,00000332,false,Rx,0,2,61,82,00,00,00,00,00,00,
21521990,000000A8,false,Rx,0,8,60,02,21,E0,21,1F,0F,64,
21521997,000000A9,false,Rx,0,8,EB,02,79,DF,1D,C7,E0,21,
21522003,000000BA,false,Rx,0,7,03,FF,0F,00,00,4F,82,00,
21522257,000000C4,false,Rx,0,7,93,01,FC,00,00,FF,F1,00,
21531429,000000A8,false,Rx,0,8,61,03,21,E0,21,1F,0F,64,
21531655,000000A9,false,Rx,0,8,EC,03,79,DF,1D,C7,E0,21,
21531880,000000B6,false,Rx,0,5,04,04,80,00,C8,00,00,00,
21532107,000000BA,false,Rx,0,7,03,FF,0F,00,00,50,83,00,
21532340,000000C4,false,Rx,0,7,93,01,FC,00,00,FF,F1,00,
21532566,000000CE,false,Rx,0,8,00,00,00,00,00,00,00,00,
21532792,0000019E,false,Rx,0,8,00,EA,3F,FC,FE,61,00,27,
21533028,000001A0,false,Rx,0,8,00,80,00,00,80,00,48,EA,
21533262,000002B2,false,Rx,0,8,00,00,00,00,0F,80,00,04,
21533486,000002A6,false,Rx,0,2,00,FC,00,00,00,00,00,00,
21542178,000000A8,false,Rx,0,8,62,04,21,E0,21,1F,0F,64,
21542185,000000A9,false,Rx,0,8,ED,04,79,DF,1D,C7,E0,21,
21542190,000000BA,false,Rx,0,7,03,FF,0F,00,00,51,84,00,
21542195,000000C4,false,Rx,0,7,93,01,FC,00,00,FF,F1,00,
21542450,000005A9,false,Rx,0,8,01,03,80,FF,FF,FF,FF,FF,
21542677,000000C8,false,Rx,0,6,92,01,DC,00,00,1C,00,00,
21546221,00000380,false,Rx,0,7,4B,57,31,34,35,39,32,00,
21551557,000000A8,false,Rx,0,8,63,05,21,E0,21,1F,0F,64,
21551817,000000A9,false,Rx,0,8,EE,05,79,DF,1D,C7,E0,21,
21551822,000000B6,false,Rx,0,5,05,05,80,00,C8,00,00,00,
21552049,000000BA,false,Rx,0,7,03,FF,0F,00,00,52,85,00,
21552281,000000C4,false,Rx,0,7,93,01,FC,00,00,FF,F1,00,
21552507,000000CE,false,Rx,0,8,00,00,00,00,00,00,00,00,
21552920,0000019E,false,Rx,0,8,00,EA,3F,FC,FE,61,00,27,
21553160,000001A0,false,Rx,0,8,00,80,00,00,80,00,58,FA,
21553386,000002B2,false,Rx,0,8,00,00,00,00,0F,80,00,04,
21553612,000001A6,false,Rx,0,8,00,00,00,00,00,00,B0,F4,
21553838,000004B0,false,Rx,0,8,00,02,FE,FF,FF,FF,FF,FF,
21554069,000005A9,false,Rx,0,8,30,02,00,32,2A,F1,64,04,
21556192,00000130,false,Rx,0,5,00,03,C0,0F,73,00,00,00,
21562208,000000A8,false,Rx,0,8,64,06,21,E0,21,1F,0F,64,
21562214,000000A9,false,Rx,0,8,EF,06,79,DF,1D,C7,E0,21,
21562220,000000BA,false,Rx,0,7,03,FF,0F,00,00,53,86,00,
21562225,000000C4,false,Rx,0,7,93,01,FC,00,00,FF,F1,00,
21562462,000005A9,false,Rx,0,8,32,02,00,6C,00,F0,00,FF,
21571493,000000A8,false,Rx,0,8,65,07,21,E0,21,1F,0F,64,
21571719,000000A9,false,Rx,0,8,F0,07,79,DF,1D,C7,E0,21,
21571945,000000B6,false,Rx,0,5,06,06,80,00,C8,00,00,00,
21572181,000000BA,false,Rx,0,7,03,FF,0F,00,00,54,87,00,
21572407,000000C4,false,Rx,0,7,93,01,FC,00,00,FF,F1,00,
21572632,000000CE,false,Rx,0,8,00,00,00,00,00,00,00,00,
21572858,0000019E,false,Rx,0,8,00,EA,3F,FC,FE,61,00,27,
21573120,000001A0,false,Rx,0,8,00,80,00,00,80,00,68,0B,
21573126,000001FB,false,Rx,0,2,F3,FF,00,00,00,00,00,00,
21573545,000002B2,false,Rx,0,8,00,00,00,00,0F,80,00,04,
21582224,000000A8,false,Rx,0,8,66,08,21,E0,21,1F,0F,64,
21582230,000000A9,false,Rx,0,8,F1,08,79,DF,1D,C7,E0,21,
21582235,000000BA,false,Rx,0,7,03,FF,0F,00,00,55,88,00,
21582241,000000C4,false,Rx,0,7,93,01,FC,00,00,FF,F1,00,
21591468,000000A8,false,Rx,0,8,67,09,21,E0,21,1F,0F,64,
21591696,000000A9,false,Rx,0,8,F2,09,79,DF,1D,C7,E0,21,
21591922,000000B6,false,Rx,0,5,07,07,80,00,C8,00,00,00,
21592156,000000BA,false,Rx,0,7,03,FF,0F,00,00,56,89,00,
21592382,000000C4,false,Rx,0,7,93,01,FC,00,00,FF,F1,00,
21592608,000000CE,false,Rx,0,8,00,00,00,00,00,00,00,00,
21592833,0000019E,false,Rx,0,8,00,EA,3F,FC,FE,61,00,27,
21593066,000001A0,false,Rx,0,8,00,80,00,00,80,00,78,1B,
21593299,000002B2,false,Rx,0,8,00,00,00,00,0F,80,00,04,
21593536,000001D6,false,Rx,0,2,FF,F3,00,00,00,00,00,00,
21602564,000000A8,false,Rx,0,8,68,0A,21,E0,21,1F,0F,64,
21602571,000000A9,false,Rx,0,8,F3,0A,79,DF,1D,C7,E0,21,
21602576,000000BA,false,Rx,0,7,03,FF,0F,00,00,57,8A,00,
21602581,000000C4,false,Rx,0,7,93,01,FC,00,00,FF,F1,00,
21611392,000000A8,false,Rx,0,8,69,0B,21,E0,21,1F,0F,64,
21611620,000000A9,false,Rx,0,8,F4,0B,79,DF,1D,C7,E0,21,
21611846,000000B6,false,Rx,0,5,08,08,80,00,C8,00,00,00,
21612076,000000BA,false,Rx,0,7,03,FF,0F,00,00,58,8B,00,
21612308,000000C4,false,Rx,0,7,93,01,FC,00,00,FF,F1,00,
21612534,000000CE,false,Rx,0,8,00,00,00,00,00,00,00,00,
21612758,0000019E,false,Rx,0,8,00,EA,3F,FC,FE,61,00,27,
21612984,000001A0,false,Rx,0,8,00,80,00,00,80,00,88,2B,
21613412,000002B2,false,Rx,0,8,00,00,00,00,0F,80,00,04,
21615900,00000332,false,Rx,0,2,61,82,00,00,00,00,00,00,
21616132,00000332,false,Rx,0,2,61,82,00,00,00,00,00,00,
21616365,000001D0,false,Rx,0,8,3C,FF,0D,C3,00,00,CD,82,
21616590,00000332,false,Rx,0,2,61,82,00,00,00,00,00,00,
21622471,000000A8,false,Rx,0,8,6A,0C,21,E0,21,1F,0F,64,
21622478,000000A9,false,Rx,0,8,F5,0C,79,DF,1D,C7,E0,21,
21622483,000000BA,false,Rx,0,7,03,FF,0F,00,00,59,8C,00,
21622488,000000C4,false,Rx,0,7,93,01,FC,00,00,FF,F1,00,
21631499,000000A8,false,Rx,0,8,6B,0D,21,E0,21,1F,0F,64,
21631726,000000A9,false,Rx,0,8,F6,0D,79,DF,1D,C7,E0,21,
21631952,000000B6,false,Rx,0,5,09,09,80,00,C8,00,00,00,
21632192,000000BA,false,Rx,0,7,03,FF,0F,00,00,5A,8D,00,
21632418,000000C4,false,Rx,0,7,93,01,FC,00,00,FF,F1,00,
21632644,000000CE,false,Rx,0,8,00,00,00,00,00,00,00,00,
21632870,0000019E,false,Rx,0,8,00,EA,3F,FC,FE,61,00,27,
21633106,000001A0,false,Rx,0,8,00,80,00,00,80,00,98,3B,
21633339,000002B2,false,Rx,0,8,00,00,00,00,0F,80,00,04,
21638854,00000480,false,Rx,0,8,17,02,FD,FF,FF,FF,FF,FF,
21642677,000000A8,false,Rx,0,8,6C,0E,21,E0,21,1F,0F,64,
21642684,000000A9,false,Rx,0,8,F7,0E,79,DF,1D,C7,E0,21,
21642690,000000BA,false,Rx,0,7,03,FF,0F,00,00,5B,8E,00,
21642695,000000C4,false,Rx,0,7,93,01,FC,00,00,FF,F1,00,
21651517,000000A8,false,Rx,0,8,5E,00,21,E0,21,1F,0F,64,
21651745,000000A9,false,Rx,0,8,E9,00,79,DF,1D,C7,E0,21,
21651970,000000B6,false,Rx,0,5,0A,0A,80,00,C8,00,00,00,
21652205,000000BA,false,Rx,0,7,03,FF,0F,00,00,4D,80,00,
21652431,000000C4,false,Rx,0,7,93,01,FC,00,00,FF,F1,00,
21652657,000000CE,false,Rx,0,8,00,00,00,00,00,00,00,00,
21652882,0000019E,false,Rx,0,8,00,EA,3F,FC,FE,61,00,27,
21653114,000001A0,false,Rx,0,8,00,80,00,00,80,00,A8,4B,
21653348,000002B2,false,Rx,0,8,00,00,00,00,0F,80,00,04,
21653574,000001A6,false,Rx,0,8,00,00,00,00,00,00,40,F6,
21656263,00000130,false,Rx,0,5,00,03,C0,0F,84,00,00,00,
21662738,000000A8,false,Rx,0,8,5F,01,21,E0,21,1F,0F,64,
21662745,000000A9,false,Rx,0,8,EA,01,79,DF,1D,C7,E0,21,
21662750,000000BA,false,Rx,0,7,03,FF,0F,00,00,4E,81,00,
21662755,000000C4,false,Rx,0,7,93,01,FC,00,00,FF,F1,00,
21671525,000000A8,false,Rx,0,8,60,02,21,E0,21,1F,0F,64,
21671752,000000A9,false,Rx,0,8,EB,02,79,DF,1D,C7,E0,21,
21671978,000000B6,false,Rx,0,5,0B,0B,80,00,C8,00,00,00,
21672216,000000BA,false,Rx,0,7,03,FF,0F,00,00,4F,82,00,
21672442,000000C4,false,Rx,0,7,93,01,FC,00,00,FF,F1,00,
21672668,000000CE,false,Rx,0,8,00,00,00,00,00,00,00,00,
21672894,0000019E,false,Rx,0,8,00,EA,3F,FC,FE,61,00,27,
21673128,000001A0,false,Rx,0,8,00,80,00,00,80,00,B8,5B,
21673355,000001D2,false,Rx,0,5,E1,0C,8F,F0,F0,00,00,00,
21673581,000002B2,false,Rx,0,8,00,00,00,00,0F,80,00,04,
21682743,000000A8,false,Rx,0,8,61,03,21,E0,21,1F,0F,64,
21682750,000000A9,false,Rx,0,8,EC,03,79,DF,1D,C7,E0,21,
21682755,000000BA,false,Rx,0,7,03,FF,0F,00,00,50,83,00,
21682760,000000C4,false,Rx,0,7,93,01,FC,00,00,FF,F1,00,
21691531,000000A8,false,Rx,0,8,62,04,21,E0,21,1F,0F,64,
21691758,000000A9,false,Rx,0,8,ED,04,79,DF,1D,C7,E0,21,
21691984,000000B6,false,Rx,0,5,0C,0C,80,00,C8,00,00,00,
21692257,000000BA,false,Rx,0,7,03,FF,0F,00,00,51,84,00,
21692262,000000C4,false,Rx,0,7,93,01,FC,00,00,FF,F1,00,
21692675,000000CE,false,Rx,0,8,00,00,00,00,00,00,00,00,
21692901,0000019E,false,Rx,0,8,00,EA,4F,FC,FE,61,00,37,
21693130,000001A0,false,Rx,0,8,00,80,00,00,80,00,C8,6B,
21693396,000002B2,false,Rx,0,8,00,00,00,00,0F,80,00,04,
21693402,000001D6,false,Rx,0,2,FF,F3,00,00,00,00,00,00,
21702735,000000A8,false,Rx,0,8,63,05,21,E0,21,1F,0F,64,
21702742,000000A9,false,Rx,0,8,EE,05,79,DF,1D,C7,E0,21,
21702747,000000BA,false,Rx,0,7,03,FF,0F,00,00,52,85,00,
21702752,000000C4,false,Rx,0,7,93,01,FC,00,00,FF,F1,00,
21711454,000000A8,false,Rx,0,8,64,06,21,E0,21,1F,0F,64,
21711702,000000A9,false,Rx,0,8,EF,06,79,DF,1D,C7,E0,21,
21711939,000000B6,false,Rx,0,5,0D,0D,80,00,C8,00,00,00,
21712178,000000BA,false,Rx,0,7,03,FF,0F,00,00,53,86,00,
21712404,000000C4,false,Rx,0,7,93,01,FC,00,00,FF,F1,00,
21712629,000000CE,false,Rx,0,8,00,00,00,00,00,00,00,00,
21712856,0000019E,false,Rx,0,8,00,EA,4F,FC,FE,61,00,37,
21713085,000001A0,false,Rx,0,8,00,80,00,00,80,00,D8,7B,
21713319,000002B2,false,Rx,0,8,00,00,00,00,0F,80,00,04,
21715991,00000332,false,Rx,0,2,61,82,00,00,00,00,00,00,
21716230,00000332,false,Rx,0,2,61,82,00,00,00,00,00,00,
21716489,000001D0,false,Rx,0,8,3C,FF,0D,C3,00,00,CD,82,
21716495,00000332,false,Rx,0,2,61,82,00,00,00,00,00,00,
21723038,000000A8,false,Rx,0,8,65,07,21,E0,21,1F,0F,64,
21723045,000000A9,false,Rx,0,8,F0,07,79,DF,1D,C7,E0,21,
21723051,000000BA,false,Rx,0,7,03,FF,0F,00,00,54,87,00,
21723056,000000C4,false,Rx,0,7,93,01,FC,00,00,FF,F1,00,
21729651,00000497,false,Rx,0,8,29,42,FF,FF,FF,FF,FF,FF,
21731398,000000A8,false,Rx,0,8,66,08,21,E0,21,1F,0F,64,
21731623,000000A9,false,Rx,0,8,F1,08,79,DF,1D,C7,E0,21,
21731849,000000B6,false,Rx,0,5,0E,0E,80,00,C8,00,00,00,
21732077,000000BA,false,Rx,0,7,03,FF,0F,00,00,55,88,00,
21732311,000000C4,false,Rx,0,7,93,01,FC,00,00,FF,F1,00,
21732537,000000CE,false,Rx,0,8,00,00,00,00,00,00,00,00,
21732763,0000019E,false,Rx,0,8,00,EA,4F,FC,FE,61,00,37,
21732989,000001A0,false,Rx,0,8,00,80,00,00,80,00,E8,8B,
21733232,000002B2,false,Rx,0,8,00,00,00,00,0F,80,00,04,
21741401,000000A8,false,Rx,0,8,67,09,21,E0,21,1F,0F,64,
21743185,000000A9,false,Rx,0,8,F2,09,79,DF,1D,C7,E0,21,
21743191,000000BA,false,Rx,0,7,03,FF,0F,00,00,56,89,00,
21743196,000000C4,false,Rx,0,7,93,01,FC,00,00,FF,F1,00,
21743202,000000C8,false,Rx,0,6,92,01,3C,00,00,2C,00,00,
21751455,000000A8,false,Rx,0,8,68,0A,21,E0,21,1F,0F,64,
21751683,000000A9,false,Rx,0,8,F3,0A,79,DF,1D,C7,E0,21,
21751908,000000B6,false,Rx,0,5,FF,00,80,00,C8,00,00,00,
21752136,000000BA,false,Rx,0,7,03,FF,0F,00,00,57,8A,00,
21752369,000000C4,false,Rx,0,7,93,01,FC,00,00,FF,F1,00,
21752594,000000CE,false,Rx,0,8,00,00,00,00,00,00,00,00,
21752820,0000019E,false,Rx,0,8,00,EA,4F,FC,FE,61,00,37,
21753054,000001A0,false,Rx,0,8,00,80,00,00,80,00,08,AA,
21753287,000002B2,false,Rx,0,8,00,00,00,00,0F,80,00,04,
21753512,000001A6,false,Rx,0,8,00,00,00,00,00,00,D0,F7,
21756198,00000130,false,Rx,0,5,00,03,C0,0F,95,00,00,00,
21761526,000000A8,false,Rx,0,8,69,0B,21,E0,21,1F,0F,64,
21763294,000000A9,false,Rx,0,8,F4,0B,79,DF,1D,C7,E0,21,
21763300,000000BA,false,Rx,0,7,03,FF,0F,00,00,58,8B,00,
21763306,000000C4,false,Rx,0,7,93,01,FC,00,00,FF,F1,00,
21763311,000001FB,false,Rx,0,2,F4,FF,00,00,00,00,00,00,
21771551,000000A8,false,Rx,0,8,6A,0C,21,E0,21,1F,0F,64,
21771811,000000A9,false,Rx,0,8,F5,0C,79,DF,1D,C7,E0,21,
21771817,000000B6,false,Rx,0,5,00,01,80,00,C8,00,00,00,
21772044,000000BA,false,Rx,0,7,03,FF,0F,00,00,59,8C,00,
21772278,000000C4,false,Rx,0,7,93,01,FC,00,00,FF,F1,00,
21772690,000000CE,false,Rx,0,8,00,00,00,00,00,00,00,00,
21772916,0000019E,false,Rx,0,8,00,EA,4F,FC,FE,61,00,37,
21773157,000001A0,false,Rx,0,8,00,80,00,00,80,00,18,BA,
21773383,000002B2,false,Rx,0,8,00,00,00,00,0F,80,00,04,
21781561,000000A8,false,Rx,0,8,6B,0D,21,E0,21,1F,0F,64,
21783305,000000A9,false,Rx,0,8,F6,0D,79,DF,1D,C7,E0,21,
21783313,000000BA,false,Rx,0,7,03,FF,0F,00,00,5A,8D,00,
21783318,000000C4,false,Rx,0,7,93,01,FC,00,00,FF,F1,00,
21791454,000000A8,false,Rx,0,8,6C,0E,21,E0,21,1F,0F,64,
21791681,000000A9,false,Rx,0,8,F7,0E,79,DF,1D,C7,E0,21,
21791907,000000B6,false,Rx,0,5,02,02,80,00,C8,00,00,00,
21792133,000000BA,false,Rx,0,7,03,FF,0F,00,00,5B,8E,00,
21792366,000000C4,false,Rx,0,7,93,01,FC,00,00,FF,F1,00,
21792592,000000CE,false,Rx,0,8,00,00,00,00,00,00,00,00,
21792818,0000019E,false,Rx,0,8,00,EA,4F,FC,FE,61,00,37,
21793050,000001A0,false,Rx,0,8,00,80,00,00,80,00,28,CA,
21793283,000002B2,false,Rx,0,8,00,00,00,00,0F,80,00,04,
21793509,000001D6,false,Rx,0,2,FF,F3,00,00,00,00,00,00,
21801511,000000A8,false,Rx,0,8,5E,00,21,E0,21,1F,0F,64,
21801736,000000A9,false,Rx,0,8,E9,00,79,DF,1D,C7,E0,21,
21803584,000000BA,false,Rx,0,7,03,FF,0F,00,00,4D,80,00,
21803592,000000C4,false,Rx,0,7,93,01,FC,00,00,FF,F1,00,
21811454,000000A8,false,Rx,0,8,5F,01,21,E0,21,1F,0F,64,
21811682,000000A9,false,Rx,0,8,EA,01,79,DF,1D,C7,E0,21,
21811908,000000B6,false,Rx,0,5,03,03,80,00,C8,00,00,00,
21812135,000000BA,false,Rx,0,7,03,FF,0F,00,00,4E,81,00,
21812368,000000C4,false,Rx,0,7,93,01,FC,00,00,FF,F1,00,
21812594,000000CE,false,Rx,0,8,00,00,00,00,00,00,00,00,
21812821,0000019E,false,Rx,0,8,00,EA,4F,FC,FE,61,00,37,
21813053,000001A0,false,Rx,0,8,00,80,00,00,80,00,38,DA,
21813286,000002B2,false,Rx,0,8,00,00,00,00,0F,80,00,04,
21813512,000004A9,false,Rx,0,8,30,52,FF,FF,FF,FF,FF,FF,
21816041,00000332,false,Rx,0,2,61,82,00,00,00,00,00,00,
21816046,00000332,false,Rx,0,2,61,82,00,00,00,00,00,00,
21816279,000001D0,false,Rx,0,8,3C,FF,0E,C3,00,00,CD,82,
21816504,00000332,false,Rx,0,2,61,82,00,00,00,00,00,00,
21821456,000000A8,false,Rx,0,8,60,02,21,E0,21,1F,0F,64,
21821682,000000A9,false,Rx,0,8,EB,02,79,DF,1D,C7,E0,21,
21821908,000000BA,false,Rx,0,7,03,FF,0F,00,00,4F,82,00,
21823621,000000C4,false,Rx,0,7,93,01,FC,00,00,FF,F1,00,
21831487,000000A8,false,Rx,0,8,61,03,21,E0,21,1F,0F,64,
21831714,000000A9,false,Rx,0,8,EC,03,79,DF,1D,C7,E0,21,
21831939,000000B6,false,Rx,0,5,04,04,80,00,C8,00,00,00,
21832176,000000BA,false,Rx,0,7,03,FF,0F,00,00,50,83,00,
21832402,000000C4,false,Rx,0,7,93,01,FC,00,00,FF,F1,00,
21832627,000000CE,false,Rx,0,8,00,00,00,00,00,00,00,00,
21832854,0000019E,false,Rx,0,8,00,EA,4F,FC,FE,61,00,37,
21833082,000001A0,false,Rx,0,8,00,80,00,00,80,00,48,EA,
21833315,000002B2,false,Rx,0,8,00,00,00,00,0F,80,00,04,
21841526,000000A8,false,Rx,0,8,62,04,21,E0,21,1F,0F,64,
21841752,000000A9,false,Rx,0,8,ED,04,79,DF,1D,C7,E0,21,
21841977,000000BA,false,Rx,0,7,03,FF,0F,00,00,51,84,00,
21843687,000000C4,false,Rx,0,7,93,01,FC,00,00,FF,F1,00,
21851487,000000A8,false,Rx,0,8,63,05,21,E0,21,1F,0F,64,
21851716,000000A9,false,Rx,0,8,EE,05,79,DF,1D,C7,E0,21,
21851942,000000B6,false,Rx,0,5,05,05,80,00,C8,00,00,00,
21852176,000000BA,false,Rx,0,7,03,FF,0F,00,00,52,85,00,
21852402,000000C4,false,Rx,0,7,93,01,FC,00,00,FF,F1,00,
21852628,000000CE,false,Rx,0,8,00,00,00,00,00,00,00,00,
21852854,0000019E,false,Rx,0,8,00,EA,4F,FC,FE,61,00,37,
21853083,000001A0,false,Rx,0,8,00,80,00,00,80,00,58,FA,
21853316,000002B2,false,Rx,0,8,00,00,00,00,0F,80,00,04,
21853543,000001A6,false,Rx,0,8,00,00,00,00,00,00,60,F9,
21856423,00000130,false,Rx,0,5,00,03,C0,0F,A6,00,00,00,
21861568,000000A8,false,Rx,0,8,64,06,21,E0,21,1F,0F,64,
21861794,000000A9,false,Rx,0,8,EF,06,79,DF,1D,C7,E0,21,
21862061,000000BA,false,Rx,0,7,03,FF,0F,00,00,53,86,00,
21862067,000000C4,false,Rx,0,7,93,01,FC,00,00,FF,F1,00,
21871415,000000A8,false,Rx,0,8,65,07,21,E0,21,1F,0F,64,
21871645,000000A9,false,Rx,0,8,F0,07,79,DF,1D,C7,E0,21,
21871871,000000B6,false,Rx,0,5,06,06,80,00,C8,00,00,00,
21872099,000000BA,false,Rx,0,7,03,FF,0F,00,00,54,87,00,
21872333,000000C4,false,Rx,0,7,93,01,FC,00,00,FF,F1,00,
21872559,000000CE,false,Rx,0,8,00,00,00,00,00,00,00,00,
21872785,0000019E,false,Rx,0,8,00,EA,4F,FC,FE,61,00,37,
21873013,000001A0,false,Rx,0,8,00,80,00,00,80,00,68,0B,
21873238,000001D2,false,Rx,0,5,E1,0C,8F,00,F0,00,00,00,
21873472,000002B2,false,Rx,0,8,00,00,00,00,0F,80,00,04,
21881459,000000A8,false,Rx,0,8,66,08,21,E0,21,1F,0F,64,
21881685,000000A9,false,Rx,0,8,F1,08,79,DF,1D,C7,E0,21,
21881912,000000BA,false,Rx,0,7,03,FF,0F,00,00,55,88,00,
21882152,000000C4,false,Rx,0,7,93,01,FC,00,00,FF,F1,00,
21891470,000000A8,false,Rx,0,8,67,09,21,E0,21,1F,0F,64,
21891700,000000A9,false,Rx,0,8,F2,09,79,DF,1D,C7,E0,21,
21891925,000000B6,false,Rx,0,5,07,07,80,00,C8,00,00,00,
21892159,000000BA,false,Rx,0,7,03,FF,0F,00,00,56,89,00,
21892385,000000C4,false,Rx,0,7,93,01,FC,00,00,FF,F1,00,
21892611,000000CE,false,Rx,0,8,00,00,00,00,00,00,00,00,
21892837,0000019E,false,Rx,0,8,00,EA,5F,FC,FE,61,00,47,
21893069,000001A0,false,Rx,0,8,00,80,00,00,80,00,78,1B,
21893308,000002B2,false,Rx,0,8,00,00,00,00,0F,80,00,04,
21893551,000001D6,false,Rx,0,2,FF,F3,00,00,00,00,00,00,
21901557,000000A8,false,Rx,0,8,68,0A,21,E0,21,1F,0F,64,
21901783,000000A9,false,Rx,0,8,F3,0A,79,DF,1D,C7,E0,21,
21902013,000000BA,false,Rx,0,7,03,FF,0F,00,00,57,8A,00,
21902247,000000C4,false,Rx,0,7,93,01,FC,00,00,FF,F1,00,
21911557,000000A8,false,Rx,0,8,69,0B,21,E0,21,1F,0F,64,
21911819,000000A9,false,Rx,0,8,F4,0B,79,DF,1D,C7,E0,21,
21911824,000000B6,false,Rx,0,5,08,08,80,00,C8,00,00,00,
21912054,000000BA,false,Rx,0,7,03,FF,0F,00,00,58,8B,00,
21912286,000000C4,false,Rx,0,7,93,01,FC,00,00,FF,F1,00,
21912513,000000CE,false,Rx,0,8,00,00,00,00,00,00,00,00,
21912737,0000019E,false,Rx,0,8,00,EA,5F,FC,FE,61,00,47,
21913160,000001A0,false,Rx,0,8,00,80,00,00,80,00,88,2B,
21913386,000002B2,false,Rx,0,8,00,00,00,00,0F,80,00,04,
21913612,000004B0,false,Rx,0,8,00,42,FE,FF,FF,FF,FF,FF,
21915915,00000332,false,Rx,0,2,61,82,00,00,00,00,00,00,
21916152,00000332,false,Rx,0,2,61,82,00,00,00,00,00,00,
21916411,000001D0,false,Rx,0,8,3C,FF,0E,C3,00,00,CD,82,
21916417,00000332,false,Rx,0,2,61,82,00,00,00,00,00,00,
21921560,000000A8,false,Rx,0,8,6A,0C,21,E0,21,1F,0F,64,
21921786,000000A9,false,Rx,0,8,F5,0C,79,DF,1D,C7,E0,21,
21922014,000000BA,false,Rx,0,7,03,FF,0F,00,00,59,8C,00,
21922247,000000C4,false,Rx,0,7,93,01,FC,00,00,FF,F1,00,
21931535,000000A8,false,Rx,0,8,6B,0D,21,E0,21,1F,0F,64,
21931798,000000A9,false,Rx,0,8,F6,0D,79,DF,1D,C7,E0,21,
21931803,000000B6,false,Rx,0,5,09,09,80,00,C8,00,00,00,
21932030,000000BA,false,Rx,0,7,03,FF,0F,00,00,5A,8D,00,
21932263,000000C4,false,Rx,0,7,93,01,FC,00,00,FF,F1,00,
21932676,000000CE,false,Rx,0,8,00,00,00,00,00,00,00,00,
21932902,0000019E,false,Rx,0,8,00,EA,5F,FC,FE,61,00,47,
21933136,000001A0,false,Rx,0,8,00,80,00,00,80,00,98,3B,
21933368,000002B2,false,Rx,0,8,00,00,00,00,0F,80,00,04,
21941468,000000A8,false,Rx,0,8,6C,0E,21,E0,21,1F,0F,64,
21941694,000000A9,false,Rx,0,8,F7,0E,79,DF,1D,C7,E0,21,
21941921,000000BA,false,Rx,0,7,03,FF,0F,00,00,5B,8E,00,
21942162,000000C4,false,Rx,0,7,93,01,FC,00,00,FF,F1,00,
21942388,000000C8,false,Rx,0,6,92,01,8C,00,00,6C,00,00,
21951558,000000A8,false,Rx,0,8,5E,00,21,E0,21,1F,0F,64,
21951822,000000A9,false,Rx,0,8,E9,00,79,DF,1D,C7,E0,21,
21951827,000000B6,false,Rx,0,5,0A,0A,80,00,C8,00,00,00,
21952059,000000BA,false,Rx,0,7,03,FF,0F,00,00,4D,80,00,
21952293,000000C4,false,Rx,0,7,93,01,FC,00,00,FF,F1,00,
21952519,000000CE,false,Rx,0,8,00,00,00,00,00,00,00,00,
21952931,0000019E,false,Rx,0,8,00,EA,5F,FC,FE,61,00,47,
21953207,000001A0,false,Rx,0,8,00,80,00,00,80,00,A8,4B,
21953212,000001FB,false,Rx,0,2,F5,FF,00,00,00,00,00,00,
21953438,000002B2,false,Rx,0,8,00,00,00,00,0F,80,00,04,
21953665,000001A6,false,Rx,0,8,00,00,00,00,00,00,F0,FA,
21956545,00000130,false,Rx,0,5,00,03,C0,0F,B7,00,00,00,
21961526,000000A8,false,Rx,0,8,5F,01,21,E0,21,1F,0F,64,
21961752,000000A9,false,Rx,0,8,EA,01,79,DF,1D,C7,E0,21,
21961978,000000BA,false,Rx,0,7,03,FF,0F,00,00,4E,81,00,
21962218,000000C4,false,Rx,0,7,93,01,FC,00,00,FF,F1,00,
21971579,000000A8,false,Rx,0,8,60,02,21,E0,21,1F,0F,64,
21971842,000000A9,false,Rx,0,8,EB,02,79,DF,1D,C7,E0,21,
21971847,000000B6,false,Rx,0,5,0B,0B,80,00,C8,00,00,00,
21972079,000000BA,false,Rx,0,7,03,FF,0F,00,00,4F,82,00,
21972312,000000C4,false,Rx,0,7,93,01,FC,00,00,FF,F1,00,
21972538,000000CE,false,Rx,0,8,00,00,00,00,00,00,00,00,
21972764,0000019E,false,Rx,0,8,00,EA,5F,FC,FE,61,00,47,
21973191,000001A0,false,Rx,0,8,00,80,00,00,80,00,B8,5B,
21973417,000002B2,false,Rx,0,8,00,00,00,00,0F,80,00,04,
21980454,00000130,false,Rx,0,5,00,03,D0,0F,D8,00,00,00,
21981447,000000A8,false,Rx,0,8,61,03,21,E0,21,1F,0F,64,
21981674,000000A9,false,Rx,0,8,EC,03,79,DF,1D,C7,E0,21,
21981900,000000BA,false,Rx,0,7,03,FF,0F,00,00,50,83,00,
21982130,000000C4,false,Rx,0,7,93,01,FC,00,00,FF,F1,00,
21991521,000000A8,false,Rx,0,8,62,04,21,E0,21,1F,0F,64,
21991751,000000A9,false,Rx,0,8,ED,04,79,DF,1D,C7,E0,21,
21991977,000000B6,false,Rx,0,5,0C,0C,80,00,C8,00,00,00,
21992216,000000BA,false,Rx,0,7,03,FF,0F,00,00,51,84,00,
21992442,000000C4,false,Rx,0,7,93,01,FC,00,00,FF,F1,00,
21992668,000000CE,false,Rx,0,8,00,00,00,00,00,00,00,00,
21992894,0000019E,false,Rx,0,8,00,EA,5F,FC,FE,61,00,47,
21993131,000001A0,false,Rx,0,8,00,80,00,00,80,00,C8,6B,
21993398,000002B2,false,Rx,0,8,00,00,00,00,0F,80,00,04,
21993403,000001D6,false,Rx,0,2,FF,F3,00,00,00,00,00,00,
21998937,00000480,false,Rx,0,8,17,42,FD,FF,FF,FF,FF,FF,
22001442,000000A8,false,Rx,0,8,63,05,21,E0,21,1F,0F,64,
22001667,000000A9,false,Rx,0,8,EE,05,79,DF,1D,C7,E0,21,
22001894,000000BA,false,Rx,0,7,03,FF,0F,00,00,52,85,00,
22002123,000000C4,false,Rx,0,7,93,01,FC,00,00,FF,F1,00,
22011423,000000A8,false,Rx,0,8,64,06,21,E0,21,1F,0F,64,
22011653,000000A9,false,Rx,0,8,EF,06,79,DF,1D,C7,E0,21,
22011879,000000B6,false,Rx,0,5,0D,0D,80,00,C8,00,00,00,
22012106,000000BA,false,Rx,0,7,03,FF,0F,00,00,53,86,00,
22012339,000000C4,false,Rx,0,7,93,01,FC,00,00,FF,F1,00,
22012565,000000CE,false,Rx,0,8,00,00,00,00,00,00,00,00,
22012791,0000019E,false,Rx,0,8,00,EA,5F,FC,FE,61,00,47,
22013027,000001A0,false,Rx,0,8,00,80,00,00,80,00,D8,7B,
22013261,000002B2,false,Rx,0,8,00,00,00,00,0F,80,00,04,
22015937,00000332,false,Rx,0,2,61,82,00,00,00,00,00,00,
22016172,00000332,false,Rx,0,2,61,82,00,00,00,00,00,00,
22016431,000001D0,false,Rx,0,8,3C,FF,00,C3,00,00,CD,82,
22016437,00000332,false,Rx,0,2,61,82,00,00,00,00,00,00,
22021392,000000A8,false,Rx,0,8,65,07,21,E0,21,1F,0F,64,
22021839,000000A9,false,Rx,0,8,F0,07,79,DF,1D,C7,E0,21,
22021844,000000BA,false,Rx,0,7,03,FF,0F,00,00,54,87,00,
22022074,000000C4,false,Rx,0,7,93,01,FC,00,00,FF,F1,00,
22031624,000000A8,false,Rx,0,8,66,08,21,E0,21,1F,0F,64,
22031632,000000A9,false,Rx,0,8,F1,08,79,DF,1D,C7,E0,21,
22031873,000000B6,false,Rx,0,5,0E,0E,80,00,C8,00,00,00,
22032134,000000BA,false,Rx,0,7,03,FF,0F,00,00,55,88,00,
22032367,000000C4,false,Rx,0,7,93,01,FC,00,00,FF,F1,00,
22032593,000000CE,false,Rx,0,8,00,00,00,00,00,00,00,00,
22032819,0000019E,false,Rx,0,8,00,EA,5F,FC,FE,61,00,47,
22033053,000001A0,false,Rx,0,8,00,80,00,00,80,00,E8,8B,
22033286,000002B2,false,Rx,0,8,00,00,00,00,0F,80,00,04,
22041450,000000A8,false,Rx,0,8,67,09,21,E0,21,1F,0F,64,
22041676,000000A9,false,Rx,0,8,F2,09,79,DF,1D,C7,E0,21,
22041902,000000BA,false,Rx,0,7,03,FF,0F,00,00,56,89,00,
22042137,000000C4,false,Rx,0,7,93,01,FC,00,00,FF,F1,00,
22051487,000000A8,false,Rx,0,8,68,0A,21,E0,21,1F,0F,64,
22051717,000000A9,false,Rx,0,8,F3,0A,79,DF,1D,C7,E0,21,
22051942,000000B6,false,Rx,0,5,FF,00,80,00,C8,00,00,00,
22052181,000000BA,false,Rx,0,7,03,FF,0F,00,00,57,8A,00,
22052407,000000C4,false,Rx,0,7,93,01,FC,00,00,FF,F1,00,
22052633,000000CE,false,Rx,0,8,00,00,00,00,00,00,00,00,
22052859,0000019E,false,Rx,0,8,00,EA,5F,FC,FE,61,00,47,
22053089,000001A0,false,Rx,0,8,00,80,00,00,80,00,08,AA,
22053322,000002B2,false,Rx,0,8,00,00,00,00,0F,80,00,04,
22053548,000001A6,false,Rx,0,8,00,00,00,00,00,00,80,FC,
22056243,00000130,false,Rx,0,5,00,03,D0,0F,E9,00,00,00,
22061390,000000A8,false,Rx,0,8,69,0B,21,E0,21,1F,0F,64,
22061803,000000A9,false,Rx,0,8,F4,0B,79,DF,1D,C7,E0,21,
22061842,000000BA,false,Rx,0,7,03,FF,0F,00,00,58,8B,00,
22062073,000000C4,false,Rx,0,7,93,01,FC,00,00,FF,F1,00,
22071442,000000A8,false,Rx,0,8,6A,0C,21,E0,21,1F,0F,64,
22071672,000000A9,false,Rx,0,8,F5,0C,79,DF,1D,C7,E0,21,
22071898,000000B6,false,Rx,0,5,00,01,80,00,C8,00,00,00,
22072126,000000BA,false,Rx,0,7,03,FF,0F,00,00,59,8C,00,
22072360,000000C4,false,Rx,0,7,93,01,FC,00,00,FF,F1,00,
22072586,000000CE,false,Rx,0,8,00,00,00,00,00,00,00,00,
22072812,0000019E,false,Rx,0,8,00,EA,5F,FC,FE,61,00,47,
22073041,000001A0,false,Rx,0,8,00,80,00,00,80,00,18,BA,
22073273,000001D2,false,Rx,0,5,E1,0C,8F,10,F0,00,00,00,
22073499,000002B2,false,Rx,0,8,00,00,00,00,0F,80,00,04,
22081487,000000A8,false,Rx,0,8,6B,0D,21,E0,21,1F,0F,64,
22081713,000000A9,false,Rx,0,8,F6,0D,79,DF,1D,C7,E0,21,
22081938,000000BA,false,Rx,0,7,03,FF,0F,00,00,5A,8D,00,
22082177,000000C4,false,Rx,0,7,93,01,FC,00,00,FF,F1,00,
22089577,00000497,false,Rx,0,8,29,52,FF,FF,FF,FF,FF,FF,
22091511,000000A8,false,Rx,0,8,6C,0E,21,E0,21,1F,0F,64,
22091737,000000A9,false,Rx,0,8,F7,0E,79,DF,1D,C7,E0,21,
22091963,000000B6,false,Rx,0,5,02,02,80,00,C8,00,00,00,
22092199,000000BA,false,Rx,0,7,03,FF,0F,00,00,5B,8E,00,
22092425,000000C4,false,Rx,0,7,93,01,FC,00,00,FF,F1,00,
22092651,000000CE,false,Rx,0,8,00,00,00,00,00,00,00,00,
22092877,0000019E,false,Rx,0,8,00,EA,5F,FC,FE,61,00,47,
22093111,000001A0,false,Rx,0,8,00,80,00,00,80,00,28,CA,
22093378,000002B2,false,Rx,0,8,00,00,00,00,0F,80,00,04,
22093383,000001D6,false,Rx,0,2,FF,F3,00,00,00,00,00,00,
22101537,000000A8,false,Rx,0,8,5E,00,21,E0,21,1F,0F,64,
22101765,000000A9,false,Rx,0,8,E9,00,79,DF,1D,C7,E0,21,
22101991,000000BA,false,Rx,0,7,03,FF,0F,00,00,4D,80,00,
22102230,000000C4,false,Rx,0,7,93,01,FC,00,00,FF,F1,00,
22105313,00000310,false,Rx,0,7,76,10,93,B8,00,E7,22,00,
22111553,000000A8,false,Rx,0,8,5F,01,21,E0,21,1F,0F,64,
22111813,000000A9,false,Rx,0,8,EA,01,79,DF,1D,C7,E0,21,
22111819,000000B6,false,Rx,0,5,03,03,80,00,C8,00,00,00,
22112049,000000BA,false,Rx,0,7,03,FF,0F,00,00,4E,81,00,
22112282,000000C4,false,Rx,0,7,93,01,FC,00,00,FF,F1,00,
22112695,000000CE,false,Rx,0,8,00,00,00,00,00,00,00,00,
22112921,0000019E,false,Rx,0,8,00,EA,6F,FC,FE,61,00,57,
22113160,000001A0,false,Rx,0,8,00,80,00,00,80,00,38,DA,
22113386,000002B2,false,Rx,0,8,00,00,00,00,0F,80,00,04,
22116097,00000332,false,Rx,0,2,61,82,00,00,00,00,00,00,
22116102,00000332,false,Rx,0,2,61,82,00,00,00,00,00,00,
22116334,000001D0,false,Rx,0,8,3C,FF,00,C3,00,00,CD,82,
22116559,00000332,false,Rx,0,2,61,82,00,00,00,00,00,00,
22121517,000000A8,false,Rx,0,8,60,02,21,E0,21,1F,0F,64,
22121744,000000A9,false,Rx,0,8,EB,02,79,DF,1D,C7,E0,21,
22121969,000000BA,false,Rx,0,7,03,FF,0F,00,00,4F,82,00,
22122211,000000C4,false,Rx,0,7,93,01,FC,00,00,FF,F1,00,
22131428,000000A8,false,Rx,0,8,61,03,21,E0,21,1F,0F,64,
22131657,000000A9,false,Rx,0,8,EC,03,79,DF,1D,C7,E0,21,
22131883,000000B6,false,Rx,0,5,04,04,80,00,C8,00,00,00,
22132113,000000BA,false,Rx,0,7,03,FF,0F,00,00,50,83,00,
22132345,000000C4,false,Rx,0,7,93,01,FC,00,00,FF,F1,00,
22132572,000000CE,false,Rx,0,8,00,00,00,00,00,00,00,00,
22132798,0000019E,false,Rx,0,8,00,EA,6F,FC,FE,61,00,57,
22133031,000001A0,false,Rx,0,8,00,80,00,00,80,00,48,EA,
22133264,000002B2,false,Rx,0,8,00,00,00,00,0F,80,00,04,
22141430,000000A8,false,Rx,0,8,62,04,21,E0,21,1F,0F,64,
22141657,000000A9,false,Rx,0,8,ED,04,79,DF,1D,C7,E0,21,
22141883,000000BA,false,Rx,0,7,03,FF,0F,00,00,51,84,00,
22142111,000000C4,false,Rx,0,7,93,01,FC,00,00,FF,F1,00,
22142346,000000C8,false,Rx,0,6,92,01,DC,00,00,8C,00,00,
22145364,000001FB,false,Rx,0,2,F6,FF,00,00,00,00,00,00,
22151523,000000A8,false,Rx,0,8,63,05,21,E0,21,1F,0F,64,
22151750,000000A9,false,Rx,0,8,EE,05,79,DF,1D,C7,E0,21,
22151975,000000B6,false,Rx,0,5,05,05,80,00,C8,00,00,00,
22152216,000000BA,false,Rx,0,7,03,FF,0F,00,00,52,85,00,
22152255,000000C4,false,Rx,0,7,93,01,FC,00,00,FF,F1,00,
22152668,000000CE,false,Rx,0,8,00,00,00,00,00,00,00,00,
22152894,0000019E,false,Rx,0,8,00,EA,6F,FC,FE,61,00,57,
22153128,000001A0,false,Rx,0,8,00,80,00,00,80,00,58,FA,
22153361,000002B2,false,Rx,0,8,00,00,00,00,0F,80,00,04,
22153587,000001A6,false,Rx,0,8,00,00,00,00,00,00,10,FE,
22153813,00000374,false,Rx,0,5,00,00,00,00,FC,00,00,00,
22156313,00000130,false,Rx,0,5,00,03,D0,0F,FA,00,00,00,
22161450,000000A8,false,Rx,0,8,64,06,21,E0,21,1F,0F,64,
22161676,000000A9,false,Rx,0,8,EF,06,79,DF,1D,C7,E0,21,
22161902,000000BA,false,Rx,0,7,03,FF,0F,00,00,53,86,00,
22162136,000000C4,false,Rx,0,7,93,01,FC,00,00,FF,F1,00,
22171471,000000A8,false,Rx,0,8,65,07,21,E0,21,1F,0F,64,
22171701,000000A9,false,Rx,0,8,F0,07,79,DF,1D,C7,E0,21,
22171927,000000B6,false,Rx,0,5,06,06,80,00,C8,00,00,00,
22172161,000000BA,false,Rx,0,7,03,FF,0F,00,00,54,87,00,
22172387,000000C4,false,Rx,0,7,93,01,FC,00,00,FF,F1,00,
22172613,000000CE,false,Rx,0,8,00,00,00,00,00,00,00,00,
22172840,0000019E,false,Rx,0,8,00,EA,6F,FC,FE,61,00,57,
22173068,000001A0,false,Rx,0,8,00,80,00,00,80,00,68,0B,
22173302,000002B2,false,Rx,0,8,00,00,00,00,0F,80,00,04,
22173528,000004A9,false,Rx,0,8,30,52,FF,FF,FF,FF,FF,FF,
22181519,000000A8,false,Rx,0,8,66,08,21,E0,21,1F,0F,64,
22181745,000000A9,false,Rx,0,8,F1,08,79,DF,1D,C7,E0,21,
22181971,000000BA,false,Rx,0,7,03,FF,0F,00,00,55,88,00,
22182209,000000C4,false,Rx,0,7,93,01,FC,00,00,FF,F1,00,
22191544,000000A8,false,Rx,0,8,67,09,21,E0,21,1F,0F,64,
22191808,000000A9,false,Rx,0,8,F2,09,79,DF,1D,C7,E0,21,
22191813,000000B6,false,Rx,0,5,07,07,80,00,C8,00,00,00,
22192046,000000BA,false,Rx,0,7,03,FF,0F,00,00,56,89,00,
22192278,000000C4,false,Rx,0,7,93,01,FC,00,00,FF,F1,00,
22192691,000000CE,false,Rx,0,8,00,00,00,00,00,00,00,00,
22192917,0000019E,false,Rx,0,8,00,EA,6F,FC,FE,61,00,57,
22193157,000001A0,false,Rx,0,8,00,80,00,00,80,00,78,1B,
22193417,000002B2,false,Rx,0,8,00,00,00,00,0F,80,00,04,
22193422,000001D6,false,Rx,0,2,FF,F3,00,00,00,00,00,00,
22201429,000000A8,false,Rx,0,8,68,0A,21,E0,21,1F,0F,64,
22201655,000000A9,false,Rx,0,8,F3,0A,79,DF,1D,C7,E0,21,
22201881,000000BA,false,Rx,0,7,03,FF,0F,00,00,57,8A,00,
22202109,000000C4,false,Rx,0,7,93,01,FC,00,00,FF,F1,00,
22211539,000000A8,false,Rx,0,8,69,0B,21,E0,21,1F,0F,64,
22211802,000000A9,false,Rx,0,8,F4,0B,79,DF,1D,C7,E0,21,
22211807,000000B6,false,Rx,0,5,08,08,80,00,C8,00,00,00,
22212035,000000BA,false,Rx,0,7,03,FF,0F,00,00,58,8B,00,
22212268,000000C4,false,Rx,0,7,93,01,FC,00,00,FF,F1,00,
22212681,000000CE,false,Rx,0,8,00,00,00,00,00,00,00,00,
22212907,0000019E,false,Rx,0,8,00,EA,6F,FC,FE,61,00,57,
22213138,000001A0,false,Rx,0,8,00,80,00,00,80,00,88,2B,
22213372,000002B2,false,Rx,0,8,00,00,00,00,0F,80,00,04,
22216084,00000332,false,Rx,0,2,61,82,00,00,00,00,00,00,
22216089,00000332,false,Rx,0,2,61,82,00,00,00,00,00,00,
22216320,000001D0,false,Rx,0,8,3C,FF,01,C3,00,00,CD,82,
22216545,00000332,false,Rx,0,2,61,82,00,00,00,00,00,00,
22220743,000001B5,false,Rx,0,7,C8,FF,04,00,88,FF,FF,00,
22221546,000000A8,false,Rx,0,8,6A,0C,21,E0,21,1F,0F,64,
22221771,000000A9,false,Rx,0,8,F5,0C,79,DF,1D,C7,E0,21,
22221998,000000BA,false,Rx,0,7,03,FF,0F,00,00,59,8C,00,
22222236,000000C4,false,Rx,0,7,93,01,FC,00,00,FF,F1,00,
22231438,000000A8,false,Rx,0,8,6B,0D,21,E0,21,1F,0F,64,
22231668,000000A9,false,Rx,0,8,F6,0D,79,DF,1D,C7,E0,21,
22231894,000000B6,false,Rx,0,5,09,09,80,00,C8,00,00,00,
22232126,000000BA,false,Rx,0,7,03,FF,0F,00,00,5A,8D,00,
22232359,000000C4,false,Rx,0,7,93,01,FC,00,00,FF,F1,00,
22232585,000000CE,false,Rx,0,8,00,00,00,00,00,00,00,00,
22232812,0000019E,false,Rx,0,8,00,EA,6F,FC,FE,61,00,57,
22233040,000001A0,false,Rx,0,8,00,80,00,00,80,00,98,3B,
22233273,000002B2,false,Rx,0,8,00,00,00,00,0F,80,00,04,
22241447,000000A8,false,Rx,0,8,6C,0E,21,E0,21,1F,0F,64,
22241673,000000A9,false,Rx,0,8,F7,0E,79,DF,1D,C7,E0,21,
22241899,000000BA,false,Rx,0,7,03,FF,0F,00,00,5B,8E,00,
22242130,000000C4,false,Rx,0,7,93,01,FC,00,00,FF,F1,00,
22251440,000000A8,false,Rx,0,8,5E,00,21,E0,21,1F,0F,64,
22251670,000000A9,false,Rx,0,8,E9,00,79,DF,1D,C7,E0,21,
22251895,000000B6,false,Rx,0,5,0A,0A,80,00,C8,00,00,00,
22252123,000000BA,false,Rx,0,7,03,FF,0F,00,00,4D,80,00,
22252356,000000C4,false,Rx,0,7,93,01,FC,00,00,FF,F1,00,
22252583,000000CE,false,Rx,0,8,00,00,00,00,00,00,00,00,
22252809,0000019E,false,Rx,0,8,00,EA,6F,FC,FE,61,00,57,
22253040,000001A0,false,Rx,0,8,00,80,00,00,80,00,A8,4B,
22253273,000002B2,false,Rx,0,8,00,00,00,00,0F,80,00,04,
22253499,000001A6,false,Rx,0,8,00,00,00,00,00,00,A0,FF,
22256377,00000130,false,Rx,0,5,00,03,D0,0F,0B,00,00,00,
22261522,000000A8,false,Rx,0,8,5F,01,21,E0,21,1F,0F,64,
22261748,000000A9,false,Rx,0,8,EA,01,79,DF,1D,C7,E0,21,
22261974,000000BA,false,Rx,0,7,03,FF,0F,00,00,4E,81,00,
22262214,000000C4,false,Rx,0,7,93,01,FC,00,00,FF,F1,00,
22271502,000000A8,false,Rx,0,8,60,02,21,E0,21,1F,0F,64,
22271741,000000A9,false,Rx,0,8,EB,02,79,DF,1D,C7,E0,21,
22271985,000000B6,false,Rx,0,5,0B,0B,80,00,C8,00,00,00,
22272286,000000BA,false,Rx,0,7,03,FF,0F,00,00,4F,82,00,
22272291,000000C4,false,Rx,0,7,93,01,FC,00,00,FF,F1,00,
22272704,000000CE,false,Rx,0,8,00,00,00,00,00,00,00,00,
22272930,0000019E,false,Rx,0,8,00,EA,6F,FC,FE,61,00,57,
22273200,000001A0,false,Rx,0,8,00,80,00,00,80,00,B8,5B,
22273205,000001D2,false,Rx,0,5,E1,0C,8F,20,F0,00,00,00,
22273431,000002B2,false,Rx,0,8,00,00,00,00,0F,80,00,04,
22273844,000004B0,false,Rx,0,8,00,42,FE,01,FF,FF,FF,FF,
22281458,000000A8,false,Rx,0,8,61,03,21,E0,21,1F,0F,64,
22281685,000000A9,false,Rx,0,8,EC,03,79,DF,1D,C7,E0,21,
22281911,000000BA,false,Rx,0,7,03,FF,0F,00,00,50,83,00,
22282152,000000C4,false,Rx,0,7,93,01,FC,00,00,FF,F1,00,
22291491,000000A8,false,Rx,0,8,62,04,21,E0,21,1F,0F,64,
22291721,000000A9,false,Rx,0,8,ED,04,79,DF,1D,C7,E0,21,
22291946,000000B6,false,Rx,0,5,0C,0C,80,00,C8,00,00,00,
22292183,000000BA,false,Rx,0,7,03,FF,0F,00,00,51,84,00,
22292409,000000C4,false,Rx,0,7,93,01,FC,00,00,FF,F1,00,
22292635,000000CE,false,Rx,0,8,00,00,00,00,00,00,00,00,
22292861,0000019E,false,Rx,0,8,00,EA,6F,FC,FE,61,00,57,
22293092,000001A0,false,Rx,0,8,00,80,00,00,80,00,C8,6B,
22293326,000002B2,false,Rx,0,8,00,00,00,00,0F,80,00,04,
22293552,000001D6,false,Rx,0,2,FF,F3,00,00,00,00,00,00,
22301535,000000A8,false,Rx,0,8,63,05,21,E0,21,1F,0F,64,
22301761,000000A9,false,Rx,0,8,EE,05,79,DF,1D,C7,E0,21,
22301988,000000BA,false,Rx,0,7,03,FF,0F,00,00,52,85,00,
22302229,000000C4,false,Rx,0,7,93,01,FC,00,00,FF,F1,00,
22311566,000000A8,false,Rx,0,8,64,06,21,E0,21,1F,0F,64,
22311830,000000A9,false,Rx,0,8,EF,06,79,DF,1D,C7,E0,21,
22311835,000000B6,false,Rx,0,5,0D,0D,80,00,C8,00,00,00,
22312062,000000BA,false,Rx,0,7,03,FF,0F,00,00,53,86,00,
22312296,000000C4,false,Rx,0,7,93,01,FC,00,00,FF,F1,00,
22312522,000000CE,false,Rx,0,8,00,00,00,00,00,00,00,00,
22312748,0000019E,false,Rx,0,8,00,EA,7F,FC,FE,61,00,67,
22313177,000001A0,false,Rx,0,8,00,80,00,00,80,00,D8,7B,
22313403,000002B2,false,Rx,0,8,00,00,00,00,0F,80,00,04,
22315985,00000332,false,Rx,0,2,61,82,00,00,00,00,00,00,
22316223,00000332,false,Rx,0,2,61,82,00,00,00,00,00,00,
22316482,000001D0,false,Rx,0,8,3C,FF,01,C3,00,00,CD,82,
22316488,00000332,false,Rx,0,2,61,82,00,00,00,00,00,00,
22321446,000000A8,false,Rx,0,8,65,07,21,E0,21,1F,0F,64,
22321672,000000A9,false,Rx,0,8,F0,07,79,DF,1D,C7,E0,21,
22321899,000000BA,false,Rx,0,7,03,FF,0F,00,00,54,87,00,
22322130,000000C4,false,Rx,0,7,93,01,FC,00,00,FF,F1,00,
22331455,000000A8,false,Rx,0,8,66,08,21,E0,21,1F,0F,64,
22331696,000000A9,false,Rx,0,8,F1,08,79,DF,1D,C7,E0,21,
22331960,000000B6,false,Rx,0,5,0E,0E,80,00,C8,00,00,00,
22332266,000000BA,false,Rx,0,7,03,FF,0F,00,00,55,88,00,
22332271,000000C4,false,Rx,0,7,93,01,FC,00,00,FF,F1,00,
22332684,000000CE,false,Rx,0,8,00,00,00,00,00,00,00,00,
22332910,0000019E,false,Rx,0,8,00,EA,7F,FC,FE,61,00,67,
22333152,000001A0,false,Rx,0,8,00,80,00,00,80,00,E8,8B,
22333378,000002B2,false,Rx,0,8,00,00,00,00,0F,80,00,04,
22333977,000001FB,false,Rx,0,2,F7,FF,00,00,00,00,00,00,
22341402,000000A8,false,Rx,0,8,67,09,21,E0,21,1F,0F,64,
22341628,000000A9,false,Rx,0,8,F2,09,79,DF,1D,C7,E0,21,
22341854,000000BA,false,Rx,0,7,03,FF,0F,00,00,56,89,00,
22342088,000000C4,false,Rx,0,7,93,01,FC,00,00,FF,F1,00,
22342319,000000C8,false,Rx,0,6,92,01,3C,00,00,9C,00,00,
22351440,000000A8,false,Rx,0,8,68,0A,21,E0,21,1F,0F,64,
22351672,000000A9,false,Rx,0,8,F3,0A,79,DF,1D,C7,E0,21,
22351897,000000B6,false,Rx,0,5,FF,00,80,00,C8,00,00,00,
22352126,000000BA,false,Rx,0,7,03,FF,0F,00,00,57,8A,00,
22352360,000000C4,false,Rx,0,7,93,01,FC,00,00,FF,F1,00,
22352586,000000CE,false,Rx,0,8,00,00,00,00,00,00,00,00,
22352812,0000019E,false,Rx,0,8,00,EA,7F,FC,FE,61,00,67,
22353041,000001A0,false,Rx,0,8,00,80,00,00,80,00,08,AA,
22353274,000002B2,false,Rx,0,8,00,00,00,00,0F,80,00,04,
22353500,000001A6,false,Rx,0,8,00,00,00,00,00,00,30,F1,
22356378,00000130,false,Rx,0,5,00,03,D0,0F,2C,00,00,00,
22359060,00000480,false,Rx,0,8,17,42,FD,FF,FF,FF,FF,FF,
22361557,000000A8,false,Rx,0,8,69,0B,21,E0,21,1F,0F,64,
22361783,000000A9,false,Rx,0,8,F4,0B,79,DF,1D,C7,E0,21,
22362013,000000BA,false,Rx,0,7,03,FF,0F,00,00,58,8B,00,
22362246,000000C4,false,Rx,0,7,93,01,FC,00,00,FF,F1,00,
22371543,000000A8,false,Rx,0,8,6A,0C,21,E0,21,1F,0F,64,
22371825,000000A9,false,Rx,0,8,F5,0C,79,DF,1D,C7,E0,21,
22371830,000000B6,false,Rx,0,5,00,01,80,00,C8,00,00,00,
22372079,000000BA,false,Rx,0,7,03,FF,0F,00,00,59,8C,00,
22372318,000000C4,false,Rx,0,7,93,01,FC,00,00,FF,F1,00,
22372544,000000CE,false,Rx,0,8,00,00,00,00,00,00,00,00,
22372768,0000019E,false,Rx,0,8,00,EA,7F,FC,FE,61,00,67,
22372994,000001A0,false,Rx,0,8,00,80,00,00,80,00,18,BA,
22373423,000002B2,false,Rx,0,8,00,00,00,00,0F,80,00,04,
22381419,000000A8,false,Rx,0,8,6B,0D,21,E0,21,1F,0F,64,
22381646,000000A9,false,Rx,0,8,F6,0D,79,DF,1D,C7,E0,21,
22381872,000000BA,false,Rx,0,7,03,FF,0F,00,00,5A,8D,00,
22382103,000000C4,false,Rx,0,7,93,01,FC,00,00,FF,F1,00,
22391398,000000A8,false,Rx,0,8,6C,0E,21,E0,21,1F,0F,64,
22391847,000000A9,false,Rx,0,8,F7,0E,79,DF,1D,C7,E0,21,
22391853,000000B6,false,Rx,0,5,02,02,80,00,C8,00,00,00,
22392081,000000BA,false,Rx,0,7,03,FF,0F,00,00,5B,8E,00,
22392314,000000C4,false,Rx,0,7,93,01,FC,00,00,FF,F1,00,
22392541,000000CE,false,Rx,0,8,00,00,00,00,00,00,00,00,
22392767,0000019E,false,Rx,0,8,00,EA,7F,FC,FE,61,00,67,
22393193,000001A0,false,Rx,0,8,00,80,00,00,80,00,28,CA,
22393453,000002B2,false,Rx,0,8,00,00,00,00,0F,80,00,04,
22393459,000001D6,false,Rx,0,2,FF,F3,00,00,00,00,00,00,
22401453,000000A8,false,Rx,0,8,5E,00,21,E0,21,1F,0F,64,
22401688,000000A9,false,Rx,0,8,E9,00,79,DF,1D,C7,E0,21,
22401928,000000BA,false,Rx,0,7,03,FF,0F,00,00,4D,80,00,
22402230,000000C4,false,Rx,0,7,93,01,FC,00,00,FF,F1,00,
22406760,000005E3,false,Rx,0,8,01,02,4A,FF,FF,FF,FF,FF,
22411551,000000A8,false,Rx,0,8,5F,01,21,E0,21,1F,0F,64,
22411811,000000A9,false,Rx,0,8,EA,01,79,DF,1D,C7,E0,21,
22411817,000000B6,false,Rx,0,5,03,03,80,00,C8,00,00,00,
22412046,000000BA,false,Rx,0,7,03,FF,0F,00,00,4E,81,00,
22412278,000000C4,false,Rx,0,7,93,01,FC,00,00,FF,F1,00,
22412690,000000CE,false,Rx,0,8,00,00,00,00,00,00,00,00,
22412921,0000019E,false,Rx,0,8,00,EA,7F,FC,FE,61,00,67,
22413165,000001A0,false,Rx,0,8,00,80,00,00,80,00,38,DA,
22413396,000002B2,false,Rx,0,8,00,00,00,00,0F,80,00,04,
22416134,00000332,false,Rx,0,2,61,82,00,00,00,00,00,00,
22416139,00000332,false,Rx,0,2,61,82,00,00,00,00,00,00,
22416372,000001D0,false,Rx,0,8,3C,FF,02,C3,00,00,CD,82,
22416611,00000332,false,Rx,0,2,61,82,00,00,00,00,00,00,
22421431,000000A8,false,Rx,0,8,60,02,21,E0,21,1F,0F,64,
22421657,000000A9,false,Rx,0,8,EB,02,79,DF,1D,C7,E0,21,
22421882,000000BA,false,Rx,0,7,03,FF,0F,00,00,4F,82,00,
22422111,000000C4,false,Rx,0,7,93,01,FC,00,00,FF,F1,00,
22431525,000000A8,false,Rx,0,8,61,03,21,E0,21,1F,0F,64,
22431757,000000A9,false,Rx,0,8,EC,03,79,DF,1D,C7,E0,21,
22431983,000000B6,false,Rx,0,5,04,04,80,00,C8,00,00,00,
22432219,000000BA,false,Rx,0,7,03,FF,0F,00,00,50,83,00,
22432445,000000C4,false,Rx,0,7,93,01,FC,00,00,FF,F1,00,
22432670,000000CE,false,Rx,0,8,00,00,00,00,00,00,00,00,
22432896,0000019E,false,Rx,0,8,00,EA,7F,FC,FE,61,00,67,
22433130,000001A0,false,Rx,0,8,00,80,00,00,80,00,48,EA,
22433364,000002B2,false,Rx,0,8,00,00,00,00,0F,80,00,04,
22441535,000000A8,false,Rx,0,8,62,04,21,E0,21,1F,0F,64,
22441761,000000A9,false,Rx,0,8,ED,04,79,DF,1D,C7,E0,21,
22441985,000000BA,false,Rx,0,7,03,FF,0F,00,00,51,84,00,
22442228,000000C4,false,Rx,0,7,93,01,FC,00,00,FF,F1,00,
22449667,00000497,false,Rx,0,8,29,42,FF,FF,FF,FF,FF,FF,
22451416,000000A8,false,Rx,0,8,63,05,21,E0,21,1F,0F,64,
22451642,000000A9,false,Rx,0,8,EE,05,79,DF,1D,C7,E0,21,
22451868,000000B6,false,Rx,0,5,05,05,80,00,C8,00,00,00,
22452098,000000BA,false,Rx,0,7,03,FF,0F,00,00,52,85,00,
22452332,000000C4,false,Rx,0,7,93,01,FC,00,00,FF,F1,00,
22452558,000000CE,false,Rx,0,8,00,00,00,00,00,00,00,00,
22452784,0000019E,false,Rx,0,8,00,EA,7F,FC,FE,61,00,67,
22453010,000001A0,false,Rx,0,8,00,80,00,00,80,00,58,FA,
22453244,000002B2,false,Rx,0,8,00,00,00,00,0F,80,00,04,
22453657,000001A6,false,Rx,0,8,00,00,00,00,00,00,C0,F2,
22456348,00000130,false,Rx,0,5,00,03,D0,0F,3D,00,00,00,
22461500,000000A8,false,Rx,0,8,64,06,21,E0,21,1F,0F,64,
22461726,000000A9,false,Rx,0,8,EF,06,79,DF,1D,C7,E0,21,
22461952,000000BA,false,Rx,0,7,03,FF,0F,00,00,53,86,00,
22462192,000000C4,false,Rx,0,7,93,01,FC,00,00,FF,F1,00,
22471546,000000A8,false,Rx,0,8,65,07,21,E0,21,1F,0F,64,
22471809,000000A9,false,Rx,0,8,F0,07,79,DF,1D,C7,E0,21,
22471814,000000B6,false,Rx,0,5,06,06,80,00,C8,00,00,00,
22472043,000000BA,false,Rx,0,7,03,FF,0F,00,00,54,87,00,
22472276,000000C4,false,Rx,0,7,93,01,FC,00,00,FF,F1,00,
22472688,000000CE,false,Rx,0,8,00,00,00,00,00,00,00,00,
22472914,0000019E,false,Rx,0,8,00,EA,7F,FC,FE,61,00,67,
22473186,000001A0,false,Rx,0,8,00,80,00,00,80,00,68,0B,
22473191,000001D2,false,Rx,0,5,E1,0C,8F,30,F0,00,00,00,
22473416,000002B2,false,Rx,0,8,00,00,00,00,0F,80,00,04,
22481410,000000A8,false,Rx,0,8,66,08,21,E0,21,1F,0F,64,
22481636,000000A9,false,Rx,0,8,F1,08,79,DF,1D,C7,E0,21,
22481862,000000BA,false,Rx,0,7,03,FF,0F,00,00,55,88,00,
22482092,000000C4,false,Rx,0,7,93,01,FC,00,00,FF,F1,00,
22491429,000000A8,false,Rx,0,8,67,09,21,E0,21,1F,0F,64,
22491659,000000A9,false,Rx,0,8,F2,09,79,DF,1D,C7,E0,21,
22491885,000000B6,false,Rx,0,5,07,07,80,00,C8,00,00,00,
22492113,000000BA,false,Rx,0,7,03,FF,0F,00,00,56,89,00,
22492345,000000C4,false,Rx,0,7,93,01,FC,00,00,FF,F1,00,
22492570,000000CE,false,Rx,0,8,00,00,00,00,00,00,00,00,
22492797,0000019E,false,Rx,0,8,00,EA,7F,FC,FE,61,00,67,
22493031,000001A0,false,Rx,0,8,00,80,00,00,80,00,78,1B,
22493264,000002B2,false,Rx,0,8,00,00,00,00,0F,80,00,04,
22493489,000001D6,false,Rx,0,2,FF,F3,00,00,00,00,00,00,
22501475,000000A8,false,Rx,0,8,68,0A,21,E0,21,1F,0F,64,
22501700,000000A9,false,Rx,0,8,F3,0A,79,DF,1D,C7,E0,21,
22501926,000000BA,false,Rx,0,7,03,FF,0F,00,00,57,8A,00,
22502169,000000C4,false,Rx,0,7,93,01,FC,00,00,FF,F1,00,
22507252,000005E3,false,Rx,0,8,01,01,C6,FF,FF,FF,FF,FF,
22511485,000000A8,false,Rx,0,8,69,0B,21,E0,21,1F,0F,64,
22511712,000000A9,false,Rx,0,8,F4,0B,79,DF,1D,C7,E0,21,
22511938,000000B6,false,Rx,0,5,08,08,80,00,C8,00,00,00,
22512176,000000BA,false,Rx,0,7,03,FF,0F,00,00,58,8B,00,
22512402,000000C4,false,Rx,0,7,93,01,FC,00,00,FF,F1,00,
22512627,000000CE,false,Rx,0,8,00,00,00,00,00,00,00,00,
22512853,0000019E,false,Rx,0,8,00,EA,7F,FC,FE,61,00,67,
22513081,000001A0,false,Rx,0,8,00,80,00,00,80,00,88,2B,
22513315,000002B2,false,Rx,0,8,00,00,00,00,0F,80,00,04,
22516059,00000332,false,Rx,0,2,61,82,00,00,00,00,00,00,
22516064,00000332,false,Rx,0,2,61,82,00,00,00,00,00,00,
22516304,000001D0,false,Rx,0,8,3C,FF,02,C3,00,00,CD,82,
22516546,00000332,false,Rx,0,2,61,82,00,00,00,00,00,00,
22521526,000000A8,false,Rx,0,8,6A,0C,21,E0,21,1F,0F,64,
22521751,000000A9,false,Rx,0,8,F5,0C,79,DF,1D,C7,E0,21,
22521977,000000BA,false,Rx,0,7,03,FF,0F,00,00,59,8C,00,
22522218,000000C4,false,Rx,0,7,93,01,FC,00,00,FF,F1,00,
22524151,000001FB,false,Rx,0,2,F8,FF,00,00,00,00,00,00,
22531506,000000A8,false,Rx,0,8,6B,0D,21,E0,21,1F,0F,64,
22531736,000000A9,false,Rx,0,8,F6,0D,79,DF,1D,C7,E0,21,
22531962,000000B6,false,Rx,0,5,09,09,80,00,C8,00,00,00,
22532200,000000BA,false,Rx,0,7,03,FF,0F,00,00,5A,8D,00,
22532426,000000C4,false,Rx,0,7,93,01,FC,00,00,FF,F1,00,
22532652,000000CE,false,Rx,0,8,00,00,00,00,00,00,00,00,
22532878,0000019E,false,Rx,0,8,00,EA,8F,FC,FE,61,00,77,
22533111,000001A0,false,Rx,0,8,00,80,00,00,80,00,98,3B,
22533343,000002B2,false,Rx,0,8,00,00,00,00,0F,80,00,04,
22533569,000004A9,false,Rx,0,8,30,52,FF,FF,FF,FF,FF,FF,
22533794,000002A6,false,Rx,0,2,00,FC,00,00,00,00,00,00,
22540641,000002C0,false,Rx,0,3,FE,EB,5F,00,00,00,00,00,
22541442,000000A8,false,Rx,0,8,6C,0E,21,E0,21,1F,0F,64,
22541668,000000A9,false,Rx,0,8,F7,0E,79,DF,1D,C7,E0,21,
22541894,000000BA,false,Rx,0,7,03,FF,0F,00,00,5B,8E,00,
22542123,000000C4,false,Rx,0,7,93,01,FC,00,00,FF,F1,00,
22542356,000000C8,false,Rx,0,6,92,01,8C,00,00,AC,00,00,
22551553,000000A8,false,Rx,0,8,5E,00,21,E0,21,1F,0F,64,
22551816,000000A9,false,Rx,0,8,E9,00,79,DF,1D,C7,E0,21,
22551821,000000B6,false,Rx,0,5,0A,0A,80,00,C8,00,00,00,
22552055,000000BA,false,Rx,0,7,03,FF,0F,00,00,4D,80,00,
22552288,000000C4,false,Rx,0,7,93,01,FC,00,00,FF,F1,00,
22552700,000000CE,false,Rx,0,8,00,00,00,00,00,00,00,00,
22552927,0000019E,false,Rx,0,8,00,EA,8F,FC,FE,61,00,77,
22553167,000001A0,false,Rx,0,8,00,80,00,00,80,00,A8,4B,
22553393,000002B2,false,Rx,0,8,00,00,00,00,0F,80,00,04,
22553620,000001A6,false,Rx,0,8,00,00,00,00,00,00,50,F4,
22553846,000005A9,false,Rx,0,8,30,06,00,0D,2B,F1,64,04,
22556535,00000130,false,Rx,0,5,00,03,D0,0F,4E,00,00,00,
22561493,000000A8,false,Rx,0,8,5F,01,21,E0,21,1F,0F,64,
22561720,000000A9,false,Rx,0,8,EA,01,79,DF,1D,C7,E0,21,
22561946,000000BA,false,Rx,0,7,03,FF,0F,00,00,4E,81,00,
22562184,000000C4,false,Rx,0,7,93,01,FC,00,00,FF,F1,00,
22562410,000005A9,false,Rx,0,8,32,06,00,6E,00,F0,00,FF,
22571557,000000A8,false,Rx,0,8,60,02,21,E0,21,1F,0F,64,
22571821,000000A9,false,Rx,0,8,EB,02,79,DF,1D,C7,E0,21,
22571826,000000B6,false,Rx,0,5,0B,0B,80,00,C8,00,00,00,
22572060,000000BA,false,Rx,0,7,03,FF,0F,00,00,4F,82,00,
22572293,000000C4,false,Rx,0,7,93,01,FC,00,00,FF,F1,00,
22572706,000000CE,false,Rx,0,8,00,00,00,00,00,00,00,00,
22572932,0000019E,false,Rx,0,8,00,EA,8F,FC,FE,61,00,77,
22573172,000001A0,false,Rx,0,8,00,80,00,00,80,00,B8,5B,
22573398,000002B2,false,Rx,0,8,00,00,00,00,0F,80,00,04,
22581569,000000A8,false,Rx,0,8,61,03,21,E0,21,1F,0F,64,
22581795,000000A9,false,Rx,0,8,EC,03,79,DF,1D,C7,E0,21,
22582031,000000BA,false,Rx,0,7,03,FF,0F,00,00,50,83,00,
22582265,000000C4,false,Rx,0,7,93,01,FC,00,00,FF,F1,00,
22591551,000000A8,false,Rx,0,8,62,04,21,E0,21,1F,0F,64,
22591781,000000A9,false,Rx,0,8,ED,04,79,DF,1D,C7,E0,21,
22592050,000000B6,false,Rx,0,5,0C,0C,80,00,C8,00,00,00,
22592055,000000BA,false,Rx,0,7,03,FF,0F,00,00,51,84,00,
22592287,000000C4,false,Rx,0,7,93,01,FC,00,00,FF,F1,00,
22592700,000000CE,false,Rx,0,8,00,00,00,00,00,00,00,00,
22592926,0000019E,false,Rx,0,8,00,EA,8F,FC,FE,61,00,77,
22593167,000001A0,false,Rx,0,8,00,80,00,00,80,00,C8,6B,
22593426,000002B2,false,Rx,0,8,00,00,00,00,0F,80,00,04,
22593431,000001D6,false,Rx,0,2,FF,F3,00,00,00,00,00,00,
22601539,000000A8,false,Rx,0,8,63,05,21,E0,21,1F,0F,64,
22601771,000000A9,false,Rx,0,8,EE,05,79,DF,1D,C7,E0,21,
22601997,000000BA,false,Rx,0,7,03,FF,0F,00,00,52,85,00,
22602238,000000C4,false,Rx,0,7,93,01,FC,00,00,FF,F1,00,
22611460,000000A8,false,Rx,0,8,64,06,21,E0,21,1F,0F,64,
22611690,000000A9,false,Rx,0,8,EF,06,79,DF,1D,C7,E0,21,
22611916,000000B6,false,Rx,0,5,0D,0D,80,00,C8,00,00,00,
22612151,000000BA,false,Rx,0,7,03,FF,0F,00,00,53,86,00,
22612377,000000C4,false,Rx,0,7,93,01,FC,00,00,FF,F1,00,
22612603,000000CE,false,Rx,0,8,00,00,00,00,00,00,00,00,
22612829,0000019E,false,Rx,0,8,00,EA,8F,FC,FE,61,00,77,
22613059,000001A0,false,Rx,0,8,00,80,00,00,80,00,D8,7B,
22613293,000002B2,false,Rx,0,8,00,00,00,00,0F,80,00,04,
22615972,00000332,false,Rx,0,2,61,82,00,00,00,00,00,00,
22616213,00000332,false,Rx,0,2,61,82,00,00,00,00,00,00,
22616473,000001D0,false,Rx,0,8,3C,FF,03,C3,00,00,CD,82,
22616479,00000332,false,Rx,0,2,61,82,00,00,00,00,00,00,
22621465,000000A8,false,Rx,0,8,65,07,21,E0,21,1F,0F,64,
22621691,000000A9,false,Rx,0,8,F0,07,79,DF,1D,C7,E0,21,
22621917,000000BA,false,Rx,0,7,03,FF,0F,00,00,54,87,00,
22622156,000000C4,false,Rx,0,7,93,01,FC,00,00,FF,F1,00,
22631475,000000A8,false,Rx,0,8,66,08,21,E0,21,1F,0F,64,
22631705,000000A9,false,Rx,0,8,F1,08,79,DF,1D,C7,E0,21,
22631930,000000B6,false,Rx,0,5,0E,0E,80,00,C8,00,00,00,
22632169,000000BA,false,Rx,0,7,03,FF,0F,00,00,55,88,00,
22632395,000000C4,false,Rx,0,7,96,01,FC,0B,00,FF,F1,00,
22632621,000000CE,false,Rx,0,8,00,00,00,00,00,00,00,00,
22632846,0000019E,false,Rx,0,8,00,EA,8F,FC,FE,61,00,77,
22633075,000001A0,false,Rx,0,8,00,80,00,00,80,00,E8,8B,
22633308,000002B2,false,Rx,0,8,00,00,00,00,0F,80,00,04,
22633534,000004B0,false,Rx,0,8,00,42,FE,01,FF,FF,FF,FF,
22641526,000000A8,false,Rx,0,8,67,09,21,E0,21,1F,0F,64,
22641752,000000A9,false,Rx,0,8,F2,09,79,DF,1D,C7,E0,21,
22641978,000000BA,false,Rx,0,7,03,FF,0F,00,00,56,89,00,
22642218,000000C4,false,Rx,0,7,93,01,FC,0B,00,FF,F1,00,
22651564,000000A8,false,Rx,0,8,68,0A,21,E0,21,1F,0F,64,
22651830,000000A9,false,Rx,0,8,F3,0A,79,DF,1D,C7,E0,21,
22651835,000000B6,false,Rx,0,5,FF,00,80,00,C8,00,00,00,
22652066,000000BA,false,Rx,0,7,03,FF,0F,00,00,57,8A,00,
22652299,000000C4,false,Rx,0,7,93,01,FC,00,00,FF,F1,00,
22652525,000000CE,false,Rx,0,8,00,00,00,00,00,00,00,00,
22652938,0000019E,false,Rx,0,8,00,EA,8F,FC,FE,61,00,77,
22653176,000001A0,false,Rx,0,8,00,80,00,00,80,00,08,AA,
22653402,000002B2,false,Rx,0,8,00,00,00,00,0F,80,00,04,
22653627,000001A6,false,Rx,0,8,00,00,00,00,00,00,E0,F5,
22656500,00000130,false,Rx,0,5,00,03,D0,0F,50,00,00,00,
22661454,000000A8,false,Rx,0,8,69,0B,21,E0,21,1F,0F,64,
22661681,000000A9,false,Rx,0,8,F4,0B,79,DF,1D,C7,E0,21,
22661907,000000BA,false,Rx,0,7,03,FF,0F,00,00,58,8B,00,
22662149,000000C4,false,Rx,0,7,93,01,FC,00,00,FF,F1,00,
22671546,000000A8,false,Rx,0,8,6A,0C,21,E0,21,1F,0F,64,
22671775,000000A9,false,Rx,0,8,F5,0C,79,DF,1D,C7,E0,21,
22672001,000000B6,false,Rx,0,5,00,01,80,00,C8,00,00,00,
22672275,000000BA,false,Rx,0,7,03,FF,0F,00,00,59,8C,00,
22672280,000000C4,false,Rx,0,7,93,01,FC,00,00,FF,F1,00,
22672693,000000CE,false,Rx,0,8,00,00,00,00,00,00,00,00,
22672919,0000019E,false,Rx,0,8,00,EA,8F,FC,FE,61,00,77,
22673188,000001A0,false,Rx,0,8,00,80,00,00,80,00,18,BA,
22673194,000001D2,false,Rx,0,5,E1,0C,8F,40,F0,00,00,00,
22673419,000002B2,false,Rx,0,8,00,00,00,00,0F,80,00,04,
22681412,000000A8,false,Rx,0,8,6B,0D,21,E0,21,1F,0F,64,
22681638,000000A9,false,Rx,0,8,F6,0D,79,DF,1D,C7,E0,21,
22681864,000000BA,false,Rx,0,7,03,FF,0F,00,00,5A,8D,00,
22682093,000000C4,false,Rx,0,7,93,01,FC,00,00,FF,F1,00,
22691462,000000A8,false,Rx,0,8,6C,0E,21,E0,21,1F,0F,64,
22691692,000000A9,false,Rx,0,8,F7,0E,79,DF,1D,C7,E0,21,
22691918,000000B6,false,Rx,0,5,02,02,80,00,C8,00,00,00,
22692160,000000BA,false,Rx,0,7,03,FF,0F,00,00,5B,8E,00,
22692385,000000C4,false,Rx,0,7,93,01,FC,00,00,FF,F1,00,
22692611,000000CE,false,Rx,0,8,00,00,00,00,00,00,00,00,
22692838,0000019E,false,Rx,0,8,00,EA,8F,FC,FE,61,00,77,
22693069,000001A0,false,Rx,0,8,00,80,00,00,80,00,28,CA,
22693303,000002B2,false,Rx,0,8,00,00,00,00,0F,80,00,04,
22693528,000001D6,false,Rx,0,2,FF,F3,00,00,00,00,00,00,
22701510,000000A8,false,Rx,0,8,5E,00,21,E0,21,1F,0F,64,
22701736,000000A9,false,Rx,0,8,E9,00,79,DF,1D,C7,E0,21,
22701962,000000BA,false,Rx,0,7,03,FF,0F,00,00,4D,80,00,
22702204,000000C4,false,Rx,0,7,93,01,FC,00,00,FF,F1,00,
22711521,000000A8,false,Rx,0,8,5F,01,21,E0,21,1F,0F,64,
22711751,000000A9,false,Rx,0,8,EA,01,79,DF,1D,C7,E0,21,
22711977,000000B6,false,Rx,0,5,03,03,80,00,C8,00,00,00,
22712213,000000BA,false,Rx,0,7,03,FF,0F,00,00,4E,81,00,
22712439,000000C4,false,Rx,0,7,93,01,FC,00,00,FF,F1,00,
22712683,000000CE,false,Rx,0,8,00,00,00,00,00,00,00,00,
22712910,0000019E,false,Rx,0,8,00,EA,8F,FC,FE,61,00,77,
22713150,000001A0,false,Rx,0,8,00,80,00,00,80,00,38,DA,
22713375,000002B2,false,Rx,0,8,00,00,00,00,0F,80,00,04,
22714210,000001FB,false,Rx,0,2,F9,FF,00,00,00,00,00,00,
22715977,00000332,false,Rx,0,2,61,82,00,00,00,00,00,00,
22716217,00000332,false,Rx,0,2,61,82,00,00,00,00,00,00,
22716477,000001D0,false,Rx,0,8,3C,FF,03,C3,00,00,CD,82,
22716482,00000332,false,Rx,0,2,61,82,00,00,00,00,00,00,
22719180,00000480,false,Rx,0,8,17,42,FD,FF,FF,FF,FF,FF,
22721511,000000A8,false,Rx,0,8,60,02,21,E0,21,1F,0F,64,
22721737,000000A9,false,Rx,0,8,EB,02,79,DF,1D,C7,E0,21,
22721963,000000BA,false,Rx,0,7,03,FF,0F,00,00,4F,82,00,
22722205,000000C4,false,Rx,0,7,93,01,FC,00,00,FF,F1,00,
22731413,000000A8,false,Rx,0,8,61,03,21,E0,21,1F,0F,64,
22731643,000000A9,false,Rx,0,8,EC,03,79,DF,1D,C7,E0,21,
22731869,000000B6,false,Rx,0,5,04,04,80,00,C8,00,00,00,
22732101,000000BA,false,Rx,0,7,03,FF,0F,00,00,50,83,00,
22732334,000000C4,false,Rx,0,7,93,01,FC,00,00,FF,F1,00,
22732560,000000CE,false,Rx,0,8,00,00,00,00,00,00,00,00,
22732786,0000019E,false,Rx,0,8,00,EA,9F,FC,FE,61,00,87,
22733013,000001A0,false,Rx,0,8,00,80,00,00,80,00,48,EA,
22733245,000002B2,false,Rx,0,8,00,00,00,00,0F,80,00,04,
22741500,000000A8,false,Rx,0,8,62,04,21,E0,21,1F,0F,64,
22741726,000000A9,false,Rx,0,8,ED,04,79,DF,1D,C7,E0,21,
22741952,000000BA,false,Rx,0,7,03,FF,0F,00,00,51,84,00,
22742191,000000C4,false,Rx,0,7,93,01,FC,00,00,FF,F1,00,
22742417,000000C8,false,Rx,0,6,92,01,DC,00,00,CC,00,00,
22751413,000000A8,false,Rx,0,8,63,05,21,E0,21,1F,0F,64,
22751643,000000A9,false,Rx,0,8,EE,05,79,DF,1D,C7,E0,21,
22751868,000000B6,false,Rx,0,5,05,05,80,00,C8,00,00,00,
22752102,000000BA,false,Rx,0,7,03,FF,0F,00,00,52,85,00,
22752335,000000C4,false,Rx,0,7,93,01,FC,00,00,FF,F1,00,
22752561,000000CE,false,Rx,0,8,00,00,00,00,00,00,00,00,
22752788,0000019E,false,Rx,0,8,00,EA,9F,FC,FE,61,00,87,
22753013,000001A0,false,Rx,0,8,00,80,00,00,80,00,58,FA,
22753247,000002B2,false,Rx,0,8,00,00,00,00,0F,80,00,04,
22753660,000001A6,false,Rx,0,8,00,00,00,00,00,00,70,F7,
22756534,00000130,false,Rx,0,5,00,03,D0,0F,61,00,00,00,
22761493,000000A8,false,Rx,0,8,64,06,21,E0,21,1F,0F,64,
22761719,000000A9,false,Rx,0,8,EF,06,79,DF,1D,C7,E0,21,
22761945,000000BA,false,Rx,0,7,03,FF,0F,00,00,53,86,00,
22762184,000000C4,false,Rx,0,7,93,01,FC,00,00,FF,F1,00,
22771507,000000A8,false,Rx,0,8,65,07,21,E0,21,1F,0F,64,
22771736,000000A9,false,Rx,0,8,F0,07,79,DF,1D,C7,E0,21,
22771962,000000B6,false,Rx,0,5,06,06,80,00,C8,00,00,00,
22772200,000000BA,false,Rx,0,7,03,FF,0F,00,00,54,87,00,
22772426,000000C4,false,Rx,0,7,93,01,FC,00,00,FF,F1,00,
22772652,000000CE,false,Rx,0,8,00,00,00,00,00,00,00,00,
22772878,0000019E,false,Rx,0,8,00,EA,9F,FC,FE,61,00,87,
22773111,000001A0,false,Rx,0,8,00,80,00,00,80,00,68,0B,
22773344,000002B2,false,Rx,0,8,00,00,00,00,0F,80,00,04,
22781524,000000A8,false,Rx,0,8,66,08,21,E0,21,1F,0F,64,
22781749,000000A9,false,Rx,0,8,F1,08,79,DF,1D,C7,E0,21,
22781975,000000BA,false,Rx,0,7,03,FF,0F,00,00,55,88,00,
22782215,000000C4,false,Rx,0,7,93,01,FC,00,00,FF,F1,00,
22791434,000000A8,false,Rx,0,8,67,09,21,E0,21,1F,0F,64,
22791664,000000A9,false,Rx,0,8,F2,09,79,DF,1D,C7,E0,21,
22791890,000000B6,false,Rx,0,5,07,07,80,00,C8,00,00,00,
22792124,000000BA,false,Rx,0,7,03,FF,0F,00,00,56,89,00,
22792357,000000C4,false,Rx,0,7,93,01,FC,00,00,FF,F1,00,
22792583,000000CE,false,Rx,0,8,00,00,00,00,00,00,00,00,
22792810,0000019E,false,Rx,0,8,00,EA,9F,FC,FE,61,00,87,
22793039,000001A0,false,Rx,0,8,00,80,00,00,80,00,78,1B,
22793272,000002B2,false,Rx,0,8,00,00,00,00,0F,80,00,04,
22793497,000001D6,false,Rx,0,2,FF,F3,00,00,00,00,00,00,
22801481,000000A8,false,Rx,0,8,68,0A,21,E0,21,1F,0F,64,
22801707,000000A9,false,Rx,0,8,F3,0A,79,DF,1D,C7,E0,21,
22801933,000000BA,false,Rx,0,7,03,FF,0F,00,00,57,8A,00,
22802170,000000C4,false,Rx,0,7,93,01,FC,00,00,FF,F1,00,
22809743,00000497,false,Rx,0,8,29,52,FF,FF,FF,FF,FF,FF,
22811526,000000A8,false,Rx,0,8,69,0B,21,E0,21,1F,0F,64,
22811752,000000A9,false,Rx,0,8,F4,0B,79,DF,1D,C7,E0,21,
22811977,000000B6,false,Rx,0,5,08,08,80,00,C8,00,00,00,
22812216,000000BA,false,Rx,0,7,03,FF,0F,00,00,58,8B,00,
22812442,000000C4,false,Rx,0,7,93,01,FC,00,00,FF,F1,00,
22812668,000000CE,false,Rx,0,8,00,00,00,00,00,00,00,00,
22812894,0000019E,false,Rx,0,8,00,EA,9F,FC,FE,61,00,87,
22813133,000001A0,false,Rx,0,8,00,80,00,00,80,00,88,2B,
22813377,000002B2,false,Rx,0,8,00,00,00,00,0F,80,00,04,
22816152,00000332,false,Rx,0,2,61,82,00,00,00,00,00,00,
22816157,00000332,false,Rx,0,2,61,82,00,00,00,00,00,00,
22816416,000001D0,false,Rx,0,8,3C,FF,04,C3,00,00,CD,82,
22816421,00000332,false,Rx,0,2,61,82,00,00,00,00,00,00,
22821565,000000A8,false,Rx,0,8,6A,0C,21,E0,21,1F,0F,64,
22821791,000000A9,false,Rx,0,8,F5,0C,79,DF,1D,C7,E0,21,
22822018,000000BA,false,Rx,0,7,03,FF,0F,00,00,59,8C,00,
22822257,000000C4,false,Rx,0,7,93,01,FC,00,00,FF,F1,00,
22831573,000000A8,false,Rx,0,8,6B,0D,21,E0,21,1F,0F,64,
22831837,000000A9,false,Rx,0,8,F6,0D,79,DF,1D,C7,E0,21,
22831842,000000B6,false,Rx,0,5,09,09,80,00,C8,00,00,00,
22832075,000000BA,false,Rx,0,7,03,FF,0F,00,00,5A,8D,00,
22832308,000000C4,false,Rx,0,7,93,01,FC,00,00,FF,F1,00,
22832533,000000CE,false,Rx,0,8,00,00,00,00,00,00,00,00,
22832759,0000019E,false,Rx,0,8,00,EA,9F,FC,FE,61,00,87,
22833184,000001A0,false,Rx,0,8,00,80,00,00,80,00,98,3B,
22833410,000002B2,false,Rx,0,8,00,00,00,00,0F,80,00,04,
22836093,000005E3,false,Rx,0,8,01,02,F7,FF,FF,FF,FF,FF,
22841475,000000A8,false,Rx,0,8,6C,0E,21,E0,21,1F,0F,64,
22841701,000000A9,false,Rx,0,8,F7,0E,79,DF,1D,C7,E0,21,
22841928,000000BA,false,Rx,0,7,03,FF,0F,00,00,5B,8E,00,
22842728,000000C4,false,Rx,0,7,93,01,FC,00,00,FF,F1,00,
22851530,000000A8,false,Rx,0,8,5E,00,21,E0,21,1F,0F,64,
22851762,000000A9,false,Rx,0,8,E9,00,79,DF,1D,C7,E0,21,
22851988,000000BA,false,Rx,0,7,03,FF,0F,00,00,4D,80,00,
22852605,000000B6,false,Rx,0,5,0A,0A,80,00,C8,00,00,00,
22852831,000000C4,false,Rx,0,7,93,01,FC,00,00,FF,F1,00,
22853065,000000CE,false,Rx,0,8,00,00,00,00,00,00,00,00,
22853297,0000019E,false,Rx,0,8,00,EA,9F,FC,FE,61,00,87,
22853522,000001A0,false,Rx,0,8,00,80,00,00,80,00,A8,4B,
22853748,000002B2,false,Rx,0,8,00,00,00,00,0F,80,00,04,
22854183,000001A6,false,Rx,0,8,00,00,00,00,00,00,00,F9,
22857879,00000130,false,Rx,0,5,00,03,D0,0F,72,00,00,00,
22861517,000000A8,false,Rx,0,8,5F,01,21,E0,21,1F,0F,64,
22861744,000000A9,false,Rx,0,8,EA,01,79,DF,1D,C7,E0,21,
22861970,000000BA,false,Rx,0,7,03,FF,0F,00,00,4E,81,00,
22862771,000000C4,false,Rx,0,7,93,01,FC,00,00,FF,F1,00,
22871558,000000A8,false,Rx,0,8,60,02,21,E0,21,1F,0F,64,
22871788,000000A9,false,Rx,0,8,EB,02,79,DF,1D,C7,E0,21,
22872053,000000BA,false,Rx,0,7,03,FF,0F,00,00,4F,82,00,
22872059,000001D2,false,Rx,0,5,E1,0C,8F,50,F0,00,00,00,
22872664,000000B6,false,Rx,0,5,0B,0B,80,00,C8,00,00,00,
22872890,000000C4,false,Rx,0,7,93,01,FC,00,00,FF,F1,00,
22873120,000000CE,false,Rx,0,8,00,00,00,00,00,00,00,00,
22873353,0000019E,false,Rx,0,8,00,EA,9F,FC,FE,61,00,87,
22873580,000001A0,false,Rx,0,8,00,80,00,00,80,00,B8,5B,
22873806,000002B2,false,Rx,0,8,00,00,00,00,0F,80,00,04,
22881433,000000A8,false,Rx,0,8,61,03,21,E0,21,1F,0F,64,
22881659,000000A9,false,Rx,0,8,EC,03,79,DF,1D,C7,E0,21,
22881885,000000BA,false,Rx,0,7,03,FF,0F,00,00,50,83,00,
22882681,000000C4,false,Rx,0,7,93,01,FC,00,00,FF,F1,00,
22891484,000000A8,false,Rx,0,8,62,04,21,E0,21,1F,0F,64,
22891714,000000A9,false,Rx,0,8,ED,04,79,DF,1D,C7,E0,21,
22891939,000000BA,false,Rx,0,7,03,FF,0F,00,00,51,84,00,
22892740,000000B6,false,Rx,0,5,0C,0C,80,00,C8,00,00,00,
22892966,000000C4,false,Rx,0,7,93,01,FC,00,00,FF,F1,00,
22893207,000000CE,false,Rx,0,8,00,00,00,00,00,00,00,00,
22893434,0000019E,false,Rx,0,8,00,EA,9F,FC,FE,61,00,87,
22893658,000001A0,false,Rx,0,8,00,80,00,00,80,00,C8,6B,
22893883,000002B2,false,Rx,0,8,00,00,00,00,0F,80,00,04,
22894112,000004A9,false,Rx,0,8,30,52,FF,FF,FF,FF,FF,FF,
22894345,000001D6,false,Rx,0,2,FF,F3,00,00,00,00,00,00,
22901577,000000A8,false,Rx,0,8,63,05,21,E0,21,1F,0F,64,
22901803,000000A9,false,Rx,0,8,EE,05,79,DF,1D,C7,E0,21,
22902035,000000BA,false,Rx,0,7,03,FF,0F,00,00,52,85,00,
22902828,000000C4,false,Rx,0,7,93,01,FC,00,00,FF,F1,00,
22904204,000001FB,false,Rx,0,2,FA,FF,00,00,00,00,00,00,
22911583,000000A8,false,Rx,0,8,64,06,21,E0,21,1F,0F,64,
22911813,000000A9,false,Rx,0,8,EF,06,79,DF,1D,C7,E0,21,
22912041,000000BA,false,Rx,0,7,03,FF,0F,00,00,53,86,00,
22912647,000000B6,false,Rx,0,5,0D,0D,80,00,C8,00,00,00,
22912873,000000C4,false,Rx,0,7,93,01,FC,00,00,FF,F1,00,
22913297,000000CE,false,Rx,0,8,00,00,00,00,00,00,00,00,
22913523,0000019E,false,Rx,0,8,00,EA,9F,FC,FE,61,00,87,
22913749,000001A0,false,Rx,0,8,00,80,00,00,80,00,D8,7B,
22913974,000002B2,false,Rx,0,8,00,00,00,00,0F,80,00,04,
22915975,00000332,false,Rx,0,2,61,82,00,00,00,00,00,00,
22916212,00000332,false,Rx,0,2,61,82,00,00,00,00,00,00,
22916471,000001D0,false,Rx,0,8,3C,FF,04,C3,00,00,CD,82,
22916476,00000332,false,Rx,0,2,61,82,00,00,00,00,00,00,
22921446,000000A8,false,Rx,0,8,65,07,21,E0,21,1F,0F,64,
22921671,000000A9,false,Rx,0,8,F0,07,79,DF,1D,C7,E0,21,
22921896,000000BA,false,Rx,0,7,03,FF,0F,00,00,54,87,00,
22922693,000000C4,false,Rx,0,7,93,01,FC,00,00,FF,F1,00,
22931567,000000A8,false,Rx,0,8,66,08,21,E0,21,1F,0F,64,
22931797,000000A9,false,Rx,0,8,F1,08,79,DF,1D,C7,E0,21,
22932031,000000BA,false,Rx,0,7,03,FF,0F,00,00,55,88,00,
22932637,000000B6,false,Rx,0,5,0E,0E,80,00,C8,00,00,00,
22932875,000000C4,false,Rx,0,7,93,01,FC,00,00,FF,F1,00,
22933115,000000CE,false,Rx,0,8,00,00,00,00,00,00,00,00,
22933364,0000019E,false,Rx,0,8,00,EA,9F,FC,FE,61,00,87,
22933606,000001A0,false,Rx,0,8,00,80,00,00,80,00,E8,8B,
22933841,000002B2,false,Rx,0,8,00,00,00,00,0F,80,00,04,
22935811,000005E3,false,Rx,0,8,01,02,3A,FF,FF,FF,FF,FF,
22941526,000000A8,false,Rx,0,8,67,09,21,E0,21,1F,0F,64,
22941752,000000A9,false,Rx,0,8,F2,09,79,DF,1D,C7,E0,21,
22941978,000000BA,false,Rx,0,7,03,FF,0F,00,00,56,89,00,
22942778,000000C4,false,Rx,0,7,93,01,FC,00,00,FF,F1,00,
22943004,000000C8,false,Rx,0,6,92,01,3C,00,00,EC,00,00,
22951580,000000A8,false,Rx,0,8,68,0A,21,E0,21,1F,0F,64,
22951854,000000A9,false,Rx,0,8,F3,0A,79,DF,1D,C7,E0,21,
22951859,000000BA,false,Rx,0,7,03,FF,0F,00,00,57,8A,00,
22952674,000000B6,false,Rx,0,5,FF,00,80,00,C8,00,00,00,
22952900,000000C4,false,Rx,0,7,93,01,FC,00,00,FF,F1,00,
22953130,000000CE,false,Rx,0,8,00,00,00,00,00,00,00,00,
22953363,0000019E,false,Rx,0,8,00,EA,AF,FC,FE,61,00,97,
22953589,000001A0,false,Rx,0,8,00,80,00,00,80,00,08,AA,
22953815,000002B2,false,Rx,0,8,00,00,00,00,0F,80,00,04,
22954047,000001A6,false,Rx,0,8,00,00,00,00,00,00,90,FA,
22956625,00000130,false,Rx,0,5,00,03,D0,0F,83,00,00,00,
22961428,000000A8,false,Rx,0,8,69,0B,21,E0,21,1F,0F,64,
22961655,000000A9,false,Rx,0,8,F4,0B,79,DF,1D,C7,E0,21,
22961880,000000BA,false,Rx,0,7,03,FF,0F,00,00,58,8B,00,
22962676,000000C4,false,Rx,0,7,93,01,FC,00,00,FF,F1,00,
22971434,000000A8,false,Rx,0,8,6A,0C,21,E0,21,1F,0F,64,
22971663,000000A9,false,Rx,0,8,F5,0C,79,DF,1D,C7,E0,21,
22971889,000000BA,false,Rx,0,7,03,FF,0F,00,00,59,8C,00,
22972696,000000B6,false,Rx,0,5,00,01,80,00,C8,00,00,00,
22972938,000000C4,false,Rx,0,7,93,01,FC,00,00,FF,F1,00,
22973216,000000CE,false,Rx,0,8,00,00,00,00,00,00,00,00,
22973442,0000019E,false,Rx,0,8,00,EA,AF,FC,FE,61,00,97,
22973668,000001A0,false,Rx,0,8,00,80,00,00,80,00,18,BA,
22973894,000002B2,false,Rx,0,8,00,00,00,00,0F,80,00,04,
22981513,000000A8,false,Rx,0,8,6B,0D,21,E0,21,1F,0F,64,
22981739,000000A9,false,Rx,0,8,F6,0D,79,DF,1D,C7,E0,21,
22981965,000000BA,false,Rx,0,7,03,FF,0F,00,00,5A,8D,00,
22982766,000000C4,false,Rx,0,7,93,01,FC,00,00,FF,F1,00,
22991515,000000A8,false,Rx,0,8,6C,0E,21,E0,21,1F,0F,64,
22991756,000000A9,false,Rx,0,8,F7,0E,79,DF,1D,C7,E0,21,
22991992,000000BA,false,Rx,0,7,03,FF,0F,00,00,5B,8E,00,
22992791,000000B6,false,Rx,0,5,02,02,80,00,C8,00,00,00,
22993018,000000C4,false,Rx,0,7,93,01,FC,00,00,FF,F1,00,
22993251,000000CE,false,Rx,0,8,00,00,00,00,00,00,00,00,
22993477,0000019E,false,Rx,0,8,00,EA,AF,FC,FE,61,00,97,
22993703,000001A0,false,Rx,0,8,00,80,00,00,80,00,28,CA,
22993928,000002B2,false,Rx,0,8,00,00,00,00,0F,80,00,04,
22994169,000001D6,false,Rx,0,2,FF,F3,00,00,00,00,00,00,
22994394,000004B0,false,Rx,0,8,00,42,FE,01,FF,FF,FF,FF,
23001428,000000A8,false,Rx,0,8,5E,00,21,E0,21,1F,0F,64,
23001653,000000A9,false,Rx,0,8,E9,00,79,DF,1D,C7,E0,21,
23001879,000000BA,false,Rx,0,7,03,FF,0F,00,00,4D,80,00,
23002861,000000C4,false,Rx,0,7,93,01,FC,00,00,FF,F1,00,
23011635,000000A8,false,Rx,0,8,5F,01,21,E0,21,1F,0F,64,
23011643,000000A9,false,Rx,0,8,EA,01,79,DF,1D,C7,E0,21,
23011879,000000BA,false,Rx,0,7,03,FF,0F,00,00,4E,81,00,
23012861,000000B6,false,Rx,0,5,03,03,80,00,C8,00,00,00,
23013089,000000C4,false,Rx,0,7,93,01,FC,00,00,FF,F1,00,
23013314,000000CE,false,Rx,0,8,00,00,00,00,00,00,00,00,
23013547,0000019E,false,Rx,0,8,00,EA,AF,FC,FE,61,00,97,
23013774,000001A0,false,Rx,0,8,00,80,00,00,80,00,38,DA,
23014000,000002B2,false,Rx,0,8,00,00,00,00,0F,80,00,04,
23015929,00000332,false,Rx,0,2,61,82,00,00,00,00,00,00,
23016168,00000332,false,Rx,0,2,61,82,00,00,00,00,00,00,
23016427,000001D0,false,Rx,0,8,3C,FF,05,C3,00,00,CD,82,
23016432,00000332,false,Rx,0,2,61,82,00,00,00,00,00,00,
23021482,000000A8,false,Rx,0,8,60,02,21,E0,21,1F,0F,64,
23021709,000000A9,false,Rx,0,8,EB,02,79,DF,1D,C7,E0,21,
23021935,000000BA,false,Rx,0,7,03,FF,0F,00,00,4F,82,00,
23022730,000000C4,false,Rx,0,7,93,01,FC,00,00,FF,F1,00,
23031409,000000A8,false,Rx,0,8,61,03,21,E0,21,1F,0F,64,
23031654,000000A9,false,Rx,0,8,EC,03,79,DF,1D,C7,E0,21,
23031899,000000BA,false,Rx,0,7,03,FF,0F,00,00,50,83,00,
23032719,000000B6,false,Rx,0,5,04,04,80,00,C8,00,00,00,
23032945,000000C4,false,Rx,0,7,93,01,FC,00,00,FF,F1,00,
23033184,000000CE,false,Rx,0,8,00,00,00,00,00,00,00,00,
23033410,0000019E,false,Rx,0,8,00,EA,AF,FC,FE,61,00,97,
23033637,000001A0,false,Rx,0,8,00,80,00,00,80,00,48,EA,
23033863,000002B2,false,Rx,0,8,00,00,00,00,0F,80,00,04,
23035983,000005E3,false,Rx,0,8,01,02,C0,FF,FF,FF,FF,FF,
23041518,000000A8,false,Rx,0,8,62,04,21,E0,21,1F,0F,64,
23041744,000000A9,false,Rx,0,8,ED,04,79,DF,1D,C7,E0,21,
23041970,000000BA,false,Rx,0,7,03,FF,0F,00,00,51,84,00,
23042771,000000C4,false,Rx,0,7,93,01,FC,00,00,FF,F1,00,
23050901,000002C0,false,Rx,0,3,FE,EB,62,00,00,00,00,00,
23051520,000000A8,false,Rx,0,8,63,05,21,E0,21,1F,0F,64,
23051746,000000A9,false,Rx,0,8,EE,05,79,DF,1D,C7,E0,21,
23051972,000000BA,false,Rx,0,7,03,FF,0F,00,00,52,85,00,
23052770,000000B6,false,Rx,0,5,05,05,80,00,C8,00,00,00,
23052996,000000C4,false,Rx,0,7,96,01,FC,04,00,FF,F1,00,
23053236,000000CE,false,Rx,0,8,00,00,00,00,00,00,00,00,
23053462,0000019E,false,Rx,0,8,00,EA,AF,FC,FE,61,00,97,
23053688,000001A0,false,Rx,0,8,00,80,00,00,80,00,58,FA,
23053914,000002B2,false,Rx,0,8,00,00,00,00,0F,80,00,04,
23054151,000001A6,false,Rx,0,8,00,00,00,00,00,00,20,FC,
23057018,00000130,false,Rx,0,5,00,03,D0,0F,94,00,00,00,
23061401,000000A8,false,Rx,0,8,64,06,21,E0,21,1F,0F,64,
23061814,000000A9,false,Rx,0,8,EF,06,79,DF,1D,C7,E0,21,
23062043,000000BA,false,Rx,0,7,03,FF,0F,00,00,53,86,00,
23062835,000000C4,false,Rx,0,7,93,01,FC,04,00,FF,F1,00,
23071504,000000A8,false,Rx,0,8,65,07,21,E0,21,1F,0F,64,
23071733,000000A9,false,Rx,0,8,F0,07,79,DF,1D,C7,E0,21,
23071959,000000BA,false,Rx,0,7,03,FF,0F,00,00,54,87,00,
23072194,000001D2,false,Rx,0,5,E1,0C,8F,60,F0,00,00,00,
23072606,000000B6,false,Rx,0,5,06,06,80,00,C8,00,00,00,
23072832,000000C4,false,Rx,0,7,93,01,FC,00,00,FF,F1,00,
23073260,000000CE,false,Rx,0,8,00,00,00,00,00,00,00,00,
23073486,0000019E,false,Rx,0,8,00,EA,AF,FC,FE,61,00,97,
23073712,000001A0,false,Rx,0,8,00,80,00,00,80,00,68,0B,
23073938,000002B2,false,Rx,0,8,00,00,00,00,0F,80,00,04,
23079088,00000480,false,Rx,0,8,17,42,FD,FF,FF,FF,FF,FF,
23081413,000000A8,false,Rx,0,8,66,08,21,E0,21,1F,0F,64,
23081639,000000A9,false,Rx,0,8,F1,08,79,DF,1D,C7,E0,21,
23081865,000000BA,false,Rx,0,7,03,FF,0F,00,00,55,88,00,
23082847,000000C4,false,Rx,0,7,93,01,FC,00,00,FF,F1,00,
23091544,000000A8,false,Rx,0,8,67,09,21,E0,21,1F,0F,64,
23091774,000000A9,false,Rx,0,8,F2,09,79,DF,1D,C7,E0,21,
23092000,000000BA,false,Rx,0,7,03,FF,0F,00,00,56,89,00,
23092799,000000B6,false,Rx,0,5,07,07,80,00,C8,00,00,00,
23093031,000000C4,false,Rx,0,7,93,01,FC,00,00,FF,F1,00,
23093264,000000CE,false,Rx,0,8,00,00,00,00,00,00,00,00,
23093489,0000019E,false,Rx,0,8,00,EA,AF,FC,FE,61,00,97,
23093715,000001A0,false,Rx,0,8,00,80,00,00,80,00,78,1B,
23093941,000001FB,false,Rx,0,2,FB,FF,00,00,00,00,00,00,
23094215,000002B2,false,Rx,0,8,00,00,00,00,0F,80,00,04,
23094220,000001D6,false,Rx,0,2,FF,F3,00,00,00,00,00,00,
23101447,000000A8,false,Rx,0,8,68,0A,21,E0,21,1F,0F,64,
23101672,000000A9,false,Rx,0,8,F3,0A,79,DF,1D,C7,E0,21,
23101896,000000BA,false,Rx,0,7,03,FF,0F,00,00,57,8A,00,
23102692,000000C4,false,Rx,0,7,93,01,FC,00,00,FF,F1,00,
23105381,00000310,false,Rx,0,7,76,11,93,B8,00,E7,22,00,
23111402,000000A8,false,Rx,0,8,69,0B,21,E0,21,1F,0F,64,
23111819,000000A9,false,Rx,0,8,F4,0B,79,DF,1D,C7,E0,21,
23111858,000000BA,false,Rx,0,7,03,FF,0F,00,00,58,8B,00,
23112844,000000B6,false,Rx,0,5,08,08,80,00,C8,00,00,00,
23113073,000000C4,false,Rx,0,7,93,01,FC,00,00,FF,F1,00,
23113305,000000CE,false,Rx,0,8,00,00,00,00,00,00,00,00,
23113532,0000019E,false,Rx,0,8,00,EA,AF,FC,FE,61,00,97,
23113758,000001A0,false,Rx,0,8,00,80,00,00,80,00,88,2B,
23113984,000002B2,false,Rx,0,8,00,00,00,00,0F,80,00,04,
23116141,00000332,false,Rx,0,2,61,82,00,00,00,00,00,00,
23116153,00000332,false,Rx,0,2,61,82,00,00,00,00,00,00,
23116380,000001D0,false,Rx,0,8,3C,FF,05,C3,00,00,CD,82,
23116616,00000332,false,Rx,0,2,61,82,00,00,00,00,00,00,
23121413,000000A8,false,Rx,0,8,6A,0C,21,E0,21,1F,0F,64,
23121639,000000A9,false,Rx,0,8,F5,0C,79,DF,1D,C7,E0,21,
23121865,000000BA,false,Rx,0,7,03,FF,0F,00,00,59,8C,00,
23122683,000000C4,false,Rx,0,7,93,01,FC,00,00,FF,F1,00,
23131450,000000A8,false,Rx,0,8,6B,0D,21,E0,21,1F,0F,64,
23131680,000000A9,false,Rx,0,8,F6,0D,79,DF,1D,C7,E0,21,
23131906,000000BA,false,Rx,0,7,03,FF,0F,00,00,5A,8D,00,
23132705,000000B6,false,Rx,0,5,09,09,80,00,C8,00,00,00,
23132929,000000C4,false,Rx,0,7,93,01,FC,00,00,FF,F1,00,
23133168,000000CE,false,Rx,0,8,00,00,00,00,00,00,00,00,
23133394,0000019E,false,Rx,0,8,00,EA,AF,FC,FE,61,00,97,
23133620,000001A0,false,Rx,0,8,00,80,00,00,80,00,98,3B,
23133846,000002B2,false,Rx,0,8,00,00,00,00,0F,80,00,04,
23135774,000005E3,false,Rx,0,8,01,02,F8,FF,FF,FF,FF,FF,
23141525,000000A8,false,Rx,0,8,6C,0E,21,E0,21,1F,0F,64,
23141750,000000A9,false,Rx,0,8,F7,0E,79,DF,1D,C7,E0,21,
23141976,000000BA,false,Rx,0,7,03,FF,0F,00,00,5B,8E,00,
23142776,000000C4,false,Rx,0,7,93,01,FC,00,00,FF,F1,00,
23143002,000000C8,false,Rx,0,6,92,01,8C,00,00,0C,00,00,
23151309,000002F8,false,Rx,0,8,10,1A,08,12,6F,E8,07,FD,
23151546,000000A8,false,Rx,0,8,5E,00,21,E0,21,1F,0F,64,
23151771,000000A9,false,Rx,0,8,E9,00,79,DF,1D,C7,E0,21,
23151997,000000BA,false,Rx,0,7,03,FF,0F,00,00,4D,80,00,
23152609,000000B6,false,Rx,0,5,0A,0A,80,00,C8,00,00,00,
23152834,000000C4,false,Rx,0,7,93,01,FC,00,00,FF,F1,00,
23153065,000000CE,false,Rx,0,8,00,00,00,00,00,00,00,00,
23153298,0000019E,false,Rx,0,8,00,EA,BF,FC,FE,61,00,A7,
23153711,000001A0,false,Rx,0,8,00,80,00,00,80,00,A8,4B,
23153937,000002B2,false,Rx,0,8,00,00,00,00,0F,80,00,04,
23154177,000001A6,false,Rx,0,8,00,00,00,00,00,00,B0,FD,
23154403,00000374,false,Rx,0,5,00,00,00,00,FC,00,00,00,
23156709,00000130,false,Rx,0,5,00,03,D0,0F,A5,00,00,00,
23161481,000000A8,false,Rx,0,8,5F,01,21,E0,21,1F,0F,64,
23161708,000000A9,false,Rx,0,8,EA,01,79,DF,1D,C7,E0,21,
23161934,000000BA,false,Rx,0,7,03,FF,0F,00,00,4E,81,00,
23162731,000000C4,false,Rx,0,7,93,01,FC,00,00,FF,F1,00,
23169978,00000497,false,Rx,0,8,29,52,FF,FF,FF,FF,FF,FF,
23171546,000000A8,false,Rx,0,8,60,02,21,E0,21,1F,0F,64,
23171773,000000A9,false,Rx,0,8,EB,02,79,DF,1D,C7,E0,21,
23171999,000000BA,false,Rx,0,7,03,FF,0F,00,00,4F,82,00,
23172798,000000B6,false,Rx,0,5,0B,0B,80,00,C8,00,00,00,
23173031,000000C4,false,Rx,0,7,93,01,FC,00,00,FF,F1,00,
23173264,000000CE,false,Rx,0,8,00,00,00,00,00,00,00,00,
23173490,0000019E,false,Rx,0,8,00,EA,BF,FC,FE,61,00,A7,
23173716,000001A0,false,Rx,0,8,00,80,00,00,80,00,B8,5B,
23173942,000002B2,false,Rx,0,8,00,00,00,00,0F,80,00,04,
23181557,000000A8,false,Rx,0,8,61,03,21,E0,21,1F,0F,64,
23181783,000000A9,false,Rx,0,8,EC,03,79,DF,1D,C7,E0,21,
23182013,000000BA,false,Rx,0,7,03,FF,0F,00,00,50,83,00,
23182807,000000C4,false,Rx,0,7,96,01,FC,00,00,FF,F1,00,
23191458,000000A8,false,Rx,0,8,62,04,21,E0,21,1F,0F,64,
23191688,000000A9,false,Rx,0,8,ED,04,79,DF,1D,C7,E0,21,
23191914,000000BA,false,Rx,0,7,03,FF,0F,00,00,51,84,00,
23192713,000000B6,false,Rx,0,5,0C,0C,80,00,C8,00,00,00,
23192939,000000C4,false,Rx,0,7,93,01,FC,1C,FF,FF,F1,00,
23193176,000000CE,false,Rx,0,8,00,00,00,00,00,00,00,00,
23193589,0000019E,false,Rx,0,8,00,EA,BF,FC,FE,61,00,A7,
23193815,000001A0,false,Rx,0,8,00,80,00,00,80,00,C8,6B,
23194076,000002B2,false,Rx,0,8,00,00,00,00,0F,80,00,04,
23194081,000001D6,false,Rx,0,2,FF,F3,00,00,00,00,00,00,
23201499,000000A8,false,Rx,0,8,63,05,21,E0,21,1F,0F,64,
23201726,000000A9,false,Rx,0,8,EE,05,79,DF,1D,C7,E0,21,
23201952,000000BA,false,Rx,0,7,03,FF,0F,00,00,52,85,00,
23202750,000000C4,false,Rx,0,7,96,01,FC,1C,FF,FF,F1,00,
23255981,000000A8,false,Rx,0,8,64,06,21,E0,21,1F,0F,64,
23255989,000000A9,false,Rx,0,8,EF,06,79,DF,1D,C7,E0,21,
23255994,000000BA,false,Rx,0,7,03,FF,0F,00,00,53,86,00,
23255999,000000B6,false,Rx,0,5,0D,0D,80,00,C8,00,00,00,
23256005,000000C4,false,Rx,0,7,93,01,FC,1C,FF,FF,F1,00,
23256010,000000CE,false,Rx,0,8,00,00,00,00,00,00,00,00,
23256016,0000019E,false,Rx,0,8,00,EA,BF,FC,FE,61,00,A7,
23256021,000001A0,false,Rx,0,8,00,80,00,00,80,00,D8,7B,
23256026,000002B2,false,Rx,0,8,00,00,00,00,0F,80,00,04,
23256032,00000332,false,Rx,0,2,61,82,00,00,00,00,00,00,
23256037,00000332,false,Rx,0,2,61,82,00,00,00,00,00,00,
23256042,000001D0,false,Rx,0,8,3C,FF,06,C3,00,00,CD,82,
23256047,00000332,false,Rx,0,2,61,82,00,00,00,00,00,00,
23256052,000001B5,false,Rx,0,7,C8,FF,04,00,88,FF,FF,00,
23256057,000000A8,false,Rx,0,8,65,07,21,E0,21,1F,0F,64,
23256062,000000A9,false,Rx,0,8,F0,07,79,DF,1D,C7,E0,21,
23256068,000000BA,false,Rx,0,7,03,FF,0F,00,00,54,87,00,
23256073,000000C4,false,Rx,0,7,93,01,FC,1C,FF,FF,F1,00,
23256078,000000A8,false,Rx,0,8,66,08,21,E0,21,1F,0F,64,
23256084,000000A9,false,Rx,0,8,F1,08,79,DF,1D,C7,E0,21,
23256089,000000BA,false,Rx,0,7,03,FF,0F,00,00,55,88,00,
23256094,000000B6,false,Rx,0,5,0E,0E,80,00,C8,00,00,00,
23256100,000000C4,false,Rx,0,7,93,01,FC,00,00,FF,F1,00,
23256105,000000CE,false,Rx,0,8,00,00,00,00,00,00,00,00,
23256111,0000019E,false,Rx,0,8,00,EA,BF,FC,FE,61,00,A7,
23256116,000001A0,false,Rx,0,8,00,80,00,00,80,00,E8,8B,
23256122,000002B2,false,Rx,0,8,00,00,00,00,0F,80,00,04,
23256127,000005E3,false,Rx,0,8,01,02,F7,FF,FF,FF,FF,FF,
23256133,000000A8,false,Rx,0,8,67,09,21,E0,21,1F,0F,64,
23256138,000000A9,false,Rx,0,8,F2,09,79,DF,1D,C7,E0,21,
23256154,000000BA,false,Rx,0,7,03,FF,0F,00,00,56,89,00,
23256159,000000C4,false,Rx,0,7,93,01,FC,00,00,FF,F1,00,
23256164,000000A8,false,Rx,0,8,68,0A,21,E0,21,1F,0F,64,
23256170,000000A9,false,Rx,0,8,F3,0A,79,DF,1D,C7,E0,21,
23256175,000000BA,false,Rx,0,7,03,FF,0F,00,00,57,8A,00,
23256181,000000B6,false,Rx,0,5,FF,00,80,00,C8,00,00,00,
23256186,000000C4,false,Rx,0,7,93,01,FC,00,00,FF,F1,00,
23256192,000000CE,false,Rx,0,8,00,00,00,00,00,00,00,00,
23256197,0000019E,false,Rx,0,8,00,EA,BF,FC,FE,61,00,A7,
23256203,000001A0,false,Rx,0,8,00,80,00,00,80,00,08,AA,
23256208,000002B2,false,Rx,0,8,00,00,00,00,0F,80,00,04,
23256214,000001A6,false,Rx,0,8,00,00,00,00,00,00,40,FF,
23256219,000004A9,false,Rx,0,8,30,52,FF,FF,FF,FF,FF,FF,
23256224,00000130,false,Rx,0,5,00,03,D0,0F,B6,00,00,00,
23261500,000000A8,false,Rx,0,8,69,0B,21,E0,21,1F,0F,64,
23261731,000000A9,false,Rx,0,8,F4,0B,79,DF,1D,C7,E0,21,
23261957,000000BA,false,Rx,0,7,03,FF,0F,00,00,58,8B,00,
23262754,000000C4,false,Rx,0,7,93,01,FC,00,00,FF,F1,00,
23271585,000000A8,false,Rx,0,8,6A,0C,21,E0,21,1F,0F,64,
23271810,000000A9,false,Rx,0,8,F5,0C,79,DF,1D,C7,E0,21,
23272079,000000BA,false,Rx,0,7,03,FF,0F,00,00,59,8C,00,
23272084,000001D2,false,Rx,0,5,E1,0C,8F,70,F0,00,00,00,
23272690,000000B6,false,Rx,0,5,00,01,80,00,C8,00,00,00,
23272916,000000C4,false,Rx,0,7,93,01,FC,00,00,FF,F1,00,
23273155,000000CE,false,Rx,0,8,00,00,00,00,00,00,00,00,
23273381,0000019E,false,Rx,0,8,00,EA,BF,FC,FE,61,00,A7,
23273607,000001A0,false,Rx,0,8,00,80,00,00,80,00,18,BA,
23274027,000002B2,false,Rx,0,8,00,00,00,00,0F,80,00,04,
23281548,000000A8,false,Rx,0,8,6B,0D,21,E0,21,1F,0F,64,
23281778,000000A9,false,Rx,0,8,F6,0D,79,DF,1D,C7,E0,21,
23282005,000000BA,false,Rx,0,7,03,FF,0F,00,00,5A,8D,00,
23282805,000000C4,false,Rx,0,7,93,01,FC,00,00,FF,F1,00,
23284178,000001FB,false,Rx,0,2,FC,FF,00,00,00,00,00,00,
23291589,000000A8,false,Rx,0,8,6C,0E,21,E0,21,1F,0F,64,
23291815,000000A9,false,Rx,0,8,F7,0E,79,DF,1D,C7,E0,21,
23292043,000000BA,false,Rx,0,7,03,FF,0F,00,00,5B,8E,00,
23292835,000000B6,false,Rx,0,5,02,02,80,00,C8,00,00,00,
23293067,000000C4,false,Rx,0,7,93,01,FC,00,00,FF,F1,00,
23293295,000000CE,false,Rx,0,8,00,00,00,00,00,00,00,00,
23293521,0000019E,false,Rx,0,8,00,EA,BF,FC,FE,61,00,A7,
23293747,000001A0,false,Rx,0,8,00,80,00,00,80,00,28,CA,
23293973,000002B2,false,Rx,0,8,00,00,00,00,0F,80,00,04,
23294216,000001D6,false,Rx,0,2,FF,F3,00,00,00,00,00,00,
23301423,000000A8,false,Rx,0,8,5E,00,21,E0,21,1F,0F,64,
23301653,000000A9,false,Rx,0,8,E9,00,79,DF,1D,C7,E0,21,
23301879,000000BA,false,Rx,0,7,03,FF,0F,00,00,4D,80,00,
23302860,000000C4,false,Rx,0,7,93,01,FC,00,00,FF,F1,00,
23311423,000000A8,false,Rx,0,8,5F,01,21,E0,21,1F,0F,64,
23311649,000000A9,false,Rx,0,8,EA,01,79,DF,1D,C7,E0,21,
23311875,000000BA,false,Rx,0,7,03,FF,0F,00,00,4E,81,00,
23312857,000000B6,false,Rx,0,5,03,03,80,00,C8,00,00,00,
23313085,000000C4,false,Rx,0,7,93,01,FC,00,00,FF,F1,00,
23313318,000000CE,false,Rx,0,8,00,00,00,00,00,00,00,00,
23313544,0000019E,false,Rx,0,8,00,EA,BF,FC,FE,61,00,A7,
23313770,000001A0,false,Rx,0,8,00,80,00,00,80,00,38,DA,
23313996,000002B2,false,Rx,0,8,00,00,00,00,0F,80,00,04,
23315929,00000332,false,Rx,0,2,61,82,00,00,00,00,00,00,
23316172,00000332,false,Rx,0,2,61,82,00,00,00,00,00,00,
23316430,000001D0,false,Rx,0,8,3C,FF,06,C3,00,00,CD,82,
23316436,00000332,false,Rx,0,2,61,82,00,00,00,00,00,00,
23321428,000000A8,false,Rx,0,8,60,02,21,E0,21,1F,0F,64,
23321658,000000A9,false,Rx,0,8,EB,02,79,DF,1D,C7,E0,21,
23321884,000000BA,false,Rx,0,7,03,FF,0F,00,00,4F,82,00,
