Time Stamp,ID,Extended,Dir,Bus,LEN,D1,D2,D3,D4,D5,D6,D7,D8
1467881,000000B6,false,Rx,0,5,07,07,80,00,C8,00,00,00,
1467887,000000C4,false,Rx,0,7,42,08,FC,00,00,FF,F1,00,
1467892,000000CE,false,Rx,0,8,00,00,00,00,00,00,00,00,
1467898,0000019E,false,Rx,0,8,00,E8,BF,FC,FE,00,00,44,
1467903,000001A0,false,Rx,0,8,00,80,00,60,01,14,70,08,
1467908,000002B2,false,Rx,0,8,00,00,00,00,50,00,00,04,
1468157,000001A6,false,Rx,0,8,00,00,00,00,00,00,60,F2,
1468391,000000A8,false,Rx,0,8,03,05,21,E0,21,1F,0F,04,
1468616,000000A9,false,Rx,0,8,EE,05,79,DF,1D,C7,E0,21,
1468857,000000AA,false,Rx,0,8,64,5A,07,00,B8,0B,94,00,
1469081,000000BA,false,Rx,0,7,03,FF,0F,00,00,52,85,00,
1469319,000004A9,false,Rx,0,8,30,42,FF,FF,FF,FF,FF,FF,
1476754,000000C4,false,Rx,0,7,42,08,FC,00,00,FF,F1,00,
1478294,000000AA,false,Rx,0,8,66,5C,07,00,B8,0B,94,00,
1478519,000000A8,false,Rx,0,8,04,06,21,E0,21,1F,0F,04,
1478750,000000A9,false,Rx,0,8,EF,06,79,DF,1D,C7,E0,21,
1478982,000000BA,false,Rx,0,7,03,FF,0F,00,00,53,86,00,
1482591,000001B4,false,Rx,0,8,00,D0,E2,FD,44,32,FE,DC,
1487907,000000B6,false,Rx,0,5,08,08,80,00,C8,00,00,00,
1487913,000000C4,false,Rx,0,7,42,08,FC,00,00,FF,F1,00,
1487918,000000CE,false,Rx,0,8,00,00,00,00,00,00,00,00,
1487923,0000019E,false,Rx,0,8,00,E8,BF,FC,FE,00,00,44,
1487929,000001A0,false,Rx,0,8,00,80,00,60,01,14,80,18,
1487934,000002B2,false,Rx,0,8,00,00,00,00,50,00,00,04,
1488359,000000AA,false,Rx,0,8,68,5E,07,00,B8,0B,94,00,
1488585,000000A8,false,Rx,0,8,05,07,21,E0,21,1F,0F,04,
1488821,000000A9,false,Rx,0,8,F0,07,79,DF,1D,C7,E0,21,
1489047,000000BA,false,Rx,0,7,03,FF,0F,00,00,54,87,00,
1496678,000000C4,false,Rx,0,7,42,08,FC,00,00,FF,F1,00,
1498223,000000AA,false,Rx,0,8,5A,50,07,00,B8,0B,94,00,
1498693,000000A8,false,Rx,0,8,06,08,21,E0,21,1F,0F,04,
1498699,000000A9,false,Rx,0,8,F1,08,79,DF,1D,C7,E0,21,
1498981,000000BA,false,Rx,0,7,03,FF,0F,00,00,55,88,00,
1506174,00000130,false,Rx,0,5,45,43,21,8F,76,00,00,00,
1507926,000000B6,false,Rx,0,5,09,09,80,00,C8,00,00,00,
1507932,000000C4,false,Rx,0,7,42,08,FC,00,00,FF,F1,00,
1507938,000000CE,false,Rx,0,8,00,00,00,00,00,00,00,00,
1507943,0000019E,false,Rx,0,8,00,E8,CF,FC,FE,00,00,54,
1507948,000001A0,false,Rx,0,8,00,80,00,60,01,14,90,28,
1507954,000002B2,false,Rx,0,8,00,00,00,00,50,00,00,04,
1508392,000000AA,false,Rx,0,8,5C,52,07,00,B8,0B,94,00,
1508618,000000A8,false,Rx,0,8,07,09,21,E0,21,1F,0F,04,
1508859,000000A9,false,Rx,0,8,F2,09,79,DF,1D,C7,E0,21,
1509125,000000BA,false,Rx,0,7,03,FF,0F,00,00,56,89,00,
1509131,000001D2,false,Rx,0,5,E1,0C,8F,C0,F0,00,00,00,
1516848,000000C4,false,Rx,0,7,42,08,FC,00,00,FF,F1,00,
1516853,000001D6,false,Rx,0,2,FF,F3,00,00,00,00,00,00,
1518219,000000AA,false,Rx,0,8,5E,54,07,00,B8,0B,94,00,
1518630,000000A8,false,Rx,0,8,08,0A,21,E0,21,1F,0F,04,
1518905,000000A9,false,Rx,0,8,F3,0A,79,DF,1D,C7,E0,21,
1518910,000000BA,false,Rx,0,7,03,FF,0F,00,00,57,8A,00,
1528014,000000B6,false,Rx,0,5,0A,0A,80,00,C8,00,00,00,
1528020,000000C4,false,Rx,0,7,42,08,FC,00,00,FF,F1,00,
1528025,000000CE,false,Rx,0,8,00,00,00,00,00,00,00,00,
1528031,0000019E,false,Rx,0,8,00,E8,CF,FC,FE,00,00,54,
1528036,000001A0,false,Rx,0,8,00,80,00,70,01,14,A0,48,
1528042,000002B2,false,Rx,0,8,00,00,00,00,50,00,00,04,
1528282,000000AA,false,Rx,0,8,60,56,07,00,B8,0B,94,00,
1528520,000000A8,false,Rx,0,8,09,0B,21,E0,21,1F,0F,04,
1528754,000000A9,false,Rx,0,8,F4,0B,79,DF,1D,C7,E0,21,
1528997,000000BA,false,Rx,0,7,03,FF,0F,00,00,58,8B,00,
1536803,000000C4,false,Rx,0,7,42,08,FC,00,00,FF,F1,00,
1538343,000000AA,false,Rx,0,8,62,58,07,00,B8,0B,94,00,
1538568,000000A8,false,Rx,0,8,0A,0C,21,E0,21,1F,0F,04,
1538807,000000A9,false,Rx,0,8,F5,0C,79,DF,1D,C7,E0,21,
1539031,000000BA,false,Rx,0,7,03,FF,0F,00,00,59,8C,00,
1548145,000000B6,false,Rx,0,5,0B,0B,80,00,C8,00,00,00,
1548151,000000C4,false,Rx,0,7,42,08,FC,00,00,FF,F1,00,
1548156,000000CE,false,Rx,0,8,00,00,00,00,00,00,00,00,
1548162,0000019E,false,Rx,0,8,00,E8,CF,FC,FE,00,00,54,
1548167,000001A0,false,Rx,0,8,00,80,00,60,01,14,B0,48,
1548172,000002B2,false,Rx,0,8,00,00,00,00,50,00,00,04,
1548178,000000C8,false,Rx,0,6,38,08,3C,00,00,5C,00,00,
1548416,000000A8,false,Rx,0,8,0B,0D,21,E0,21,1F,0F,04,
1548659,000000A9,false,Rx,0,8,F6,0D,79,DF,1D,C7,E0,21,
1548884,000000AA,false,Rx,0,8,64,5A,07,00,B8,0B,94,00,
1549121,000000BA,false,Rx,0,7,03,FF,0F,00,00,5A,8D,00,
1552815,000001D0,false,Rx,0,8,3C,76,6D,C3,9C,9E,CD,82,
1556811,000000C4,false,Rx,0,7,42,08,FC,00,00,FF,F1,00,
1558349,000000AA,false,Rx,0,8,66,5C,07,00,B8,0B,94,00,
1558574,000000A8,false,Rx,0,8,0C,0E,21,E0,21,1F,0F,04,
1558813,000000A9,false,Rx,0,8,F7,0E,79,DF,1D,C7,E0,21,
1559038,000000BA,false,Rx,0,7,03,FF,0F,00,00,5B,8E,00,
1568138,000000B6,false,Rx,0,5,0C,0C,80,00,C8,00,00,00,
1568144,000000C4,false,Rx,0,7,42,08,FC,00,00,FF,F1,00,
1568149,000000CE,false,Rx,0,8,00,00,00,00,00,00,00,00,
1568154,0000019E,false,Rx,0,8,00,E8,CF,FC,FE,00,00,54,
1568160,000001A0,false,Rx,0,8,00,80,00,60,01,14,C0,58,
1568165,000002B2,false,Rx,0,8,00,00,00,00,50,00,00,04,
1568170,000001A6,false,Rx,0,8,00,00,00,00,00,00,F0,F3,
1568408,000000A8,false,Rx,0,8,FD,00,21,E0,21,1F,0F,04,
1568635,000000A9,false,Rx,0,8,E9,00,79,DF,1D,C7,E0,21,
1568872,000000AA,false,Rx,0,8,5A,50,07,00,B8,0B,94,00,
1569106,000000BA,false,Rx,0,7,03,FF,0F,00,00,4D,80,00,
1569345,000004B0,false,Rx,0,8,00,42,FE,01,FF,FF,FF,FF,
1576809,000000C4,false,Rx,0,7,42,08,FC,00,00,FF,F1,00,
1578346,000000AA,false,Rx,0,8,5C,52,07,00,B8,0B,94,00,
1578571,000000A8,false,Rx,0,8,FE,01,21,E0,21,1F,0F,04,
1578809,000000A9,false,Rx,0,8,EA,01,79,DF,1D,C7,E0,21,
1579033,000000BA,false,Rx,0,7,03,FF,0F,00,00,4E,81,00,
1582735,000001B4,false,Rx,0,8,00,D0,E2,FE,44,32,FE,DD,
1588318,000000B6,false,Rx,0,5,0D,0D,80,00,C8,00,00,00,
1588325,000000C4,false,Rx,0,7,42,08,FC,00,00,FF,F1,00,
1588330,000000CE,false,Rx,0,8,00,00,00,00,00,00,00,00,
1588335,0000019E,false,Rx,0,8,00,E8,CF,FC,FE,00,00,54,
1588341,000001A0,false,Rx,0,8,00,80,00,60,01,14,D0,68,
1588346,000002B2,false,Rx,0,8,00,00,00,00,50,00,00,04,
1588351,000000AA,false,Rx,0,8,5E,54,07,00,B8,0B,94,00,
1588589,000000A8,false,Rx,0,8,FF,02,21,E0,21,1F,0F,04,
1588837,000000A9,false,Rx,0,8,EB,02,79,DF,1D,C7,E0,21,
1589068,000000BA,false,Rx,0,7,03,FF,0F,00,00,4F,82,00,
1596685,000000C4,false,Rx,0,7,42,08,FC,00,00,FF,F1,00,
1598231,000000AA,false,Rx,0,8,60,56,07,00,B8,0B,94,00,
1598642,000000A8,false,Rx,0,8,00,03,21,E0,21,1F,0F,04,
1598912,000000A9,false,Rx,0,8,EC,03,79,DF,1D,C7,E0,21,
1598917,000000BA,false,Rx,0,7,03,FF,0F,00,00,50,83,00,
1605929,00000130,false,Rx,0,5,45,43,21,8F,87,00,00,00,
1606718,000000B6,false,Rx,0,5,0E,0E,80,00,C8,00,00,00,
1608496,000000C4,false,Rx,0,7,42,08,FC,00,00,FF,F1,00,
1608503,000000CE,false,Rx,0,8,00,00,00,00,00,00,00,00,
1608508,0000019E,false,Rx,0,8,00,E8,CF,FC,FE,00,00,54,
1608513,000001A0,false,Rx,0,8,00,80,00,60,01,14,E0,78,
1608519,000002B2,false,Rx,0,8,00,00,00,00,50,00,00,04,
1608524,000000AA,false,Rx,0,8,62,58,07,00,B8,0B,94,00,
1608529,000000A8,false,Rx,0,8,02,04,21,E0,21,1F,0F,04,
1608790,000000A9,false,Rx,0,8,ED,04,79,DF,1D,C7,E0,21,
1609015,000000BA,false,Rx,0,7,03,FF,0F,00,00,51,84,00,
1616815,000000C4,false,Rx,0,7,42,08,FC,00,00,FF,F1,00,
1617040,00000194,false,Rx,0,4,E1,F0,00,F0,00,00,00,00,
1617297,000001D6,false,Rx,0,2,FF,F3,00,00,00,00,00,00,
1617302,000002A6,false,Rx,0,2,00,FC,00,00,00,00,00,00,
1618279,000000AA,false,Rx,0,8,64,5A,07,00,B8,0B,94,00,
1618515,000000A8,false,Rx,0,8,03,05,21,E0,21,1F,0F,04,
1618756,000000A9,false,Rx,0,8,EE,05,79,DF,1D,C7,E0,21,
1618987,000000BA,false,Rx,0,7,03,FF,0F,00,00,52,85,00,
1626814,000000B6,false,Rx,0,5,FF,00,80,00,C8,00,00,00,
1628581,000000C4,false,Rx,0,7,42,08,FC,00,00,FF,F1,00,
1628588,000000CE,false,Rx,0,8,00,00,00,00,00,00,00,00,
1628593,0000019E,false,Rx,0,8,00,E8,CF,FC,FE,00,00,54,
1628598,000001A0,false,Rx,0,8,00,80,00,40,01,14,00,77,
1628604,000002B2,false,Rx,0,8,00,00,00,00,50,00,00,04,
1628609,000000AA,false,Rx,0,8,66,5C,07,00,B8,0B,94,00,
1628615,000000A8,false,Rx,0,8,04,06,21,E0,21,1F,0F,04,
1628871,000000A9,false,Rx,0,8,EF,06,79,DF,1D,C7,E0,21,
1628914,000000BA,false,Rx,0,7,03,FF,0F,00,00,53,86,00,
1636737,000000C4,false,Rx,0,7,42,08,FC,00,00,FF,F1,00,
1638278,000000AA,false,Rx,0,8,68,5E,07,00,B8,0B,94,00,
1638503,000000A8,false,Rx,0,8,05,07,21,E0,21,1F,0F,04,
1638731,000000A9,false,Rx,0,8,F0,07,79,DF,1D,C7,E0,21,
1638964,000000BA,false,Rx,0,7,03,FF,0F,00,00,54,87,00,
1640126,000001FB,false,Rx,0,2,F9,FF,00,00,00,00,00,00,
1646746,000000B6,false,Rx,0,5,00,01,80,00,C8,00,00,00,
1646978,000000C4,false,Rx,0,7,42,08,FC,00,00,FF,F1,00,
1648755,000000CE,false,Rx,0,8,00,00,00,00,00,00,00,00,
1648761,0000019E,false,Rx,0,8,00,E8,CF,FC,FE,00,00,54,
1648766,000001A0,false,Rx,0,8,00,80,00,40,01,11,10,84,
1648772,000002B2,false,Rx,0,8,00,00,00,00,40,00,00,04,
1648777,000000AA,false,Rx,0,8,5A,50,07,00,B8,0B,94,00,
1648789,000000A8,false,Rx,0,8,06,08,21,E0,21,1F,0F,04,
1648795,000000A9,false,Rx,0,8,F1,08,79,DF,1D,C7,E0,21,
1649034,000000BA,false,Rx,0,7,03,FF,0F,00,00,55,88,00,
1652903,000001D0,false,Rx,0,8,3C,76,6D,C3,9C,9E,CD,82,
1656904,000000C4,false,Rx,0,7,42,08,FC,00,00,FF,F1,00,
1658254,000000AA,false,Rx,0,8,5C,52,07,00,B8,0B,94,00,
1658479,000000A8,false,Rx,0,8,07,09,21,E0,21,1F,0F,04,
1658711,000000A9,false,Rx,0,8,F2,09,79,DF,1D,C7,E0,21,
1658943,000000BA,false,Rx,0,7,03,FF,0F,00,00,56,89,00,
1664616,00000480,false,Rx,0,8,17,42,FD,FF,FF,FF,FF,FF,
1666725,000000B6,false,Rx,0,5,02,02,80,00,C8,00,00,00,
1666956,000000C4,false,Rx,0,7,42,08,FC,00,00,FF,F1,00,
1668686,000000CE,false,Rx,0,8,00,00,00,00,00,00,00,00,
1668693,0000019E,false,Rx,0,8,00,E8,CF,FC,FE,00,00,54,
1668698,000001A0,false,Rx,0,8,00,80,00,40,01,14,20,97,
1668704,000002B2,false,Rx,0,8,00,00,00,00,50,00,00,04,
1668709,000001A6,false,Rx,0,8,00,00,00,00,00,00,80,F5,
1668714,000000A8,false,Rx,0,8,08,0A,21,E0,21,1F,0F,04,
1668720,000000A9,false,Rx,0,8,F3,0A,79,DF,1D,C7,E0,21,
1668962,000000AA,false,Rx,0,8,5E,54,07,00,B8,0B,94,00,
1669232,000000BA,false,Rx,0,7,03,FF,0F,00,00,57,8A,00,
1669238,00000374,false,Rx,0,5,00,00,00,00,FC,00,00,00,
1676696,000000C4,false,Rx,0,7,42,08,FC,00,00,FF,F1,00,
1678238,000000AA,false,Rx,0,8,60,56,07,00,B8,0B,94,00,
1678463,000000A8,false,Rx,0,8,09,0B,21,E0,21,1F,0F,04,
1678695,000000A9,false,Rx,0,8,F4,0B,79,DF,1D,C7,E0,21,
1678927,000000BA,false,Rx,0,7,03,FF,0F,00,00,58,8B,00,
1682532,000001B4,false,Rx,0,8,00,D0,E2,F0,44,32,FE,CF,
1686711,000000B6,false,Rx,0,5,03,03,80,00,C8,00,00,00,
1686943,000000C4,false,Rx,0,7,42,08,FC,00,00,FF,F1,00,
1687168,000000CE,false,Rx,0,8,00,00,00,00,00,00,00,00,
1688948,0000019E,false,Rx,0,8,00,E8,CF,FC,FE,00,00,54,
1688955,000001A0,false,Rx,0,8,00,80,00,60,01,14,30,C7,
1688960,000002B2,false,Rx,0,8,00,00,00,00,50,00,00,04,
1688965,000000AA,false,Rx,0,8,62,58,07,00,B8,0B,94,00,
1688970,000000A8,false,Rx,0,8,0A,0C,21,E0,21,1F,0F,04,
1688976,000000A9,false,Rx,0,8,F5,0C,79,DF,1D,C7,E0,21,
1688981,000000BA,false,Rx,0,7,03,FF,0F,00,00,59,8C,00,
1696822,000000C4,false,Rx,0,7,42,08,FC,00,00,FF,F1,00,
1698363,000000AA,false,Rx,0,8,64,5A,07,00,B8,0B,94,00,
1698588,000000A8,false,Rx,0,8,0B,0D,21,E0,21,1F,0F,04,
1698828,000000A9,false,Rx,0,8,F6,0D,79,DF,1D,C7,E0,21,
1699052,000000BA,false,Rx,0,7,03,FF,0F,00,00,5A,8D,00,
1706244,00000130,false,Rx,0,5,45,43,21,8F,98,00,00,00,
1706665,000000B6,false,Rx,0,5,04,04,80,00,C8,00,00,00,
1706896,000000C4,false,Rx,0,7,42,08,FC,00,00,FF,F1,00,
1707121,000000CE,false,Rx,0,8,00,00,00,00,00,00,00,00,
1707346,0000019E,false,Rx,0,8,00,E8,CF,FC,FE,00,00,54,
1709095,000001A0,false,Rx,0,8,00,80,00,40,01,14,40,B7,
1709102,000002B2,false,Rx,0,8,00,00,00,00,50,00,00,04,
1709107,000000AA,false,Rx,0,8,66,5C,07,00,B8,0B,94,00,
1709113,000000A8,false,Rx,0,8,0C,0E,21,E0,21,1F,0F,04,
1709118,000000A9,false,Rx,0,8,F7,0E,79,DF,1D,C7,E0,21,
1709123,000000BA,false,Rx,0,7,03,FF,0F,00,00,5B,8E,00,
1709128,000001D2,false,Rx,0,5,E1,0C,8F,D0,F0,00,00,00,
1716815,000000C4,false,Rx,0,7,42,08,FC,00,00,FF,F1,00,
1717041,000001D6,false,Rx,0,2,FF,F3,00,00,00,00,00,00,
1718394,000000AA,false,Rx,0,8,5A,50,07,00,B8,0B,94,00,
1718619,000000A8,false,Rx,0,8,FD,00,21,E0,21,1F,0F,04,
1718860,000000A9,false,Rx,0,8,E9,00,79,DF,1D,C7,E0,21,
1719085,000000BA,false,Rx,0,7,03,FF,0F,00,00,4D,80,00,
1726947,000000B6,false,Rx,0,5,05,05,80,00,C8,00,00,00,
1726952,000000C4,false,Rx,0,7,42,08,FC,00,00,FF,F1,00,
1727363,000000CE,false,Rx,0,8,00,00,00,00,00,00,00,00,
1729160,0000019E,false,Rx,0,8,00,E8,DF,FC,FE,00,00,64,
1729166,000001A0,false,Rx,0,8,00,80,00,60,01,14,50,E7,
1729171,000002B2,false,Rx,0,8,00,00,00,00,50,00,00,04,
1729177,000000AA,false,Rx,0,8,5C,52,07,00,B8,0B,94,00,
1729182,000000A8,false,Rx,0,8,FE,01,21,E0,21,1F,0F,04,
1729187,000000A9,false,Rx,0,8,EA,01,79,DF,1D,C7,E0,21,
1729193,000000BA,false,Rx,0,7,03,FF,0F,00,00,4E,81,00,
1736891,000000C4,false,Rx,0,7,42,08,FC,00,00,FF,F1,00,
1738244,000000AA,false,Rx,0,8,5E,54,07,00,B8,0B,94,00,
1738469,000000A8,false,Rx,0,8,FF,02,21,E0,21,1F,0F,04,
1738699,000000A9,false,Rx,0,8,EB,02,79,DF,1D,C7,E0,21,
1738931,000000BA,false,Rx,0,7,03,FF,0F,00,00,4F,82,00,
1746912,000000B6,false,Rx,0,5,06,06,80,00,C8,00,00,00,
1746918,000000C4,false,Rx,0,7,42,08,FC,00,00,FF,F1,00,
1747327,000000CE,false,Rx,0,8,00,00,00,00,00,00,00,00,
1747552,0000019E,false,Rx,0,8,00,E8,DF,FC,FE,00,00,64,
1749345,000001A0,false,Rx,0,8,00,80,00,60,01,14,60,F7,
1749352,000002B2,false,Rx,0,8,00,00,00,00,50,00,00,04,
1749357,000000C8,false,Rx,0,6,38,08,7C,00,00,CC,00,00,
1749362,000000A8,false,Rx,0,8,00,03,21,E0,21,1F,0F,04,
1749367,000000A9,false,Rx,0,8,EC,03,79,DF,1D,C7,E0,21,
1749373,000000AA,false,Rx,0,8,60,56,07,00,B8,0B,94,00,
1749378,000000BA,false,Rx,0,7,03,FF,0F,00,00,50,83,00,
1749383,00000310,false,Rx,0,7,6E,74,DB,2D,01,40,23,00,
1752745,00000497,false,Rx,0,8,29,42,FF,FF,FF,FF,FF,FF,
1752973,000001D0,false,Rx,0,8,3C,76,6E,C3,9C,9E,CD,82,
1756774,000000C4,false,Rx,0,7,42,08,FC,00,00,FF,F1,00,
1758314,000000AA,false,Rx,0,8,62,58,07,00,B8,0B,94,00,
1758539,000000A8,false,Rx,0,8,02,04,21,E0,21,1F,0F,04,
1758768,000000A9,false,Rx,0,8,ED,04,79,DF,1D,C7,E0,21,
1759000,000000BA,false,Rx,0,7,03,FF,0F,00,00,51,84,00,
1766748,000000B6,false,Rx,0,5,07,07,80,00,C8,00,00,00,
1766980,000000C4,false,Rx,0,7,42,08,FC,00,00,FF,F1,00,
1767205,000000CE,false,Rx,0,8,00,00,00,00,00,00,00,00,
1767430,0000019E,false,Rx,0,8,00,E8,DF,FC,FE,00,00,64,
1767665,000001A0,false,Rx,0,8,00,80,00,40,01,14,70,E7,
1769409,000002B2,false,Rx,0,8,00,00,00,00,50,00,00,04,
1769415,000001A6,false,Rx,0,8,00,00,00,00,00,00,10,F7,
1769420,000000A8,false,Rx,0,8,03,05,21,E0,21,1F,0F,04,
1769426,000000A9,false,Rx,0,8,EE,05,79,DF,1D,C7,E0,21,
1769431,000000AA,false,Rx,0,8,64,5A,07,00,B8,0B,94,00,
1769436,000000BA,false,Rx,0,7,03,FF,0F,00,00,52,85,00,
1776696,000000C4,false,Rx,0,7,42,08,FC,00,00,FF,F1,00,
1778245,000000AA,false,Rx,0,8,66,5C,07,00,B8,0B,94,00,
1778470,000000A8,false,Rx,0,8,04,06,21,E0,21,1F,0F,04,
1778702,000000A9,false,Rx,0,8,EF,06,79,DF,1D,C7,E0,21,
1778935,000000BA,false,Rx,0,7,03,FF,0F,00,00,53,86,00,
1782930,000001B4,false,Rx,0,8,00,D0,E2,F1,44,32,FE,D0,
1786719,000000B6,false,Rx,0,5,08,08,80,00,C8,00,00,00,
1786951,000000C4,false,Rx,0,7,42,08,FC,00,00,FF,F1,00,
1787176,000000CE,false,Rx,0,8,00,00,00,00,00,00,00,00,
1787401,0000019E,false,Rx,0,8,00,E8,DF,FC,FE,00,00,64,
1787627,000001A0,false,Rx,0,8,00,80,00,40,01,14,80,F7,
1787868,000002B2,false,Rx,0,8,00,00,00,00,50,00,00,04,
1789566,000000AA,false,Rx,0,8,68,5E,07,00,B8,0B,94,00,
1789572,000000A8,false,Rx,0,8,05,07,21,E0,21,1F,0F,04,
1789578,000000A9,false,Rx,0,8,F0,07,79,DF,1D,C7,E0,21,
1789583,000000BA,false,Rx,0,7,03,FF,0F,00,00,54,87,00,
1796837,000000C4,false,Rx,0,7,42,08,FC,00,00,FF,F1,00,
1798377,000000AA,false,Rx,0,8,5A,50,07,00,B8,0B,94,00,
1798602,000000A8,false,Rx,0,8,06,08,21,E0,21,1F,0F,04,
1798840,000000A9,false,Rx,0,8,F1,08,79,DF,1D,C7,E0,21,
1799065,000000BA,false,Rx,0,7,03,FF,0F,00,00,55,88,00,
1805881,00000130,false,Rx,0,5,45,43,21,8F,A9,00,00,00,
1806665,000000B6,false,Rx,0,5,09,09,80,00,C8,00,00,00,
1806897,000000C4,false,Rx,0,7,42,08,FC,00,00,FF,F1,00,
1807308,000000CE,false,Rx,0,8,00,00,00,00,00,00,00,00,
1807533,0000019E,false,Rx,0,8,00,E8,DF,FC,FE,00,00,64,
1807768,000001A0,false,Rx,0,8,00,80,00,40,01,14,90,08,
1808000,000002B2,false,Rx,0,8,00,00,00,00,50,00,00,04,
1809758,000000AA,false,Rx,0,8,5C,52,07,00,B8,0B,94,00,
1809764,000000A8,false,Rx,0,8,07,09,21,E0,21,1F,0F,04,
1809769,000000A9,false,Rx,0,8,F2,09,79,DF,1D,C7,E0,21,
1809775,000000BA,false,Rx,0,7,03,FF,0F,00,00,56,89,00,
1816859,000000C4,false,Rx,0,7,42,08,FC,00,00,FF,F1,00,
1817119,00000194,false,Rx,0,4,E2,F1,00,F0,00,00,00,00,
1817124,000001D6,false,Rx,0,2,FF,F3,00,00,00,00,00,00,
1818292,000000AA,false,Rx,0,8,5E,54,07,00,B8,0B,94,00,
1818517,000000A8,false,Rx,0,8,08,0A,21,E0,21,1F,0F,04,
1818750,000000A9,false,Rx,0,8,F3,0A,79,DF,1D,C7,E0,21,
1818982,000000BA,false,Rx,0,7,03,FF,0F,00,00,57,8A,00,
1826764,000000B6,false,Rx,0,5,0A,0A,80,00,C8,00,00,00,
1826996,000000C4,false,Rx,0,7,42,08,FC,00,00,FF,F1,00,
1827221,000000CE,false,Rx,0,8,00,00,00,00,00,00,00,00,
1827447,0000019E,false,Rx,0,8,00,E8,DF,FC,FE,00,00,64,
1827680,000001A0,false,Rx,0,8,00,80,00,60,01,14,A0,38,
1828098,000002B2,false,Rx,0,8,00,00,00,00,50,00,00,04,
1830518,000000AA,false,Rx,0,8,60,56,07,00,B8,0B,94,00,
1830525,000000A8,false,Rx,0,8,09,0B,21,E0,21,1F,0F,04,
1830530,000000A9,false,Rx,0,8,F4,0B,79,DF,1D,C7,E0,21,
1830536,000000BA,false,Rx,0,7,03,FF,0F,00,00,58,8B,00,
1830541,000001FB,false,Rx,0,2,FA,FF,00,00,00,00,00,00,
1836757,000000C4,false,Rx,0,7,42,08,FC,00,00,FF,F1,00,
1838305,000000AA,false,Rx,0,8,62,58,07,00,B8,0B,94,00,
1838530,000000A8,false,Rx,0,8,0A,0C,21,E0,21,1F,0F,04,
1838761,000000A9,false,Rx,0,8,F5,0C,79,DF,1D,C7,E0,21,
1838993,000000BA,false,Rx,0,7,03,FF,0F,00,00,59,8C,00,
1846743,000000B6,false,Rx,0,5,0B,0B,80,00,C8,00,00,00,
1846976,000000C4,false,Rx,0,7,42,08,FC,00,00,FF,F1,00,
1847201,000000CE,false,Rx,0,8,00,00,00,00,00,00,00,00,
1847425,0000019E,false,Rx,0,8,00,E8,DF,FC,FE,00,00,64,
1847849,000001A0,false,Rx,0,8,00,80,00,40,01,14,B0,28,
1848075,000002B2,false,Rx,0,8,00,00,00,00,50,00,00,04,
1848300,000004A9,false,Rx,0,8,30,42,FF,FF,FF,FF,FF,FF,
1850109,000000A8,false,Rx,0,8,0B,0D,21,E0,21,1F,0F,04,
1850116,000000A9,false,Rx,0,8,F6,0D,79,DF,1D,C7,E0,21,
1850121,000000AA,false,Rx,0,8,64,5A,07,00,B8,0B,94,00,
1850126,000000BA,false,Rx,0,7,03,FF,0F,00,00,5A,8D,00,
1852918,000001D0,false,Rx,0,8,3C,76,6E,C3,9C,9E,CD,82,
1856842,000000C4,false,Rx,0,7,42,08,FC,00,00,FF,F1,00,
1858380,000000AA,false,Rx,0,8,66,5C,07,00,B8,0B,94,00,
1858605,000000A8,false,Rx,0,8,0C,0E,21,E0,21,1F,0F,04,
1858846,000000A9,false,Rx,0,8,F7,0E,79,DF,1D,C7,E0,21,
1859071,000000BA,false,Rx,0,7,03,FF,0F,00,00,5B,8E,00,
1866621,000000B6,false,Rx,0,5,0C,0C,80,00,C8,00,00,00,
1866858,000000C4,false,Rx,0,7,42,08,FC,00,00,FF,F1,00,
1867269,000000CE,false,Rx,0,8,00,00,00,00,00,00,00,00,
1867494,0000019E,false,Rx,0,8,00,E8,DF,FC,FE,00,00,64,
1867722,000001A0,false,Rx,0,8,00,80,00,60,01,14,C0,58,
1867954,000002B2,false,Rx,0,8,00,00,00,00,50,00,00,04,
1868179,000001A6,false,Rx,0,8,00,00,00,00,00,00,A0,F8,
1868404,000000A8,false,Rx,0,8,FD,00,21,E0,21,1F,0F,04,
1870208,000000A9,false,Rx,0,8,E9,00,79,DF,1D,C7,E0,21,
1870214,000000AA,false,Rx,0,8,5A,50,07,00,B8,0B,94,00,
1870219,000000BA,false,Rx,0,7,03,FF,0F,00,00,4D,80,00,
1876790,000000C4,false,Rx,0,7,42,08,FC,00,00,FF,F1,00,
1878328,000000AA,false,Rx,0,8,5C,52,07,00,B8,0B,94,00,
1878553,000000A8,false,Rx,0,8,FE,01,21,E0,21,1F,0F,04,
1878792,000000A9,false,Rx,0,8,EA,01,79,DF,1D,C7,E0,21,
1879017,000000BA,false,Rx,0,7,03,FF,0F,00,00,4E,81,00,
1882616,000001B4,false,Rx,0,8,00,D0,E2,F2,44,32,FE,D1,
1886807,000000B6,false,Rx,0,5,0D,0D,80,00,C8,00,00,00,
1887031,000000C4,false,Rx,0,7,42,08,FC,00,00,FF,F1,00,
1887256,000000CE,false,Rx,0,8,00,00,00,00,00,00,00,00,
1887481,0000019E,false,Rx,0,8,00,E8,DF,FC,FE,00,00,64,
1887709,000001A0,false,Rx,0,8,00,80,00,60,01,14,D0,68,
1887941,000002B2,false,Rx,0,8,00,00,00,00,50,00,00,04,
1888351,000000AA,false,Rx,0,8,5E,54,07,00,B8,0B,94,00,
1888576,000000A8,false,Rx,0,8,FF,02,21,E0,21,1F,0F,04,
1890305,000000A9,false,Rx,0,8,EB,02,79,DF,1D,C7,E0,21,
1890312,000000BA,false,Rx,0,7,03,FF,0F,00,00,4F,82,00,
1896815,000000C4,false,Rx,0,7,42,08,FC,00,00,FF,F1,00,
1898356,000000AA,false,Rx,0,8,60,56,07,00,B8,0B,94,00,
1898581,000000A8,false,Rx,0,8,00,03,21,E0,21,1F,0F,04,
1898822,000000A9,false,Rx,0,8,EC,03,79,DF,1D,C7,E0,21,
1899046,000000BA,false,Rx,0,7,03,FF,0F,00,00,50,83,00,
1906244,00000130,false,Rx,0,5,45,43,21,8F,BA,00,00,00,
1906887,000000B6,false,Rx,0,5,0E,0E,80,00,C8,00,00,00,
1906892,000000C4,false,Rx,0,7,42,08,FC,00,00,FF,F1,00,
1907302,000000CE,false,Rx,0,8,00,00,00,00,00,00,00,00,
1907527,0000019E,false,Rx,0,8,00,E8,DF,FC,FE,00,00,64,
1907762,000001A0,false,Rx,0,8,00,80,00,60,01,14,E0,78,
1907994,000002B2,false,Rx,0,8,00,00,00,00,50,00,00,04,
1908218,000000AA,false,Rx,0,8,62,58,07,00,B8,0B,94,00,
1908629,000000A8,false,Rx,0,8,02,04,21,E0,21,1F,0F,04,
1910381,000000A9,false,Rx,0,8,ED,04,79,DF,1D,C7,E0,21,
1910387,000000BA,false,Rx,0,7,03,FF,0F,00,00,51,84,00,
1910392,000001D2,false,Rx,0,5,E1,0C,8F,E0,F0,00,00,00,
1916971,000000C4,false,Rx,0,7,42,08,FC,00,00,FF,F1,00,
1916977,000001D6,false,Rx,0,2,FF,F3,00,00,00,00,00,00,
1918328,000000AA,false,Rx,0,8,64,5A,07,00,B8,0B,94,00,
1918553,000000A8,false,Rx,0,8,03,05,21,E0,21,1F,0F,04,
1918789,000000A9,false,Rx,0,8,EE,05,79,DF,1D,C7,E0,21,
1919015,000000BA,false,Rx,0,7,03,FF,0F,00,00,52,85,00,
1926776,000000B6,false,Rx,0,5,FF,00,80,00,C8,00,00,00,
1927006,000000C4,false,Rx,0,7,42,08,FC,00,00,FF,F1,00,
1927417,000000CE,false,Rx,0,8,00,00,00,00,00,00,00,00,
1927643,0000019E,false,Rx,0,8,00,E8,EF,FC,FE,00,00,74,
1927885,000001A0,false,Rx,0,8,00,80,00,60,01,14,00,97,
1928110,000002B2,false,Rx,0,8,00,00,00,00,50,00,00,04,
1928335,000000AA,false,Rx,0,8,66,5C,07,00,B8,0B,94,00,
1928560,000000A8,false,Rx,0,8,04,06,21,E0,21,1F,0F,04,
1928796,000000A9,false,Rx,0,8,EF,06,79,DF,1D,C7,E0,21,
1930493,000000BA,false,Rx,0,7,03,FF,0F,00,00,53,86,00,
1936859,000000C4,false,Rx,0,7,42,08,FC,00,00,FF,F1,00,
1938400,000000AA,false,Rx,0,8,68,5E,07,00,B8,0B,94,00,
1938625,000000A8,false,Rx,0,8,05,07,21,E0,21,1F,0F,04,
1938866,000000A9,false,Rx,0,8,F0,07,79,DF,1D,C7,E0,21,
1939091,000000BA,false,Rx,0,7,03,FF,0F,00,00,54,87,00,
1939316,000004B0,false,Rx,0,8,00,42,FE,01,FF,FF,FF,FF,
1946879,000000B6,false,Rx,0,5,00,01,80,00,C8,00,00,00,
1947103,000000C4,false,Rx,0,7,42,08,FC,00,00,FF,F1,00,
1947328,000000CE,false,Rx,0,8,00,00,00,00,00,00,00,00,
1947553,0000019E,false,Rx,0,8,00,E8,EF,FC,FE,00,00,74,
1947791,000001A0,false,Rx,0,8,00,80,00,60,01,14,10,A7,
1948016,000002B2,false,Rx,0,8,00,00,00,00,50,00,00,04,
1948240,000000C8,false,Rx,0,6,38,08,CC,00,00,EC,00,00,
1948465,000000A8,false,Rx,0,8,06,08,21,E0,21,1F,0F,04,
1948697,000000A9,false,Rx,0,8,F1,08,79,DF,1D,C7,E0,21,
1948929,000000AA,false,Rx,0,8,5A,50,07,00,B8,0B,94,00,
1950574,000000BA,false,Rx,0,7,03,FF,0F,00,00,55,88,00,
1952791,000001D0,false,Rx,0,8,3C,76,60,C3,9C,9E,CD,82,
1956787,000000C4,false,Rx,0,7,42,08,FC,00,00,FF,F1,00,
1959020,000000AA,false,Rx,0,8,5C,52,07,00,B8,0B,94,00,
1959026,000000A8,false,Rx,0,8,07,09,21,E0,21,1F,0F,04,
1959031,000000A9,false,Rx,0,8,F2,09,79,DF,1D,C7,E0,21,
1959036,000000BA,false,Rx,0,7,03,FF,0F,00,00,56,89,00,
1966813,000000B6,false,Rx,0,5,02,02,80,00,C8,00,00,00,
1967038,000000C4,false,Rx,0,7,42,08,FC,00,00,FF,F1,00,
1967263,000000CE,false,Rx,0,8,00,00,00,00,00,00,00,00,
1967487,0000019E,false,Rx,0,8,00,E8,EF,FC,FE,00,00,74,
1967714,000001A0,false,Rx,0,8,00,80,00,40,01,14,20,97,
1967947,000002B2,false,Rx,0,8,00,00,00,00,50,00,00,04,
1968172,000001A6,false,Rx,0,8,00,00,00,00,00,00,30,FA,
1968397,000000A8,false,Rx,0,8,08,0A,21,E0,21,1F,0F,04,
1968622,000000A9,false,Rx,0,8,F3,0A,79,DF,1D,C7,E0,21,
1968863,000000AA,false,Rx,0,8,5E,54,07,00,B8,0B,94,00,
1969088,000000BA,false,Rx,0,7,03,FF,0F,00,00,57,8A,00,
1976687,000000C4,false,Rx,0,7,42,08,FC,00,00,FF,F1,00,
1978235,000000AA,false,Rx,0,8,60,56,07,00,B8,0B,94,00,
1978459,000000A8,false,Rx,0,8,09,0B,21,E0,21,1F,0F,04,
1978915,000000A9,false,Rx,0,8,F4,0B,79,DF,1D,C7,E0,21,
1978920,000000BA,false,Rx,0,7,03,FF,0F,00,00,58,8B,00,
1982719,000001B4,false,Rx,0,8,00,D0,E2,F3,44,32,FE,D2,
1986711,000000B6,false,Rx,0,5,03,03,80,00,C8,00,00,00,
1986944,000000C4,false,Rx,0,7,42,08,FC,00,00,FF,F1,00,
1987168,000000CE,false,Rx,0,8,00,00,00,00,00,00,00,00,
1987394,0000019E,false,Rx,0,8,00,E8,EF,FC,FE,00,00,74,
1987619,000001A0,false,Rx,0,8,00,80,00,60,01,14,30,C7,
1987853,000002B2,false,Rx,0,8,00,00,00,00,50,00,00,04,
1988264,000000AA,false,Rx,0,8,62,58,07,00,B8,0B,94,00,
1988489,000000A8,false,Rx,0,8,0A,0C,21,E0,21,1F,0F,04,
1988718,000000A9,false,Rx,0,8,F5,0C,79,DF,1D,C7,E0,21,
1988949,000000BA,false,Rx,0,7,03,FF,0F,00,00,59,8C,00,
1996770,000000C4,false,Rx,0,7,42,08,FC,00,00,FF,F1,00,
1998314,000000AA,false,Rx,0,8,64,5A,07,00,B8,0B,94,00,
1998539,000000A8,false,Rx,0,8,0B,0D,21,E0,21,1F,0F,04,
1998774,000000A9,false,Rx,0,8,F6,0D,79,DF,1D,C7,E0,21,
1999005,000000BA,false,Rx,0,7,03,FF,0F,00,00,5A,8D,00,
2005821,00000130,false,Rx,0,5,45,43,21,8F,CB,00,00,00,
2006804,000000B6,false,Rx,0,5,04,04,80,00,C8,00,00,00,
2007029,000000C4,false,Rx,0,7,42,08,FC,00,00,FF,F1,00,
2007253,000000CE,false,Rx,0,8,00,00,00,00,00,00,00,00,
2007478,0000019E,false,Rx,0,8,00,E8,EF,FC,FE,00,00,74,
2007706,000001A0,false,Rx,0,8,00,80,00,40,01,14,40,B7,
2007938,000002B2,false,Rx,0,8,00,00,00,00,50,00,00,04,
2008349,000000AA,false,Rx,0,8,66,5C,07,00,B8,0B,94,00,
2008574,000000A8,false,Rx,0,8,0C,0E,21,E0,21,1F,0F,04,
2008815,000000A9,false,Rx,0,8,F7,0E,79,DF,1D,C7,E0,21,
2009039,000000BA,false,Rx,0,7,03,FF,0F,00,00,5B,8E,00,
2016907,000000C4,false,Rx,0,7,42,08,FC,00,00,FF,F1,00,
2016915,00000194,false,Rx,0,4,E3,F2,00,F0,00,00,00,00,
2017140,000001D6,false,Rx,0,2,FF,F3,00,00,00,00,00,00,
2018304,000000AA,false,Rx,0,8,5A,50,07,00,B8,0B,94,00,
2018529,000000A8,false,Rx,0,8,FD,00,21,E0,21,1F,0F,04,
2018757,000000A9,false,Rx,0,8,E9,00,79,DF,1D,C7,E0,21,
2018989,000000BA,false,Rx,0,7,03,FF,0F,00,00,4D,80,00,
2020157,000001FB,false,Rx,0,2,FB,FF,00,00,00,00,00,00,
2024707,00000480,false,Rx,0,8,17,42,FD,FF,FF,FF,FF,FF,
2026824,000000B6,false,Rx,0,5,05,05,80,00,C8,00,00,00,
2027049,000000C4,false,Rx,0,7,42,08,FC,00,00,FF,F1,00,
2027275,000000CE,false,Rx,0,8,00,00,00,00,00,00,00,00,
2027500,0000019E,false,Rx,0,8,00,E8,EF,FC,FE,00,00,74,
2027734,000001A0,false,Rx,0,8,00,80,00,60,01,14,50,E7,
2027981,000002B2,false,Rx,0,8,00,00,00,00,50,00,00,04,
2028404,000000AA,false,Rx,0,8,5C,52,07,00,B8,0B,94,00,
2028629,000000A8,false,Rx,0,8,FE,01,21,E0,21,1F,0F,04,
2028868,000000A9,false,Rx,0,8,EA,01,79,DF,1D,C7,E0,21,
2029093,000000BA,false,Rx,0,7,03,FF,0F,00,00,4E,81,00,
2033301,000001B5,false,Rx,0,7,C8,FF,04,00,88,FF,FF,00,
2036786,000000C4,false,Rx,0,7,42,08,FC,00,00,FF,F1,00,
2038320,000000AA,false,Rx,0,8,5E,54,07,00,B8,0B,94,00,
2038545,000000A8,false,Rx,0,8,FF,02,21,E0,21,1F,0F,04,
2038775,000000A9,false,Rx,0,8,EB,02,79,DF,1D,C7,E0,21,
2039007,000000BA,false,Rx,0,7,03,FF,0F,00,00,4F,82,00,
2046754,000000B6,false,Rx,0,5,06,06,80,00,C8,00,00,00,
2046986,000000C4,false,Rx,0,7,42,08,FC,00,00,FF,F1,00,
2047211,000000CE,false,Rx,0,8,00,00,00,00,00,00,00,00,
2047436,0000019E,false,Rx,0,8,00,E8,EF,FC,FE,00,00,74,
2047664,000001A0,false,Rx,0,8,00,80,00,40,01,14,60,D7,
2048082,000002B2,false,Rx,0,8,00,00,00,00,50,00,00,04,
2048307,000000AA,false,Rx,0,8,60,56,07,00,B8,0B,94,00,
2048533,000000A8,false,Rx,0,8,00,03,21,E0,21,1F,0F,04,
2048761,000000A9,false,Rx,0,8,EC,03,79,DF,1D,C7,E0,21,
2048992,000000BA,false,Rx,0,7,03,FF,0F,00,00,50,83,00,
2052953,000001D0,false,Rx,0,8,3C,76,60,C3,9C,9E,CD,82,
2056825,000000C4,false,Rx,0,7,42,08,FC,00,00,FF,F1,00,
2058366,000000AA,false,Rx,0,8,62,58,07,00,B8,0B,94,00,
2058591,000000A8,false,Rx,0,8,02,04,21,E0,21,1F,0F,04,
2058831,000000A9,false,Rx,0,8,ED,04,79,DF,1D,C7,E0,21,
2059055,000000BA,false,Rx,0,7,03,FF,0F,00,00,51,84,00,
2066847,000000B6,false,Rx,0,5,07,07,80,00,C8,00,00,00,
2066852,000000C4,false,Rx,0,7,42,08,FC,00,00,FF,F1,00,
2067262,000000CE,false,Rx,0,8,00,00,00,00,00,00,00,00,
2067487,0000019E,false,Rx,0,8,00,E8,EF,FC,FE,00,00,74,
2067713,000001A0,false,Rx,0,8,00,80,00,40,01,17,70,EA,
2067945,000002B2,false,Rx,0,8,00,00,00,00,50,00,00,04,
2068170,000001A6,false,Rx,0,8,00,00,00,00,00,00,C0,FB,
2068395,000000A8,false,Rx,0,8,03,05,21,E0,21,1F,0F,04,
2068620,000000A9,false,Rx,0,8,EE,05,79,DF,1D,C7,E0,21,
2068859,000000AA,false,Rx,0,8,64,5A,07,00,B8,0B,94,00,
2069083,000000BA,false,Rx,0,7,03,FF,0F,00,00,52,85,00,
2076690,000000C4,false,Rx,0,7,42,08,FC,00,00,FF,F1,00,
2078239,000000AA,false,Rx,0,8,66,5C,07,00,B8,0B,94,00,
2078464,000000A8,false,Rx,0,8,04,06,21,E0,21,1F,0F,04,
2078699,000000A9,false,Rx,0,8,EF,06,79,DF,1D,C7,E0,21,
2078937,000000BA,false,Rx,0,7,03,FF,0F,00,00,53,86,00,
2082434,000001B4,false,Rx,0,8,00,D0,E2,F4,44,32,FE,D3,
2086814,000000B6,false,Rx,0,5,08,08,80,00,C8,00,00,00,
2087039,000000C4,false,Rx,0,7,42,08,FC,00,00,FF,F1,00,
2087264,000000CE,false,Rx,0,8,00,00,00,00,00,00,00,00,
2087489,0000019E,false,Rx,0,8,00,E8,EF,FC,FE,00,00,74,
2087716,000001A0,false,Rx,0,8,00,80,00,60,01,17,80,1B,
2087948,000002B2,false,Rx,0,8,00,00,00,00,50,00,00,04,
2088359,000000AA,false,Rx,0,8,68,5E,07,00,B8,0B,94,00,
2088583,000000A8,false,Rx,0,8,05,07,21,E0,21,1F,0F,04,
2088822,000000A9,false,Rx,0,8,F0,07,79,DF,1D,C7,E0,21,
2089046,000000BA,false,Rx,0,7,03,FF,0F,00,00,54,87,00,
2096877,000000C4,false,Rx,0,7,42,08,FC,00,00,FF,F1,00,
2098234,000000AA,false,Rx,0,8,5A,50,07,00,B8,0B,94,00,
2098646,000000A8,false,Rx,0,8,06,08,21,E0,21,1F,0F,04,
2098913,000000A9,false,Rx,0,8,F1,08,79,DF,1D,C7,E0,21,
2098918,000000BA,false,Rx,0,7,03,FF,0F,00,00,55,88,00,
2106301,00000130,false,Rx,0,5,45,43,21,8F,DC,00,00,00,
2106713,000000B6,false,Rx,0,5,09,09,80,00,C8,00,00,00,
2106945,000000C4,false,Rx,0,7,42,08,FC,00,00,FF,F1,00,
2107170,000000CE,false,Rx,0,8,00,00,00,00,00,00,00,00,
2107395,0000019E,false,Rx,0,8,00,E8,EF,FC,FE,00,00,74,
2107619,000001A0,false,Rx,0,8,00,80,00,60,01,17,90,2B,
2107859,000002B2,false,Rx,0,8,00,00,00,00,50,00,00,04,
2108270,000000AA,false,Rx,0,8,5C,52,07,00,B8,0B,94,00,
2108495,000000A8,false,Rx,0,8,07,09,21,E0,21,1F,0F,04,
2108728,000000A9,false,Rx,0,8,F2,09,79,DF,1D,C7,E0,21,
2108961,000000BA,false,Rx,0,7,03,FF,0F,00,00,56,89,00,
2109185,000001D2,false,Rx,0,5,E1,0C,8F,F0,F0,00,00,00,
2112773,00000497,false,Rx,0,8,29,42,FF,FF,FF,FF,FF,FF,
2116847,000000C4,false,Rx,0,7,42,08,FC,00,00,FF,F1,00,
2117072,000001D6,false,Rx,0,2,FF,F3,00,00,00,00,00,00,
2118239,000000AA,false,Rx,0,8,5E,54,07,00,B8,0B,94,00,
2118464,000000A8,false,Rx,0,8,08,0A,21,E0,21,1F,0F,04,
2118695,000000A9,false,Rx,0,8,F3,0A,79,DF,1D,C7,E0,21,
2118928,000000BA,false,Rx,0,7,03,FF,0F,00,00,57,8A,00,
2126873,000000B6,false,Rx,0,5,0A,0A,80,00,C8,00,00,00,
2127097,000000C4,false,Rx,0,7,42,08,FC,00,00,FF,F1,00,
2127322,000000CE,false,Rx,0,8,00,00,00,00,00,00,00,00,
2127548,0000019E,false,Rx,0,8,00,E8,EF,FC,FE,00,00,74,
2127786,000001A0,false,Rx,0,8,00,80,00,40,01,14,A0,18,
2128012,000002B2,false,Rx,0,8,00,00,00,00,50,00,00,04,
2128237,000000AA,false,Rx,0,8,60,56,07,00,B8,0B,94,00,
2128462,000000A8,false,Rx,0,8,09,0B,21,E0,21,1F,0F,04,
2128916,000000A9,false,Rx,0,8,F4,0B,79,DF,1D,C7,E0,21,
2128921,000000BA,false,Rx,0,7,03,FF,0F,00,00,58,8B,00,
2136753,000000C4,false,Rx,0,7,42,08,FC,00,00,FF,F1,00,
2138302,000000AA,false,Rx,0,8,62,58,07,00,B8,0B,94,00,
2138528,000000A8,false,Rx,0,8,0A,0C,21,E0,21,1F,0F,04,
2138757,000000A9,false,Rx,0,8,F5,0C,79,DF,1D,C7,E0,21,
2138988,000000BA,false,Rx,0,7,03,FF,0F,00,00,59,8C,00,
2146971,000000B6,false,Rx,0,5,0B,0B,80,00,C8,00,00,00,
2146976,000000C4,false,Rx,0,7,42,08,FC,00,00,FF,F1,00,
2147386,000000CE,false,Rx,0,8,00,00,00,00,00,00,00,00,
2147612,0000019E,false,Rx,0,8,00,E8,0F,FC,FE,00,00,93,
2147852,000001A0,false,Rx,0,8,00,80,00,60,01,14,B0,48,
2148077,000002B2,false,Rx,0,8,00,00,00,00,50,00,00,04,
2148302,000000C8,false,Rx,0,6,38,08,2C,00,00,0C,00,00,
2148527,000000A8,false,Rx,0,8,0B,0D,21,E0,21,1F,0F,04,
2148761,000000A9,false,Rx,0,8,F6,0D,79,DF,1D,C7,E0,21,
2148994,000000AA,false,Rx,0,8,64,5A,07,00,B8,0B,94,00,
2149219,000000BA,false,Rx,0,7,03,FF,0F,00,00,5A,8D,00,
2152973,000001D0,false,Rx,0,8,3C,76,61,C3,9C,9E,CD,82,
2156829,000000C4,false,Rx,0,7,42,08,FC,00,00,FF,F1,00,
2158364,000000AA,false,Rx,0,8,66,5C,07,00,B8,0B,94,00,
2158589,000000A8,false,Rx,0,8,0C,0E,21,E0,21,1F,0F,04,
2158828,000000A9,false,Rx,0,8,F7,0E,79,DF,1D,C7,E0,21,
2159052,000000BA,false,Rx,0,7,03,FF,0F,00,00,5B,8E,00,
2166817,000000B6,false,Rx,0,5,0C,0C,80,00,C8,00,00,00,
2167042,000000C4,false,Rx,0,7,42,08,FC,00,00,FF,F1,00,
2167267,000000CE,false,Rx,0,8,00,00,00,00,00,00,00,00,
2167492,0000019E,false,Rx,0,8,00,E8,0F,FC,FE,00,00,93,
2167720,000001A0,false,Rx,0,8,00,80,00,40,01,11,C0,35,
2167952,000002B2,false,Rx,0,8,00,00,00,00,40,00,00,04,
2168178,000001A6,false,Rx,0,8,00,00,00,00,00,00,50,FD,
2168402,000000A8,false,Rx,0,8,FD,00,21,E0,21,1F,0F,04,
2168627,000000A9,false,Rx,0,8,E9,00,79,DF,1D,C7,E0,21,
2168868,000000AA,false,Rx,0,8,5A,50,07,00,B8,0B,94,00,
2169093,000000BA,false,Rx,0,7,03,FF,0F,00,00,4D,80,00,
2172269,000003B0,false,Rx,0,2,FD,FF,00,00,00,00,00,00,
2176904,000000C4,false,Rx,0,7,42,08,FC,00,00,FF,F1,00,
2178253,000000AA,false,Rx,0,8,5C,52,07,00,B8,0B,94,00,
2178476,000000A8,false,Rx,0,8,FE,01,21,E0,21,1F,0F,04,
2178704,000000A9,false,Rx,0,8,EA,01,79,DF,1D,C7,E0,21,
2178934,000000BA,false,Rx,0,7,03,FF,0F,00,00,4E,81,00,
2182735,000001B4,false,Rx,0,8,00,D0,E2,F5,44,32,FE,D4,
2186721,000000B6,false,Rx,0,5,0D,0D,80,00,C8,00,00,00,
2186954,000000C4,false,Rx,0,7,42,08,FC,00,00,FF,F1,00,
2187179,000000CE,false,Rx,0,8,00,00,00,00,00,00,00,00,
2187404,0000019E,false,Rx,0,8,00,E8,0F,FC,FE,00,00,93,
2187628,000001A0,false,Rx,0,8,00,80,00,60,01,11,D0,65,
2188054,000002B2,false,Rx,0,8,00,00,00,00,40,00,00,04,
2188279,000000AA,false,Rx,0,8,5E,54,07,00,B8,0B,94,00,
2188504,000000A8,false,Rx,0,8,FF,02,21,E0,21,1F,0F,04,
2188731,000000A9,false,Rx,0,8,EB,02,79,DF,1D,C7,E0,21,
2188963,000000BA,false,Rx,0,7,03,FF,0F,00,00,4F,82,00,
2196740,000000C4,false,Rx,0,7,42,08,FC,00,00,FF,F1,00,
2198289,000000AA,false,Rx,0,8,60,56,07,00,B8,0B,94,00,
2198514,000000A8,false,Rx,0,8,00,03,21,E0,21,1F,0F,04,
2198741,000000A9,false,Rx,0,8,EC,03,79,DF,1D,C7,E0,21,
2198973,000000BA,false,Rx,0,7,03,FF,0F,00,00,50,83,00,
2205974,00000130,false,Rx,0,5,45,43,21,8F,ED,00,00,00,
2206758,000000B6,false,Rx,0,5,0E,0E,80,00,C8,00,00,00,
2206990,000000C4,false,Rx,0,7,42,08,FC,00,00,FF,F1,00,
2207215,000000CE,false,Rx,0,8,00,00,00,00,00,00,00,00,
2207626,0000019E,false,Rx,0,8,00,E8,0F,FC,FE,00,00,93,
2207869,000001A0,false,Rx,0,8,00,80,00,40,01,14,E0,58,
2208094,000002B2,false,Rx,0,8,00,00,00,00,50,00,00,04,
2208319,000004A9,false,Rx,0,8,30,42,FF,FF,FF,FF,FF,FF,
2208544,000000A8,false,Rx,0,8,02,04,21,E0,21,1F,0F,04,
2208778,000000A9,false,Rx,0,8,ED,04,79,DF,1D,C7,E0,21,
2209010,000000AA,false,Rx,0,8,62,58,07,00,B8,0B,94,00,
2209234,000000BA,false,Rx,0,7,03,FF,0F,00,00,51,84,00,
2210219,000001FB,false,Rx,0,2,FC,FF,00,00,00,00,00,00,
2216882,000000C4,false,Rx,0,7,42,08,FC,00,00,FF,F1,00,
2217144,00000194,false,Rx,0,4,E4,F3,00,F0,00,00,00,00,
2217149,000001D6,false,Rx,0,2,FF,F3,00,00,00,00,00,00,
2218312,000000AA,false,Rx,0,8,64,5A,07,00,B8,0B,94,00,
2218536,000000A8,false,Rx,0,8,03,05,21,E0,21,1F,0F,04,
2218765,000000A9,false,Rx,0,8,EE,05,79,DF,1D,C7,E0,21,
2218997,000000BA,false,Rx,0,7,03,FF,0F,00,00,52,85,00,
2226743,000000B6,false,Rx,0,5,FF,00,80,00,C8,00,00,00,
2226973,000000C4,false,Rx,0,7,42,08,FC,00,00,FF,F1,00,
2227384,000000CE,false,Rx,0,8,00,00,00,00,00,00,00,00,
2227609,0000019E,false,Rx,0,8,00,E8,0F,FC,FE,00,00,93,
2227847,000001A0,false,Rx,0,8,00,80,00,60,01,14,00,97,
2228071,000002B2,false,Rx,0,8,00,00,00,00,50,00,00,04,
2228296,000000AA,false,Rx,0,8,66,5C,07,00,B8,0B,94,00,
2228521,000000A8,false,Rx,0,8,04,06,21,E0,21,1F,0F,04,
2228748,000000A9,false,Rx,0,8,EF,06,79,DF,1D,C7,E0,21,
2228981,000000BA,false,Rx,0,7,03,FF,0F,00,00,53,86,00,
2236824,000000C4,false,Rx,0,7,42,08,FC,00,00,FF,F1,00,
2237809,00000335,false,Rx,0,8,00,DC,10,00,00,99,00,00,
2238404,000000AA,false,Rx,0,8,68,5E,07,00,B8,0B,94,00,
2238629,000000A8,false,Rx,0,8,05,07,21,E0,21,1F,0F,04,
2238866,000000A9,false,Rx,0,8,F0,07,79,DF,1D,C7,E0,21,
2239091,000000BA,false,Rx,0,7,03,FF,0F,00,00,54,87,00,
2246844,000000B6,false,Rx,0,5,00,01,80,00,C8,00,00,00,
2247069,000000C4,false,Rx,0,7,42,08,FC,00,00,FF,F1,00,
2247294,000000CE,false,Rx,0,8,00,00,00,00,00,00,00,00,
2247519,0000019E,false,Rx,0,8,00,E8,0F,FC,FE,00,00,93,
2247747,000001A0,false,Rx,0,8,00,80,00,60,01,14,10,A7,
2247979,000002B2,false,Rx,0,8,00,00,00,00,50,00,00,04,
2248390,000000AA,false,Rx,0,8,5A,50,07,00,B8,0B,94,00,
2248615,000000A8,false,Rx,0,8,06,08,21,E0,21,1F,0F,04,
2248852,000000A9,false,Rx,0,8,F1,08,79,DF,1D,C7,E0,21,
2249077,000000BA,false,Rx,0,7,03,FF,0F,00,00,55,88,00,
2252899,000001D0,false,Rx,0,8,3C,76,61,C3,9C,9E,CD,82,
2256747,000000C4,false,Rx,0,7,42,08,FC,00,00,FF,F1,00,
2258292,000000AA,false,Rx,0,8,5C,52,07,00,B8,0B,94,00,
2258517,000000A8,false,Rx,0,8,07,09,21,E0,21,1F,0F,04,
2258745,000000A9,false,Rx,0,8,F2,09,79,DF,1D,C7,E0,21,
2258977,000000BA,false,Rx,0,7,03,FF,0F,00,00,56,89,00,
2266741,000000B6,false,Rx,0,5,02,02,80,00,C8,00,00,00,
2266972,000000C4,false,Rx,0,7,42,08,FC,00,00,FF,F1,00,
2267197,000000CE,false,Rx,0,8,00,00,00,00,00,00,00,00,
2267422,0000019E,false,Rx,0,8,00,E8,0F,FC,FE,00,00,93,
2267650,000001A0,false,Rx,0,8,00,80,00,40,01,14,20,97,
2267882,000002B2,false,Rx,0,8,00,00,00,00,50,00,00,04,
2268107,000001A6,false,Rx,0,8,00,00,00,00,00,00,E0,FE,
2268332,000000A8,false,Rx,0,8,08,0A,21,E0,21,1F,0F,04,
2268557,000000A9,false,Rx,0,8,F3,0A,79,DF,1D,C7,E0,21,
2268975,000000AA,false,Rx,0,8,5E,54,07,00,B8,0B,94,00,
2269014,000000BA,false,Rx,0,7,03,FF,0F,00,00,57,8A,00,
2276865,000000C4,false,Rx,0,7,42,08,FC,00,00,FF,F1,00,
2278224,000000AA,false,Rx,0,8,60,56,07,00,B8,0B,94,00,
2278635,000000A8,false,Rx,0,8,09,0B,21,E0,21,1F,0F,04,
2278873,000000A9,false,Rx,0,8,F4,0B,79,DF,1D,C7,E0,21,
2279098,000000BA,false,Rx,0,7,03,FF,0F,00,00,58,8B,00,
2282524,000001B4,false,Rx,0,8,00,D0,E2,F6,44,32,FE,D5,
2286698,000000B6,false,Rx,0,5,03,03,80,00,C8,00,00,00,
2286930,000000C4,false,Rx,0,7,42,08,FC,00,00,FF,F1,00,
2287155,000000CE,false,Rx,0,8,00,00,00,00,00,00,00,00,
2287380,0000019E,false,Rx,0,8,00,E8,0F,FC,FE,00,00,93,
2287605,000001A0,false,Rx,0,8,00,80,00,40,01,14,30,A7,
2288029,000002B2,false,Rx,0,8,00,00,00,00,50,00,00,04,
2288253,000000AA,false,Rx,0,8,62,58,07,00,B8,0B,94,00,
2288477,000000A8,false,Rx,0,8,0A,0C,21,E0,21,1F,0F,04,
2288704,000000A9,false,Rx,0,8,F5,0C,79,DF,1D,C7,E0,21,
2288937,000000BA,false,Rx,0,7,03,FF,0F,00,00,59,8C,00,
2296731,000000C4,false,Rx,0,7,42,08,FC,00,00,FF,F1,00,
2298276,000000AA,false,Rx,0,8,64,5A,07,00,B8,0B,94,00,
2298501,000000A8,false,Rx,0,8,0B,0D,21,E0,21,1F,0F,04,
2298729,000000A9,false,Rx,0,8,F6,0D,79,DF,1D,C7,E0,21,
2298960,000000BA,false,Rx,0,7,03,FF,0F,00,00,5A,8D,00,
2299371,000004B0,false,Rx,0,8,00,42,FE,01,FF,FF,FF,FF,
2306370,00000130,false,Rx,0,5,45,43,21,8F,FE,00,00,00,
2306794,000000B6,false,Rx,0,5,04,04,80,00,C8,00,00,00,
2307019,000000C4,false,Rx,0,7,42,08,FC,00,00,FF,F1,00,
2307244,000000CE,false,Rx,0,8,00,00,00,00,00,00,00,00,
2307469,0000019E,false,Rx,0,8,00,E8,0F,FC,FE,00,00,93,
2307697,000001A0,false,Rx,0,8,00,80,00,60,01,14,40,D7,
2307930,000002B2,false,Rx,0,8,00,00,00,00,50,00,00,04,
2308341,000000AA,false,Rx,0,8,66,5C,07,00,B8,0B,94,00,
2308566,000000A8,false,Rx,0,8,0C,0E,21,E0,21,1F,0F,04,
2308807,000000A9,false,Rx,0,8,F7,0E,79,DF,1D,C7,E0,21,
2309032,000000BA,false,Rx,0,7,03,FF,0F,00,00,5B,8E,00,
2309256,000001D2,false,Rx,0,5,E1,0C,8F,00,F0,00,00,00,
2316837,000000C4,false,Rx,0,7,42,08,FC,00,00,FF,F1,00,
2317065,000001D6,false,Rx,0,2,FF,F3,00,00,00,00,00,00,
2318231,000000AA,false,Rx,0,8,5A,50,07,00,B8,0B,94,00,
2318642,000000A8,false,Rx,0,8,FD,00,21,E0,21,1F,0F,04,
2318878,000000A9,false,Rx,0,8,E9,00,79,DF,1D,C7,E0,21,
2319103,000000BA,false,Rx,0,7,03,FF,0F,00,00,4D,80,00,
2326872,000000B6,false,Rx,0,5,05,05,80,00,C8,00,00,00,
2327097,000000C4,false,Rx,0,7,42,08,FC,00,00,FF,F1,00,
2327322,000000CE,false,Rx,0,8,00,00,00,00,00,00,00,00,
2327547,0000019E,false,Rx,0,8,00,E8,0F,FC,FE,00,00,93,
2327786,000001A0,false,Rx,0,8,00,80,00,40,01,11,50,C4,
2328012,000002B2,false,Rx,0,8,00,00,00,00,40,00,00,04,
2328237,000000AA,false,Rx,0,8,5C,52,07,00,B8,0B,94,00,
2328461,000000A8,false,Rx,0,8,FE,01,21,E0,21,1F,0F,04,
2328923,000000A9,false,Rx,0,8,EA,01,79,DF,1D,C7,E0,21,
2328929,000000BA,false,Rx,0,7,03,FF,0F,00,00,4E,81,00,
2336867,000000C4,false,Rx,0,7,42,08,FC,00,00,FF,F1,00,
2338223,000000AA,false,Rx,0,8,5E,54,07,00,B8,0B,94,00,
2338634,000000A8,false,Rx,0,8,FF,02,21,E0,21,1F,0F,04,
2338873,000000A9,false,Rx,0,8,EB,02,79,DF,1D,C7,E0,21,
2339097,000000BA,false,Rx,0,7,03,FF,0F,00,00,4F,82,00,
2346859,000000B6,false,Rx,0,5,06,06,80,00,C8,00,00,00,
2347083,000000C4,false,Rx,0,7,42,08,FC,00,00,FF,F1,00,
2347308,000000CE,false,Rx,0,8,00,00,00,00,00,00,00,00,
2347533,0000019E,false,Rx,0,8,00,E8,1F,FC,FE,00,00,A3,
2347765,000001A0,false,Rx,0,8,00,80,00,60,01,14,60,F7,
2347997,000002B2,false,Rx,0,8,00,00,00,00,50,00,00,04,
2348222,000000C8,false,Rx,0,6,38,08,7C,00,00,1C,00,00,
2348447,000000A8,false,Rx,0,8,00,03,21,E0,21,1F,0F,04,
2348676,000000A9,false,Rx,0,8,EC,03,79,DF,1D,C7,E0,21,
2348960,000000AA,false,Rx,0,8,60,56,07,00,B8,0B,94,00,
2349185,000000BA,false,Rx,0,7,03,FF,0F,00,00,50,83,00,
2352984,000001D0,false,Rx,0,8,3C,76,62,C3,9C,9E,CD,82,
2356879,000000C4,false,Rx,0,7,42,08,FC,00,00,FF,F1,00,
2358231,000000AA,false,Rx,0,8,62,58,07,00,B8,0B,94,00,
2358642,000000A8,false,Rx,0,8,02,04,21,E0,21,1F,0F,04,
2358878,000000A9,false,Rx,0,8,ED,04,79,DF,1D,C7,E0,21,
2359103,000000BA,false,Rx,0,7,03,FF,0F,00,00,51,84,00,
2366676,000000B6,false,Rx,0,5,07,07,80,00,C8,00,00,00,
2366908,000000C4,false,Rx,0,7,42,08,FC,00,00,FF,F1,00,
2367318,000000CE,false,Rx,0,8,00,00,00,00,00,00,00,00,
2367544,0000019E,false,Rx,0,8,00,E8,1F,FC,FE,00,00,A3,
2367776,000001A0,false,Rx,0,8,00,80,00,40,01,14,70,E7,
2368008,000002B2,false,Rx,0,8,00,00,00,00,50,00,00,04,
2368233,000001A6,false,Rx,0,8,00,00,00,00,00,00,70,F0,
2368457,000000A8,false,Rx,0,8,03,05,21,E0,21,1F,0F,04,
2368690,000000A9,false,Rx,0,8,EE,05,79,DF,1D,C7,E0,21,
2368917,000000AA,false,Rx,0,8,64,5A,07,00,B8,0B,94,00,
2369142,000000BA,false,Rx,0,7,03,FF,0F,00,00,52,85,00,
2376777,000000C4,false,Rx,0,7,42,08,FC,00,00,FF,F1,00,
2378320,000000AA,false,Rx,0,8,66,5C,07,00,B8,0B,94,00,
2378545,000000A8,false,Rx,0,8,04,06,21,E0,21,1F,0F,04,
2378786,000000A9,false,Rx,0,8,EF,06,79,DF,1D,C7,E0,21,
2379012,000000BA,false,Rx,0,7,03,FF,0F,00,00,53,86,00,
2382816,000001B4,false,Rx,0,8,00,D0,E2,F7,44,32,FE,D6,
2384730,00000480,false,Rx,0,8,17,42,FD,FF,FF,FF,FF,FF,
2386843,000000B6,false,Rx,0,5,08,08,80,00,C8,00,00,00,
2387067,000000C4,false,Rx,0,7,42,08,FC,00,00,FF,F1,00,
2387292,000000CE,false,Rx,0,8,00,00,00,00,00,00,00,00,
2387516,0000019E,false,Rx,0,8,00,E8,1F,FC,FE,00,00,A3,
2387748,000001A0,false,Rx,0,8,00,80,00,60,01,14,80,18,
2387980,000002B2,false,Rx,0,8,00,00,00,00,50,00,00,04,
2388391,000000AA,false,Rx,0,8,68,5E,07,00,B8,0B,94,00,
2388616,000000A8,false,Rx,0,8,05,07,21,E0,21,1F,0F,04,
2388855,000000A9,false,Rx,0,8,F0,07,79,DF,1D,C7,E0,21,
2389080,000000BA,false,Rx,0,7,03,FF,0F,00,00,54,87,00,
2396873,000000C4,false,Rx,0,7,42,08,FC,00,00,FF,F1,00,
2398230,000000AA,false,Rx,0,8,5A,50,07,00,B8,0B,94,00,
2398642,000000A8,false,Rx,0,8,06,08,21,E0,21,1F,0F,04,
2398913,000000A9,false,Rx,0,8,F1,08,79,DF,1D,C7,E0,21,
2398918,000000BA,false,Rx,0,7,03,FF,0F,00,00,55,88,00,
2400270,000001FB,false,Rx,0,2,FD,FF,00,00,00,00,00,00,
2406133,00000130,false,Rx,0,5,45,43,21,8F,00,00,00,00,
2406731,000000B6,false,Rx,0,5,09,09,80,00,C8,00,00,00,
2406963,000000C4,false,Rx,0,7,42,08,FC,00,00,FF,F1,00,
2407188,000000CE,false,Rx,0,8,00,00,00,00,00,00,00,00,
2407599,0000019E,false,Rx,0,8,00,E8,1F,FC,FE,00,00,A3,
2407833,000001A0,false,Rx,0,8,00,80,00,40,01,14,90,08,
2408058,000002B2,false,Rx,0,8,00,00,00,00,50,00,00,04,
2408283,000000AA,false,Rx,0,8,5C,52,07,00,B8,0B,94,00,
2408508,000000A8,false,Rx,0,8,07,09,21,E0,21,1F,0F,04,
2408741,000000A9,false,Rx,0,8,F2,09,79,DF,1D,C7,E0,21,
2408973,000000BA,false,Rx,0,7,03,FF,0F,00,00,56,89,00,
2416989,000000C4,false,Rx,0,7,42,08,FC,00,00,FF,F1,00,
2416996,00000194,false,Rx,0,4,E5,F4,00,F0,00,00,00,00,
2417222,000001D6,false,Rx,0,2,FF,F3,00,00,00,00,00,00,
2418388,000000AA,false,Rx,0,8,5E,54,07,00,B8,0B,94,00,
2418613,000000A8,false,Rx,0,8,08,0A,21,E0,21,1F,0F,04,
2418849,000000A9,false,Rx,0,8,F3,0A,79,DF,1D,C7,E0,21,
2419074,000000BA,false,Rx,0,7,03,FF,0F,00,00,57,8A,00,
2426821,000000B6,false,Rx,0,5,0A,0A,80,00,C8,00,00,00,
2427046,000000C4,false,Rx,0,7,42,08,FC,00,00,FF,F1,00,
2427271,000000CE,false,Rx,0,8,00,00,00,00,00,00,00,00,
2427495,0000019E,false,Rx,0,8,00,E8,1F,FC,FE,00,00,A3,
2427921,000001A0,false,Rx,0,8,00,80,00,40,01,14,A0,18,
2428146,000002B2,false,Rx,0,8,00,00,00,00,50,00,00,04,
2428371,000000AA,false,Rx,0,8,60,56,07,00,B8,0B,94,00,
2428596,000000A8,false,Rx,0,8,09,0B,21,E0,21,1F,0F,04,
2428829,000000A9,false,Rx,0,8,F4,0B,79,DF,1D,C7,E0,21,
2429054,000000BA,false,Rx,0,7,03,FF,0F,00,00,58,8B,00,
2436882,000000C4,false,Rx,0,7,42,08,FC,00,00,FF,F1,00,
2438255,000000AA,false,Rx,0,8,62,58,07,00,B8,0B,94,00,
2438478,000000A8,false,Rx,0,8,0A,0C,21,E0,21,1F,0F,04,
2438711,000000A9,false,Rx,0,8,F5,0C,79,DF,1D,C7,E0,21,
2438944,000000BA,false,Rx,0,7,03,FF,0F,00,00,59,8C,00,
2446882,000000B6,false,Rx,0,5,0B,0B,80,00,C8,00,00,00,
2447106,000000C4,false,Rx,0,7,42,08,FC,00,00,FF,F1,00,
2447331,000000CE,false,Rx,0,8,00,00,00,00,00,00,00,00,
2447556,0000019E,false,Rx,0,8,00,E8,1F,FC,FE,00,00,A3,
2447795,000001A0,false,Rx,0,8,00,80,00,40,01,14,B0,28,
2448021,000002B2,false,Rx,0,8,00,00,00,00,50,00,00,04,
2448246,000000AA,false,Rx,0,8,64,5A,07,00,B8,0B,94,00,
2448471,000000A8,false,Rx,0,8,0B,0D,21,E0,21,1F,0F,04,
2448699,000000A9,false,Rx,0,8,F6,0D,79,DF,1D,C7,E0,21,
2448931,000000BA,false,Rx,0,7,03,FF,0F,00,00,5A,8D,00,
2453270,000001D0,false,Rx,0,8,3C,76,62,C3,9C,9E,CD,82,
2456806,000000C4,false,Rx,0,7,42,08,FC,00,00,FF,F1,00,
2458346,000000AA,false,Rx,0,8,66,5C,07,00,B8,0B,94,00,
2458571,000000A8,false,Rx,0,8,0C,0E,21,E0,21,1F,0F,04,
2458809,000000A9,false,Rx,0,8,F7,0E,79,DF,1D,C7,E0,21,
2459033,000000BA,false,Rx,0,7,03,FF,0F,00,00,5B,8E,00,
2466789,000000B6,false,Rx,0,5,0C,0C,80,00,C8,00,00,00,
2467014,000000C4,false,Rx,0,7,42,08,FC,00,00,FF,F1,00,
2467239,000000CE,false,Rx,0,8,00,00,00,00,00,00,00,00,
2467463,0000019E,false,Rx,0,8,00,E8,1F,FC,FE,00,00,A3,
2467693,000001A0,false,Rx,0,8,00,80,00,60,01,14,C0,58,
2467925,000002B2,false,Rx,0,8,00,00,00,00,50,00,00,04,
2468150,000001A6,false,Rx,0,8,00,00,00,00,00,00,00,F2,
2468560,000000A8,false,Rx,0,8,FD,00,21,E0,21,1F,0F,04,
2468797,000000A9,false,Rx,0,8,E9,00,79,DF,1D,C7,E0,21,
2469022,000000AA,false,Rx,0,8,5A,50,07,00,B8,0B,94,00,
2469247,000000BA,false,Rx,0,7,03,FF,0F,00,00,4D,80,00,
2473358,00000497,false,Rx,0,8,29,42,FF,FF,FF,FF,FF,FF,
2476907,000000C4,false,Rx,0,7,42,08,FC,00,00,FF,F1,00,
2478262,000000AA,false,Rx,0,8,5C,52,07,00,B8,0B,94,00,
2478487,000000A8,false,Rx,0,8,FE,01,21,E0,21,1F,0F,04,
2478715,000000A9,false,Rx,0,8,EA,01,79,DF,1D,C7,E0,21,
2478947,000000BA,false,Rx,0,7,03,FF,0F,00,00,4E,81,00,
2482549,000001B4,false,Rx,0,8,00,D0,E2,F8,44,32,FE,D7,
2486734,000000B6,false,Rx,0,5,0D,0D,80,00,C8,00,00,00,
2486965,000000C4,false,Rx,0,7,42,08,FC,00,00,FF,F1,00,
2487191,000000CE,false,Rx,0,8,00,00,00,00,00,00,00,00,
2487416,0000019E,false,Rx,0,8,00,E8,1F,FC,FE,00,00,A3,
2487642,000001A0,false,Rx,0,8,00,80,00,60,01,14,D0,68,
2487879,000002B2,false,Rx,0,8,00,00,00,00,50,00,00,04,
2488290,000000AA,false,Rx,0,8,5E,54,07,00,B8,0B,94,00,
2488516,000000A8,false,Rx,0,8,FF,02,21,E0,21,1F,0F,04,
2488744,000000A9,false,Rx,0,8,EB,02,79,DF,1D,C7,E0,21,
2488976,000000BA,false,Rx,0,7,03,FF,0F,00,00,4F,82,00,
2496728,000000C4,false,Rx,0,7,42,08,FC,00,00,FF,F1,00,
2498276,000000AA,false,Rx,0,8,60,56,07,00,B8,0B,94,00,
2498501,000000A8,false,Rx,0,8,00,03,21,E0,21,1F,0F,04,
2498730,000000A9,false,Rx,0,8,EC,03,79,DF,1D,C7,E0,21,
2498962,000000BA,false,Rx,0,7,03,FF,0F,00,00,50,83,00,
2506370,00000130,false,Rx,0,5,45,43,21,8F,11,00,00,00,
2506796,000000B6,false,Rx,0,5,0E,0E,80,00,C8,00,00,00,
2507021,000000C4,false,Rx,0,7,42,08,FC,00,00,FF,F1,00,
2507246,000000CE,false,Rx,0,8,00,00,00,00,00,00,00,00,
2507492,0000019E,false,Rx,0,8,00,E8,1F,FC,FE,00,00,A3,
2507726,000001A0,false,Rx,0,8,00,80,00,40,01,14,E0,58,
2507980,000002B2,false,Rx,0,8,00,00,00,00,50,00,00,04,
2508480,000000AA,false,Rx,0,8,62,58,07,00,B8,0B,94,00,
2508486,000000A8,false,Rx,0,8,02,04,21,E0,21,1F,0F,04,
2508716,000000A9,false,Rx,0,8,ED,04,79,DF,1D,C7,E0,21,
2508948,000000BA,false,Rx,0,7,03,FF,0F,00,00,51,84,00,
2509173,000001D2,false,Rx,0,5,E1,0C,8F,10,F0,00,00,00,
2516789,000000C4,false,Rx,0,7,42,08,FC,00,00,FF,F1,00,
2517018,000001D6,false,Rx,0,2,FF,F3,00,00,00,00,00,00,
2518371,000000AA,false,Rx,0,8,64,5A,07,00,B8,0B,94,00,
2518596,000000A8,false,Rx,0,8,03,05,21,E0,21,1F,0F,04,
2518831,000000A9,false,Rx,0,8,EE,05,79,DF,1D,C7,E0,21,
2519055,000000BA,false,Rx,0,7,03,FF,0F,00,00,52,85,00,
2526815,000000B6,false,Rx,0,5,FF,00,80,00,C8,00,00,00,
2527040,000000C4,false,Rx,0,7,42,08,FC,00,00,FF,F1,00,
2527265,000000CE,false,Rx,0,8,00,00,00,00,00,00,00,00,
2527678,0000019E,false,Rx,0,8,00,E8,1F,FC,FE,00,00,A3,
2527909,000001A0,false,Rx,0,8,00,80,00,60,01,14,00,97,
2528135,000002B2,false,Rx,0,8,00,00,00,00,50,00,00,04,
2528359,000000AA,false,Rx,0,8,66,5C,07,00,B8,0B,94,00,
2528584,000000A8,false,Rx,0,8,04,06,21,E0,21,1F,0F,04,
2528821,000000A9,false,Rx,0,8,EF,06,79,DF,1D,C7,E0,21,
2529046,000000BA,false,Rx,0,7,03,FF,0F,00,00,53,86,00,
2536831,000000C4,false,Rx,0,7,42,08,FC,00,00,FF,F1,00,
2538371,000000AA,false,Rx,0,8,68,5E,07,00,B8,0B,94,00,
2538595,000000A8,false,Rx,0,8,05,07,21,E0,21,1F,0F,04,
2538831,000000A9,false,Rx,0,8,F0,07,79,DF,1D,C7,E0,21,
2539055,000000BA,false,Rx,0,7,03,FF,0F,00,00,54,87,00,
2546847,000000B6,false,Rx,0,5,00,01,80,00,C8,00,00,00,
2547072,000000C4,false,Rx,0,7,42,08,FC,00,00,FF,F1,00,
2547297,000000CE,false,Rx,0,8,00,00,00,00,00,00,00,00,
2547522,0000019E,false,Rx,0,8,00,E8,1F,FC,FE,00,00,A3,
2547750,000001A0,false,Rx,0,8,00,80,00,60,01,14,10,A7,
2547982,000002B2,false,Rx,0,8,00,00,00,00,50,00,00,04,
2548207,000000C8,false,Rx,0,6,38,08,CC,00,00,2C,00,00,
2548432,000000A8,false,Rx,0,8,06,08,21,E0,21,1F,0F,04,
2548664,000000A9,false,Rx,0,8,F1,08,79,DF,1D,C7,E0,21,
2548897,000000AA,false,Rx,0,8,5A,50,07,00,B8,0B,94,00,
2549122,000000BA,false,Rx,0,7,03,FF,0F,00,00,55,88,00,
2553606,000001D0,false,Rx,0,8,3C,76,63,C3,9C,9E,CD,82,
2556937,000000C4,false,Rx,0,7,42,08,FC,00,00,FF,F1,00,
2558291,000000AA,false,Rx,0,8,5C,52,07,00,B8,0B,94,00,
2558517,000000A8,false,Rx,0,8,07,09,21,E0,21,1F,0F,04,
2558745,000000A9,false,Rx,0,8,F2,09,79,DF,1D,C7,E0,21,
2558976,000000BA,false,Rx,0,7,03,FF,0F,00,00,56,89,00,
2566724,000000B6,false,Rx,0,5,02,02,80,00,C8,00,00,00,
2566956,000000C4,false,Rx,0,7,42,08,FC,00,00,FF,F1,00,
2567181,000000CE,false,Rx,0,8,00,00,00,00,00,00,00,00,
2567407,0000019E,false,Rx,0,8,00,E8,2F,FC,FE,00,00,B3,
2567632,000001A0,false,Rx,0,8,00,80,00,60,01,14,20,B7,
2567873,000002B2,false,Rx,0,8,00,00,00,00,50,00,00,04,
2568284,000001A6,false,Rx,0,8,00,00,00,00,00,00,90,F3,
2568509,000000A8,false,Rx,0,8,08,0A,21,E0,21,1F,0F,04,
2568743,000000A9,false,Rx,0,8,F3,0A,79,DF,1D,C7,E0,21,
2568969,000000AA,false,Rx,0,8,5E,54,07,00,B8,0B,94,00,
2569194,000000BA,false,Rx,0,7,03,FF,0F,00,00,57,8A,00,
2569418,000004A9,false,Rx,0,8,30,42,FF,FF,FF,FF,FF,FF,
2576855,000000C4,false,Rx,0,7,42,08,FC,00,00,FF,F1,00,
2578398,000000AA,false,Rx,0,8,60,56,07,00,B8,0B,94,00,
2578623,000000A8,false,Rx,0,8,09,0B,21,E0,21,1F,0F,04,
2578877,000000A9,false,Rx,0,8,F4,0B,79,DF,1D,C7,E0,21,
2579341,000000BA,false,Rx,0,7,03,FF,0F,00,00,58,8B,00,
2582961,000001B4,false,Rx,0,8,00,D0,E2,F9,44,32,FE,D8,
2583557,00000202,false,Rx,0,2,FE,FF,00,00,00,00,00,00,
2586810,000000B6,false,Rx,0,5,03,03,80,00,C8,00,00,00,
2587035,000000C4,false,Rx,0,7,42,08,FC,00,00,FF,F1,00,
2587259,000000CE,false,Rx,0,8,00,00,00,00,00,00,00,00,
2587484,0000019E,false,Rx,0,8,00,E8,2F,FC,FE,00,00,B3,
2587712,000001A0,false,Rx,0,8,00,80,00,60,01,14,30,C7,
2587944,000002B2,false,Rx,0,8,00,00,00,00,50,00,00,04,
2588355,000000AA,false,Rx,0,8,62,58,07,00,B8,0B,94,00,
2588579,000000A8,false,Rx,0,8,0A,0C,21,E0,21,1F,0F,04,
2588817,000000A9,false,Rx,0,8,F5,0C,79,DF,1D,C7,E0,21,
2589042,000000BA,false,Rx,0,7,03,FF,0F,00,00,59,8C,00,
2589267,000001FB,false,Rx,0,2,FE,FF,00,00,00,00,00,00,
2596729,000000C4,false,Rx,0,7,42,08,FC,00,00,FF,F1,00,
2598276,000000AA,false,Rx,0,8,64,5A,07,00,B8,0B,94,00,
2598499,000000A8,false,Rx,0,8,0B,0D,21,E0,21,1F,0F,04,
2598731,000000A9,false,Rx,0,8,F6,0D,79,DF,1D,C7,E0,21,
2598963,000000BA,false,Rx,0,7,03,FF,0F,00,00,5A,8D,00,
2606142,00000130,false,Rx,0,5,45,43,21,8F,22,00,00,00,
2606740,000000B6,false,Rx,0,5,04,04,80,00,C8,00,00,00,
2606971,000000C4,false,Rx,0,7,42,08,FC,00,00,FF,F1,00,
2607382,000000CE,false,Rx,0,8,00,00,00,00,00,00,00,00,
2607607,0000019E,false,Rx,0,8,00,E8,2F,FC,FE,00,00,B3,
2607847,000001A0,false,Rx,0,8,00,80,00,40,01,11,40,B4,
2608072,000002B2,false,Rx,0,8,00,00,00,00,40,00,00,04,
2608298,000000AA,false,Rx,0,8,66,5C,07,00,B8,0B,94,00,
2608523,000000A8,false,Rx,0,8,0C,0E,21,E0,21,1F,0F,04,
2608751,000000A9,false,Rx,0,8,F7,0E,79,DF,1D,C7,E0,21,
2608983,000000BA,false,Rx,0,7,03,FF,0F,00,00,5B,8E,00,
2617006,000000C4,false,Rx,0,7,42,08,FC,00,00,FF,F1,00,
2617013,00000194,false,Rx,0,4,E6,F5,00,F0,00,00,00,00,
2617239,000001D6,false,Rx,0,2,FF,F3,00,00,00,00,00,00,
2617463,000002A6,false,Rx,0,2,00,FC,00,00,00,00,00,00,
2618254,000000AA,false,Rx,0,8,5A,50,07,00,B8,0B,94,00,
2618479,000000A8,false,Rx,0,8,FD,00,21,E0,21,1F,0F,04,
2618710,000000A9,false,Rx,0,8,E9,00,79,DF,1D,C7,E0,21,
2618942,000000BA,false,Rx,0,7,03,FF,0F,00,00,4D,80,00,
2626873,000000B6,false,Rx,0,5,05,05,80,00,C8,00,00,00,
2627098,000000C4,false,Rx,0,7,42,08,FC,00,00,FF,F1,00,
2627323,000000CE,false,Rx,0,8,00,00,00,00,00,00,00,00,
2627549,0000019E,false,Rx,0,8,00,E8,2F,FC,FE,00,00,B3,
2627787,000001A0,false,Rx,0,8,00,80,00,40,01,14,50,C7,
2628011,000002B2,false,Rx,0,8,00,00,00,00,50,00,00,04,
2628421,000000A8,false,Rx,0,8,FE,01,21,E0,21,1F,0F,04,
2628647,000000A9,false,Rx,0,8,EA,01,79,DF,1D,C7,E0,21,
2628882,000000AA,false,Rx,0,8,5C,52,07,00,B8,0B,94,00,
2629106,000000BA,false,Rx,0,7,03,FF,0F,00,00,4E,81,00,
2636911,000000C4,false,Rx,0,7,42,08,FC,00,00,FF,F1,00,
2638266,000000AA,false,Rx,0,8,5E,54,07,00,B8,0B,94,00,
2638492,000000A8,false,Rx,0,8,FF,02,21,E0,21,1F,0F,04,
2638724,000000A9,false,Rx,0,8,EB,02,79,DF,1D,C7,E0,21,
2638956,000000BA,false,Rx,0,7,03,FF,0F,00,00,4F,82,00,
2646813,000000B6,false,Rx,0,5,06,06,80,00,C8,00,00,00,
2647064,000000C4,false,Rx,0,7,42,08,FC,00,00,FF,F1,00,
2647299,000000CE,false,Rx,0,8,00,00,00,00,00,00,00,00,
2647524,0000019E,false,Rx,0,8,00,E8,2F,FC,FE,00,00,B3,
2647752,000001A0,false,Rx,0,8,00,80,00,40,01,14,60,D7,
2647983,000002B2,false,Rx,0,8,00,00,00,00,50,00,00,04,
2648394,000000AA,false,Rx,0,8,60,56,07,00,B8,0B,94,00,
2648619,000000A8,false,Rx,0,8,00,03,21,E0,21,1F,0F,04,
2648859,000000A9,false,Rx,0,8,EC,03,79,DF,1D,C7,E0,21,
2649084,000000BA,false,Rx,0,7,03,FF,0F,00,00,50,83,00,
2654137,000001D0,false,Rx,0,8,3C,76,63,C3,9C,9E,CD,82,
2656911,000000C4,false,Rx,0,7,42,08,FC,00,00,FF,F1,00,
2658266,000000AA,false,Rx,0,8,62,58,07,00,B8,0B,94,00,
2658491,000000A8,false,Rx,0,8,02,04,21,E0,21,1F,0F,04,
2658722,000000A9,false,Rx,0,8,ED,04,79,DF,1D,C7,E0,21,
2658954,000000BA,false,Rx,0,7,03,FF,0F,00,00,51,84,00,
2666689,000000B6,false,Rx,0,5,07,07,80,00,C8,00,00,00,
2666921,000000C4,false,Rx,0,7,42,08,FC,00,00,FF,F1,00,
2667145,000000CE,false,Rx,0,8,00,00,00,00,00,00,00,00,
2667556,0000019E,false,Rx,0,8,00,E8,2F,FC,FE,00,00,B3,
2667794,000001A0,false,Rx,0,8,00,80,00,60,01,14,70,08,
2668019,000002B2,false,Rx,0,8,00,00,00,00,50,00,00,04,
2668245,000001A6,false,Rx,0,8,00,00,00,00,00,00,20,F5,
2668470,000000A8,false,Rx,0,8,03,05,21,E0,21,1F,0F,04,
2668697,000000A9,false,Rx,0,8,EE,05,79,DF,1D,C7,E0,21,
2668924,000000AA,false,Rx,0,8,64,5A,07,00,B8,0B,94,00,
2669148,000000BA,false,Rx,0,7,03,FF,0F,00,00,52,85,00,
2669373,00000374,false,Rx,0,5,00,00,00,00,FC,00,00,00,
2669598,000004B0,false,Rx,0,8,00,42,FE,01,FF,FF,FF,FF,
2676826,000000C4,false,Rx,0,7,42,08,FC,00,00,FF,F1,00,
2678365,000000AA,false,Rx,0,8,66,5C,07,00,B8,0B,94,00,
2678590,000000A8,false,Rx,0,8,04,06,21,E0,21,1F,0F,04,
2678828,000000A9,false,Rx,0,8,EF,06,79,DF,1D,C7,E0,21,
2679051,000000BA,false,Rx,0,7,03,FF,0F,00,00,53,86,00,
2682668,000001B4,false,Rx,0,8,00,D0,E2,FA,44,32,FE,D9,
2686859,000000B6,false,Rx,0,5,08,08,80,00,C8,00,00,00,
2687084,000000C4,false,Rx,0,7,42,08,FC,00,00,FF,F1,00,
2687309,000000CE,false,Rx,0,8,00,00,00,00,00,00,00,00,
2687534,0000019E,false,Rx,0,8,00,E8,2F,FC,FE,00,00,B3,
2687763,000001A0,false,Rx,0,8,00,80,00,40,01,14,80,F7,
2687995,000002B2,false,Rx,0,8,00,00,00,00,50,00,00,04,
2688406,000000AA,false,Rx,0,8,68,5E,07,00,B8,0B,94,00,
2688630,000000A8,false,Rx,0,8,05,07,21,E0,21,1F,0F,04,
2688867,000000A9,false,Rx,0,8,F0,07,79,DF,1D,C7,E0,21,
2689092,000000BA,false,Rx,0,7,03,FF,0F,00,00,54,87,00,
2696903,000000C4,false,Rx,0,7,42,08,FC,00,00,FF,F1,00,
2698262,000000AA,false,Rx,0,8,5A,50,07,00,B8,0B,94,00,
2698488,000000A8,false,Rx,0,8,06,08,21,E0,21,1F,0F,04,
2698722,000000A9,false,Rx,0,8,F1,08,79,DF,1D,C7,E0,21,
2698954,000000BA,false,Rx,0,7,03,FF,0F,00,00,55,88,00,
2706314,00000130,false,Rx,0,5,45,43,21,8F,33,00,00,00,
2706731,000000B6,false,Rx,0,5,09,09,80,00,C8,00,00,00,
2706963,000000C4,false,Rx,0,7,42,08,FC,00,00,FF,F1,00,
2707188,000000CE,false,Rx,0,8,00,00,00,00,00,00,00,00,
2707599,0000019E,false,Rx,0,8,00,E8,2F,FC,FE,00,00,B3,
2707837,000001A0,false,Rx,0,8,00,80,00,60,01,14,90,28,
2708062,000002B2,false,Rx,0,8,00,00,00,00,50,00,00,04,
2708288,000000AA,false,Rx,0,8,5C,52,07,00,B8,0B,94,00,
2708513,000000A8,false,Rx,0,8,07,09,21,E0,21,1F,0F,04,
2708740,000000A9,false,Rx,0,8,F2,09,79,DF,1D,C7,E0,21,
2708973,000000BA,false,Rx,0,7,03,FF,0F,00,00,56,89,00,
2709197,000001D2,false,Rx,0,5,E1,0C,8F,20,F0,00,00,00,
2717041,000000C4,false,Rx,0,7,42,08,FC,00,00,FF,F1,00,
2717049,000001D6,false,Rx,0,2,FF,F3,00,00,00,00,00,00,
2718405,000000AA,false,Rx,0,8,5E,54,07,00,B8,0B,94,00,
2718630,000000A8,false,Rx,0,8,08,0A,21,E0,21,1F,0F,04,
2718867,000000A9,false,Rx,0,8,F3,0A,79,DF,1D,C7,E0,21,
2719092,000000BA,false,Rx,0,7,03,FF,0F,00,00,57,8A,00,
2726882,000000B6,false,Rx,0,5,0A,0A,80,00,C8,00,00,00,
2727107,000000C4,false,Rx,0,7,42,08,FC,00,00,FF,F1,00,
2727332,000000CE,false,Rx,0,8,00,00,00,00,00,00,00,00,
2727557,0000019E,false,Rx,0,8,00,E8,2F,FC,FE,00,00,B3,
2727794,000001A0,false,Rx,0,8,00,80,00,40,01,11,A0,15,
2728204,000002B2,false,Rx,0,8,00,00,00,00,40,00,00,04,
2728429,000000A8,false,Rx,0,8,09,0B,21,E0,21,1F,0F,04,
2728656,000000A9,false,Rx,0,8,F4,0B,79,DF,1D,C7,E0,21,
2728887,000000AA,false,Rx,0,8,60,56,07,00,B8,0B,94,00,
2729112,000000BA,false,Rx,0,7,03,FF,0F,00,00,58,8B,00,
2736887,000000C4,false,Rx,0,7,42,08,FC,00,00,FF,F1,00,
2737115,0000031D,false,Rx,0,2,01,FE,00,00,00,00,00,00,
2738279,000000AA,false,Rx,0,8,62,58,07,00,B8,0B,94,00,
2738503,000000A8,false,Rx,0,8,0A,0C,21,E0,21,1F,0F,04,
2738731,000000A9,false,Rx,0,8,F5,0C,79,DF,1D,C7,E0,21,
2738963,000000BA,false,Rx,0,7,03,FF,0F,00,00,59,8C,00,
2746936,000000B6,false,Rx,0,5,0B,0B,80,00,C8,00,00,00,
2747161,000000C4,false,Rx,0,7,42,08,FC,00,00,FF,F1,00,
2747386,000000CE,false,Rx,0,8,00,00,00,00,00,00,00,00,
2747611,0000019E,false,Rx,0,8,00,E8,2F,FC,FE,00,00,B3,
2747848,000001A0,false,Rx,0,8,00,80,00,60,01,11,B0,45,
2748073,000002B2,false,Rx,0,8,00,00,00,00,40,00,00,04,
2748298,000000C8,false,Rx,0,6,38,08,2C,00,00,6C,00,00,
2748522,000000A8,false,Rx,0,8,0B,0D,21,E0,21,1F,0F,04,
2748755,000000A9,false,Rx,0,8,F6,0D,79,DF,1D,C7,E0,21,
2748987,000000AA,false,Rx,0,8,64,5A,07,00,B8,0B,94,00,
2749212,000000BA,false,Rx,0,7,03,FF,0F,00,00,5A,8D,00,
2749622,00000310,false,Rx,0,7,6E,75,DB,2D,01,40,23,00,
2752875,000001D0,false,Rx,0,8,3C,76,64,C3,9C,9E,CD,82,
2756976,000000C4,false,Rx,0,7,42,08,FC,00,00,FF,F1,00,
2758395,000000AA,false,Rx,0,8,66,5C,07,00,B8,0B,94,00,
2758621,000000A8,false,Rx,0,8,0C,0E,21,E0,21,1F,0F,04,
2758860,000000A9,false,Rx,0,8,F7,0E,79,DF,1D,C7,E0,21,
2759085,000000BA,false,Rx,0,7,03,FF,0F,00,00,5B,8E,00,
2764956,00000480,false,Rx,0,8,17,42,FD,FF,FF,FF,FF,FF,
2766876,000000B6,false,Rx,0,5,0C,0C,80,00,C8,00,00,00,
2767101,000000C4,false,Rx,0,7,42,08,FC,00,00,FF,F1,00,
2767325,000000CE,false,Rx,0,8,00,00,00,00,00,00,00,00,
2767550,0000019E,false,Rx,0,8,00,E8,3F,FC,FE,00,00,C3,
2767791,000001A0,false,Rx,0,8,00,80,00,60,01,14,C0,58,
2768016,000002B2,false,Rx,0,8,00,00,00,00,50,00,00,04,
2768241,000001A6,false,Rx,0,8,00,00,00,00,00,00,B0,F6,
2768467,000000A8,false,Rx,0,8,FD,00,21,E0,21,1F,0F,04,
2768702,000000A9,false,Rx,0,8,E9,00,79,DF,1D,C7,E0,21,
2768934,000000AA,false,Rx,0,8,5A,50,07,00,B8,0B,94,00,
2769159,000000BA,false,Rx,0,7,03,FF,0F,00,00,4D,80,00,
2776764,000000C4,false,Rx,0,7,42,08,FC,00,00,FF,F1,00,
2778309,000000AA,false,Rx,0,8,5C,52,07,00,B8,0B,94,00,
2778534,000000A8,false,Rx,0,8,FE,01,21,E0,21,1F,0F,04,
2778764,000000A9,false,Rx,0,8,EA,01,79,DF,1D,C7,E0,21,
2778996,000000BA,false,Rx,0,7,03,FF,0F,00,00,4E,81,00,
2780164,000001FB,false,Rx,0,2,F0,FF,00,00,00,00,00,00,
2782843,000001B4,false,Rx,0,8,00,D0,E2,FB,44,32,FE,DA,
2786828,000000B6,false,Rx,0,5,0D,0D,80,00,C8,00,00,00,
2787053,000000C4,false,Rx,0,7,42,08,FC,00,00,FF,F1,00,
2787278,000000CE,false,Rx,0,8,00,00,00,00,00,00,00,00,
2787503,0000019E,false,Rx,0,8,00,E8,3F,FC,FE,00,00,C3,
2787732,000001A0,false,Rx,0,8,00,80,00,40,01,14,D0,48,
2787965,000002B2,false,Rx,0,8,00,00,00,00,50,00,00,04,
2788375,000000AA,false,Rx,0,8,5E,54,07,00,B8,0B,94,00,
2788601,000000A8,false,Rx,0,8,FF,02,21,E0,21,1F,0F,04,
2788841,000000A9,false,Rx,0,8,EB,02,79,DF,1D,C7,E0,21,
2789066,000000BA,false,Rx,0,7,03,FF,0F,00,00,4F,82,00,
2796855,000000C4,false,Rx,0,7,42,08,FC,00,00,FF,F1,00,
2798397,000000AA,false,Rx,0,8,60,56,07,00,B8,0B,94,00,
2798622,000000A8,false,Rx,0,8,00,03,21,E0,21,1F,0F,04,
2798863,000000A9,false,Rx,0,8,EC,03,79,DF,1D,C7,E0,21,
2799088,000000BA,false,Rx,0,7,03,FF,0F,00,00,50,83,00,
2805893,00000130,false,Rx,0,5,45,43,21,8F,44,00,00,00,
2806873,000000B6,false,Rx,0,5,0E,0E,80,00,C8,00,00,00,
2807097,000000C4,false,Rx,0,7,42,08,FC,00,00,FF,F1,00,
2807322,000000CE,false,Rx,0,8,00,00,00,00,00,00,00,00,
2807547,0000019E,false,Rx,0,8,00,E8,3F,FC,FE,00,00,C3,
2807787,000001A0,false,Rx,0,8,00,80,00,60,01,14,E0,78,
2808012,000002B2,false,Rx,0,8,00,00,00,00,50,00,00,04,
2808236,000000AA,false,Rx,0,8,62,58,07,00,B8,0B,94,00,
2808650,000000A8,false,Rx,0,8,02,04,21,E0,21,1F,0F,04,
2808883,000000A9,false,Rx,0,8,ED,04,79,DF,1D,C7,E0,21,
2809107,000000BA,false,Rx,0,7,03,FF,0F,00,00,51,84,00,
2816965,000000C4,false,Rx,0,7,42,08,FC,00,00,FF,F1,00,
2816973,00000194,false,Rx,0,4,E7,F6,00,F0,00,00,00,00,
2817197,000001D6,false,Rx,0,2,FF,F3,00,00,00,00,00,00,
2818366,000000AA,false,Rx,0,8,64,5A,07,00,B8,0B,94,00,
2818591,000000A8,false,Rx,0,8,03,05,21,E0,21,1F,0F,04,
2818831,000000A9,false,Rx,0,8,EE,05,79,DF,1D,C7,E0,21,
2819056,000000BA,false,Rx,0,7,03,FF,0F,00,00,52,85,00,
2826822,000000B6,false,Rx,0,5,FF,00,80,00,C8,00,00,00,
2827047,000000C4,false,Rx,0,7,42,08,FC,00,00,FF,F1,00,
2827272,000000CE,false,Rx,0,8,00,00,00,00,00,00,00,00,
2827497,0000019E,false,Rx,0,8,00,E8,3F,FC,FE,00,00,C3,
2827731,000001A0,false,Rx,0,8,00,80,00,60,01,11,00,94,
2828149,000002B2,false,Rx,0,8,00,00,00,00,40,00,00,04,
2828375,000000AA,false,Rx,0,8,66,5C,07,00,B8,0B,94,00,
2828599,000000A8,false,Rx,0,8,04,06,21,E0,21,1F,0F,04,
2828837,000000A9,false,Rx,0,8,EF,06,79,DF,1D,C7,E0,21,
2829067,000000BA,false,Rx,0,7,03,FF,0F,00,00,53,86,00,
2836820,000000C4,false,Rx,0,7,42,08,FC,00,00,FF,F1,00,
2838361,000000AA,false,Rx,0,8,68,5E,07,00,B8,0B,94,00,
2838587,000000A8,false,Rx,0,8,05,07,21,E0,21,1F,0F,04,
2838824,000000A9,false,Rx,0,8,F0,07,79,DF,1D,C7,E0,21,
2839049,000000BA,false,Rx,0,7,03,FF,0F,00,00,54,87,00,
2846815,000000B6,false,Rx,0,5,00,01,80,00,C8,00,00,00,
2847052,000000C4,false,Rx,0,7,42,08,FC,00,00,FF,F1,00,
2847290,000000CE,false,Rx,0,8,00,00,00,00,00,00,00,00,
2847515,0000019E,false,Rx,0,8,00,E8,3F,FC,FE,00,00,C3,
2847743,000001A0,false,Rx,0,8,00,80,00,60,01,14,10,A7,
2848161,000002B2,false,Rx,0,8,00,00,00,00,50,00,00,04,
2848386,000000AA,false,Rx,0,8,5A,50,07,00,B8,0B,94,00,
2848611,000000A8,false,Rx,0,8,06,08,21,E0,21,1F,0F,04,
2848853,000000A9,false,Rx,0,8,F1,08,79,DF,1D,C7,E0,21,
2849078,000000BA,false,Rx,0,7,03,FF,0F,00,00,55,88,00,
2852684,00000497,false,Rx,0,8,29,42,FF,FF,FF,FF,FF,FF,
2852916,000001D0,false,Rx,0,8,3C,76,64,C3,9C,9E,CD,82,
2856942,000000C4,false,Rx,0,7,42,08,FC,00,00,FF,F1,00,
2858314,000000AA,false,Rx,0,8,5C,52,07,00,B8,0B,94,00,
2858540,000000A8,false,Rx,0,8,07,09,21,E0,21,1F,0F,04,
2858774,000000A9,false,Rx,0,8,F2,09,79,DF,1D,C7,E0,21,
2859006,000000BA,false,Rx,0,7,03,FF,0F,00,00,56,89,00,
2866752,000000B6,false,Rx,0,5,02,02,80,00,C8,00,00,00,
2866984,000000C4,false,Rx,0,7,42,08,FC,00,00,FF,F1,00,
2867210,000000CE,false,Rx,0,8,00,00,00,00,00,00,00,00,
2867433,0000019E,false,Rx,0,8,00,E8,3F,FC,FE,00,00,C3,
2867669,000001A0,false,Rx,0,8,00,80,00,40,01,14,20,97,
2867899,000002B2,false,Rx,0,8,00,00,00,00,50,00,00,04,
2868309,000001A6,false,Rx,0,8,00,00,00,00,00,00,40,F8,
2868534,000000A8,false,Rx,0,8,08,0A,21,E0,21,1F,0F,04,
2868768,000000A9,false,Rx,0,8,F3,0A,79,DF,1D,C7,E0,21,
2869000,000000AA,false,Rx,0,8,5E,54,07,00,B8,0B,94,00,
2869225,000000BA,false,Rx,0,7,03,FF,0F,00,00,57,8A,00,
2876854,000000C4,false,Rx,0,7,42,08,FC,00,00,FF,F1,00,
2878398,000000AA,false,Rx,0,8,60,56,07,00,B8,0B,94,00,
2878623,000000A8,false,Rx,0,8,09,0B,21,E0,21,1F,0F,04,
2878865,000000A9,false,Rx,0,8,F4,0B,79,DF,1D,C7,E0,21,
2879090,000000BA,false,Rx,0,7,03,FF,0F,00,00,58,8B,00,
2882505,000001B4,false,Rx,0,8,00,D0,E2,FC,44,32,FE,DB,
2886913,000000B6,false,Rx,0,5,03,03,80,00,C8,00,00,00,
2886918,000000C4,false,Rx,0,7,42,08,FC,00,00,FF,F1,00,
2887328,000000CE,false,Rx,0,8,00,00,00,00,00,00,00,00,
2887553,0000019E,false,Rx,0,8,00,E8,3F,FC,FE,00,00,C3,
2887791,000001A0,false,Rx,0,8,00,80,00,60,01,14,30,C7,
2888014,000002B2,false,Rx,0,8,00,00,00,00,50,00,00,04,
2888239,000000AA,false,Rx,0,8,62,58,07,00,B8,0B,94,00,
2888651,000000A8,false,Rx,0,8,0A,0C,21,E0,21,1F,0F,04,
2888918,000000A9,false,Rx,0,8,F5,0C,79,DF,1D,C7,E0,21,
2888923,000000BA,false,Rx,0,7,03,FF,0F,00,00,59,8C,00,
2896848,000000C4,false,Rx,0,7,42,08,FC,00,00,FF,F1,00,
2898276,000000AA,false,Rx,0,8,64,5A,07,00,B8,0B,94,00,
2898501,000000A8,false,Rx,0,8,0B,0D,21,E0,21,1F,0F,04,
2898731,000000A9,false,Rx,0,8,F6,0D,79,DF,1D,C7,E0,21,
2898963,000000BA,false,Rx,0,7,03,FF,0F,00,00,5A,8D,00,
2906513,00000130,false,Rx,0,5,45,43,21,8F,55,00,00,00,
2906740,000000B6,false,Rx,0,5,04,04,80,00,C8,00,00,00,
2906972,000000C4,false,Rx,0,7,42,08,FC,00,00,FF,F1,00,
2907197,000000CE,false,Rx,0,8,00,00,00,00,00,00,00,00,
2907422,0000019E,false,Rx,0,8,00,E8,3F,FC,FE,00,00,C3,
2907849,000001A0,false,Rx,0,8,00,80,00,40,01,14,40,B7,
2908073,000002B2,false,Rx,0,8,00,00,00,00,50,00,00,04,
2908298,000000AA,false,Rx,0,8,66,5C,07,00,B8,0B,94,00,
2908524,000000A8,false,Rx,0,8,0C,0E,21,E0,21,1F,0F,04,
2908752,000000A9,false,Rx,0,8,F7,0E,79,DF,1D,C7,E0,21,
2908984,000000BA,false,Rx,0,7,03,FF,0F,00,00,5B,8E,00,
2909209,000001D2,false,Rx,0,5,E1,0C,8F,30,F0,00,00,00,
2916953,000000C4,false,Rx,0,7,42,08,FC,00,00,FF,F1,00,
2916961,000001D6,false,Rx,0,2,FF,F3,00,00,00,00,00,00,
2918336,000000AA,false,Rx,0,8,5A,50,07,00,B8,0B,94,00,
2918575,000000A8,false,Rx,0,8,FD,00,21,E0,21,1F,0F,04,
2918827,000000A9,false,Rx,0,8,E9,00,79,DF,1D,C7,E0,21,
2919086,000000BA,false,Rx,0,7,03,FF,0F,00,00,4D,80,00,
2926873,000000B6,false,Rx,0,5,05,05,80,00,C8,00,00,00,
2927098,000000C4,false,Rx,0,7,42,08,FC,00,00,FF,F1,00,
2927323,000000CE,false,Rx,0,8,00,00,00,00,00,00,00,00,
2927548,0000019E,false,Rx,0,8,00,E8,3F,FC,FE,00,00,C3,
2927778,000001A0,false,Rx,0,8,00,80,00,60,01,11,50,E4,
2928010,000002B2,false,Rx,0,8,00,00,00,00,40,00,00,04,
2928421,000000A8,false,Rx,0,8,FE,01,21,E0,21,1F,0F,04,
2928647,000000A9,false,Rx,0,8,EA,01,79,DF,1D,C7,E0,21,
2928882,000000AA,false,Rx,0,8,5C,52,07,00,B8,0B,94,00,
2929107,000000BA,false,Rx,0,7,03,FF,0F,00,00,4E,81,00,
2936824,000000C4,false,Rx,0,7,42,08,FC,00,00,FF,F1,00,
2938380,000000AA,false,Rx,0,8,5E,54,07,00,B8,0B,94,00,
2938605,000000A8,false,Rx,0,8,FF,02,21,E0,21,1F,0F,04,
2938846,000000A9,false,Rx,0,8,EB,02,79,DF,1D,C7,E0,21,
2939072,000000BA,false,Rx,0,7,03,FF,0F,00,00,4F,82,00,
2946881,000000B6,false,Rx,0,5,06,06,80,00,C8,00,00,00,
2947106,000000C4,false,Rx,0,7,42,08,FC,00,00,FF,F1,00,
2947331,000000CE,false,Rx,0,8,00,00,00,00,00,00,00,00,
2947556,0000019E,false,Rx,0,8,00,E8,3F,FC,FE,00,00,C3,
2947795,000001A0,false,Rx,0,8,00,80,00,60,01,14,60,F7,
2948020,000002B2,false,Rx,0,8,00,00,00,00,50,00,00,04,
2948431,000000A8,false,Rx,0,8,00,03,21,E0,21,1F,0F,04,
2948664,000000A9,false,Rx,0,8,EC,03,79,DF,1D,C7,E0,21,
2948897,000000AA,false,Rx,0,8,60,56,07,00,B8,0B,94,00,
2949122,000000BA,false,Rx,0,7,03,FF,0F,00,00,50,83,00,
2949346,000004A9,false,Rx,0,8,30,42,FF,FF,FF,FF,FF,FF,
2949385,000000C8,false,Rx,0,6,38,08,7C,00,00,8C,00,00,
2952856,000001D0,false,Rx,0,8,3C,76,65,C3,9C,9E,CD,82,
2956886,000000C4,false,Rx,0,7,42,08,FC,00,00,FF,F1,00,
2958280,000000AA,false,Rx,0,8,62,58,07,00,B8,0B,94,00,
2959186,000000A8,false,Rx,0,8,02,04,21,E0,21,1F,0F,04,
2959191,000000A9,false,Rx,0,8,ED,04,79,DF,1D,C7,E0,21,
2959197,000000BA,false,Rx,0,7,03,FF,0F,00,00,51,84,00,
2966764,000000B6,false,Rx,0,5,07,07,80,00,C8,00,00,00,
2966995,000000C4,false,Rx,0,7,42,08,FC,00,00,FF,F1,00,
2967220,000000CE,false,Rx,0,8,00,00,00,00,00,00,00,00,
2967631,0000019E,false,Rx,0,8,00,E8,3F,FC,FE,00,00,C3,
2967868,000001A0,false,Rx,0,8,00,80,00,60,01,11,70,05,
2968093,000002B2,false,Rx,0,8,00,00,00,00,40,00,00,04,
2968318,000001A6,false,Rx,0,8,00,00,00,00,00,00,D0,F9,
2968543,000000A8,false,Rx,0,8,03,05,21,E0,21,1F,0F,04,
2968771,000000A9,false,Rx,0,8,EE,05,79,DF,1D,C7,E0,21,
2969003,000000AA,false,Rx,0,8,64,5A,07,00,B8,0B,94,00,
2969228,000000BA,false,Rx,0,7,03,FF,0F,00,00,52,85,00,
2970218,000001FB,false,Rx,0,2,F1,FF,00,00,00,00,00,00,
2976814,000000C4,false,Rx,0,7,42,08,FC,00,00,FF,F1,00,
2978260,000000AA,false,Rx,0,8,66,5C,07,00,B8,0B,94,00,
2978484,000000A8,false,Rx,0,8,04,06,21,E0,21,1F,0F,04,
2978712,000000A9,false,Rx,0,8,EF,06,79,DF,1D,C7,E0,21,
2978944,000000BA,false,Rx,0,7,03,FF,0F,00,00,53,86,00,
2982933,000001B4,false,Rx,0,8,00,D0,E2,FD,44,32,FE,DC,
2986738,000000B6,false,Rx,0,5,08,08,80,00,C8,00,00,00,
2986970,000000C4,false,Rx,0,7,42,08,FC,00,00,FF,F1,00,
2987381,000000CE,false,Rx,0,8,00,00,00,00,00,00,00,00,
2987606,0000019E,false,Rx,0,8,00,E8,4F,FC,FE,00,00,D3,
2987847,000001A0,false,Rx,0,8,00,80,00,40,01,14,80,F7,
2988072,000002B2,false,Rx,0,8,00,00,00,00,50,00,00,04,
2988298,000000AA,false,Rx,0,8,68,5E,07,00,B8,0B,94,00,
2988523,000000A8,false,Rx,0,8,05,07,21,E0,21,1F,0F,04,
2988750,000000A9,false,Rx,0,8,F0,07,79,DF,1D,C7,E0,21,
2988982,000000BA,false,Rx,0,7,03,FF,0F,00,00,54,87,00,
2996885,000000C4,false,Rx,0,7,42,08,FC,00,00,FF,F1,00,
2998311,000000AA,false,Rx,0,8,5A,50,07,00,B8,0B,94,00,
2998536,000000A8,false,Rx,0,8,06,08,21,E0,21,1F,0F,04,
2998767,000000A9,false,Rx,0,8,F1,08,79,DF,1D,C7,E0,21,
2998998,000000BA,false,Rx,0,7,03,FF,0F,00,00,55,88,00,
3006748,000000B6,false,Rx,0,5,09,09,80,00,C8,00,00,00,
3006979,000000C4,false,Rx,0,7,42,08,FC,00,00,FF,F1,00,
3007204,000000CE,false,Rx,0,8,00,00,00,00,00,00,00,00,
3007614,0000019E,false,Rx,0,8,00,E8,4F,FC,FE,00,00,D3,
3007853,000001A0,false,Rx,0,8,00,80,00,40,01,14,90,08,
3008078,000002B2,false,Rx,0,8,00,00,00,00,50,00,00,04,
3008304,000000AA,false,Rx,0,8,5C,52,07,00,B8,0B,94,00,
3008529,000000A8,false,Rx,0,8,07,09,21,E0,21,1F,0F,04,
3008757,000000A9,false,Rx,0,8,F2,09,79,DF,1D,C7,E0,21,
3008989,000000BA,false,Rx,0,7,03,FF,0F,00,00,56,89,00,
3009400,00000130,false,Rx,0,5,45,43,21,8F,76,00,00,00,
3016940,000000C4,false,Rx,0,7,42,08,FC,00,00,FF,F1,00,
3017201,00000194,false,Rx,0,4,E8,F7,00,F0,00,00,00,00,
3017206,000001D6,false,Rx,0,2,FF,F3,00,00,00,00,00,00,
3018371,000000AA,false,Rx,0,8,5E,54,07,00,B8,0B,94,00,
3018608,000000A8,false,Rx,0,8,08,0A,21,E0,21,1F,0F,04,
3018920,000000A9,false,Rx,0,8,F3,0A,79,DF,1D,C7,E0,21,
3018925,000000BA,false,Rx,0,7,03,FF,0F,00,00,57,8A,00,
3026922,000000B6,false,Rx,0,5,0A,0A,80,00,C8,00,00,00,
3027154,000000C4,false,Rx,0,7,42,08,FC,00,00,FF,F1,00,
3027379,000000CE,false,Rx,0,8,00,00,00,00,00,00,00,00,
3027603,0000019E,false,Rx,0,8,00,E8,4F,FC,FE,00,00,D3,
3027844,000001A0,false,Rx,0,8,00,80,00,60,01,14,A0,38,
3028070,000002B2,false,Rx,0,8,00,00,00,00,50,00,00,04,
3028294,000000AA,false,Rx,0,8,60,56,07,00,B8,0B,94,00,
3028520,000000A8,false,Rx,0,8,09,0B,21,E0,21,1F,0F,04,
3028748,000000A9,false,Rx,0,8,F4,0B,79,DF,1D,C7,E0,21,
3028979,000000BA,false,Rx,0,7,03,FF,0F,00,00,58,8B,00,
3033344,000001B5,false,Rx,0,7,C8,FF,04,00,88,FF,FF,00,
3036922,000000C4,false,Rx,0,7,42,08,FC,00,00,FF,F1,00,
3038301,000000AA,false,Rx,0,8,62,58,07,00,B8,0B,94,00,
3038540,000000A8,false,Rx,0,8,0A,0C,21,E0,21,1F,0F,04,
3038777,000000A9,false,Rx,0,8,F5,0C,79,DF,1D,C7,E0,21,
3039028,000000BA,false,Rx,0,7,03,FF,0F,00,00,59,8C,00,
3046816,000000B6,false,Rx,0,5,0B,0B,80,00,C8,00,00,00,
3047041,000000C4,false,Rx,0,7,42,08,FC,00,00,FF,F1,00,
3047265,000000CE,false,Rx,0,8,00,00,00,00,00,00,00,00,
3047489,0000019E,false,Rx,0,8,00,E8,4F,FC,FE,00,00,D3,
3047914,000001A0,false,Rx,0,8,00,80,00,60,01,14,B0,48,
3048139,000002B2,false,Rx,0,8,00,00,00,00,50,00,00,04,
3048364,000000AA,false,Rx,0,8,64,5A,07,00,B8,0B,94,00,
3048590,000000A8,false,Rx,0,8,0B,0D,21,E0,21,1F,0F,04,
3048828,000000A9,false,Rx,0,8,F6,0D,79,DF,1D,C7,E0,21,
3049052,000000BA,false,Rx,0,7,03,FF,0F,00,00,5A,8D,00,
3049277,000004B0,false,Rx,0,8,00,42,FE,01,FF,FF,FF,FF,
3052909,000001D0,false,Rx,0,8,3C,76,65,C3,9C,9E,CD,82,
3056941,000000C4,false,Rx,0,7,42,08,FC,00,00,FF,F1,00,
3058235,000000AA,false,Rx,0,8,66,5C,07,00,B8,0B,94,00,
3058647,000000A8,false,Rx,0,8,0C,0E,21,E0,21,1F,0F,04,
3058882,000000A9,false,Rx,0,8,F7,0E,79,DF,1D,C7,E0,21,
3059106,000000BA,false,Rx,0,7,03,FF,0F,00,00,5B,8E,00,
3066873,000000B6,false,Rx,0,5,0C,0C,80,00,C8,00,00,00,
3067098,000000C4,false,Rx,0,7,42,08,FC,00,00,FF,F1,00,
3067323,000000CE,false,Rx,0,8,00,00,00,00,00,00,00,00,
3067548,0000019E,false,Rx,0,8,00,E8,4F,FC,FE,00,00,D3,
3067791,000001A0,false,Rx,0,8,00,80,00,60,01,11,C0,55,
3068016,000002B2,false,Rx,0,8,00,00,00,00,40,00,00,04,
3068241,000001A6,false,Rx,0,8,00,00,00,00,00,00,60,FB,
3068466,000000A8,false,Rx,0,8,FD,00,21,E0,21,1F,0F,04,
3068697,000000A9,false,Rx,0,8,E9,00,79,DF,1D,C7,E0,21,
3068930,000000AA,false,Rx,0,8,5A,50,07,00,B8,0B,94,00,
3069155,000000BA,false,Rx,0,7,03,FF,0F,00,00,4D,80,00,
3076928,000000C4,false,Rx,0,7,42,08,FC,00,00,FF,F1,00,
3078391,000000AA,false,Rx,0,8,5C,52,07,00,B8,0B,94,00,
3078616,000000A8,false,Rx,0,8,FE,01,21,E0,21,1F,0F,04,
3078865,000000A9,false,Rx,0,8,EA,01,79,DF,1D,C7,E0,21,
3079107,000000BA,false,Rx,0,7,03,FF,0F,00,00,4E,81,00,
3082594,000001B4,false,Rx,0,8,00,D0,E2,FE,44,32,FE,DD,
3086777,000000B6,false,Rx,0,5,0D,0D,80,00,C8,00,00,00,
3087009,000000C4,false,Rx,0,7,42,08,FC,00,00,FF,F1,00,
3087234,000000CE,false,Rx,0,8,00,00,00,00,00,00,00,00,
3087459,0000019E,false,Rx,0,8,00,E8,4F,FC,FE,00,00,D3,
3087695,000001A0,false,Rx,0,8,00,80,00,60,01,14,D0,68,
3087926,000002B2,false,Rx,0,8,00,00,00,00,50,00,00,04,
3088337,000000AA,false,Rx,0,8,5E,54,07,00,B8,0B,94,00,
3088562,000000A8,false,Rx,0,8,FF,02,21,E0,21,1F,0F,04,
3088803,000000A9,false,Rx,0,8,EB,02,79,DF,1D,C7,E0,21,
3089028,000000BA,false,Rx,0,7,03,FF,0F,00,00,4F,82,00,
3096771,000000C4,false,Rx,0,7,42,08,FC,00,00,FF,F1,00,
3098233,000000AA,false,Rx,0,8,60,56,07,00,B8,0B,94,00,
3098644,000000A8,false,Rx,0,8,00,03,21,E0,21,1F,0F,04,
3098882,000000A9,false,Rx,0,8,EC,03,79,DF,1D,C7,E0,21,
3099107,000000BA,false,Rx,0,7,03,FF,0F,00,00,50,83,00,
3106486,00000130,false,Rx,0,5,45,43,21,8F,87,00,00,00,
3106714,000000B6,false,Rx,0,5,0E,0E,80,00,C8,00,00,00,
3106947,000000C4,false,Rx,0,7,42,08,FC,00,00,FF,F1,00,
3107172,000000CE,false,Rx,0,8,00,00,00,00,00,00,00,00,
3107582,0000019E,false,Rx,0,8,00,E8,4F,FC,FE,00,00,D3,
3107823,000001A0,false,Rx,0,8,00,80,00,60,01,14,E0,78,
3108049,000002B2,false,Rx,0,8,00,00,00,00,50,00,00,04,
3108273,000000AA,false,Rx,0,8,62,58,07,00,B8,0B,94,00,
3108498,000000A8,false,Rx,0,8,02,04,21,E0,21,1F,0F,04,
3108731,000000A9,false,Rx,0,8,ED,04,79,DF,1D,C7,E0,21,
3108964,000000BA,false,Rx,0,7,03,FF,0F,00,00,51,84,00,
3109189,000001D2,false,Rx,0,5,E1,0C,8F,40,F0,00,00,00,
3116888,000000C4,false,Rx,0,7,42,08,FC,00,00,FF,F1,00,
3117116,000001D6,false,Rx,0,2,FF,F3,00,00,00,00,00,00,
3118279,000000AA,false,Rx,0,8,64,5A,07,00,B8,0B,94,00,
3118504,000000A8,false,Rx,0,8,03,05,21,E0,21,1F,0F,04,
3118731,000000A9,false,Rx,0,8,EE,05,79,DF,1D,C7,E0,21,
3118963,000000BA,false,Rx,0,7,03,FF,0F,00,00,52,85,00,
3126942,000000B6,false,Rx,0,5,FF,00,80,00,C8,00,00,00,
3127167,000000C4,false,Rx,0,7,42,08,FC,00,00,FF,F1,00,
3127391,000000CE,false,Rx,0,8,00,00,00,00,00,00,00,00,
3127617,0000019E,false,Rx,0,8,00,E8,4F,FC,FE,00,00,D3,
3127856,000001A0,false,Rx,0,8,00,80,00,40,01,14,00,77,
3128081,000002B2,false,Rx,0,8,00,00,00,00,50,00,00,04,
3128306,000000A8,false,Rx,0,8,04,06,21,E0,21,1F,0F,04,
3128530,000000A9,false,Rx,0,8,EF,06,79,DF,1D,C7,E0,21,
3128758,000000AA,false,Rx,0,8,66,5C,07,00,B8,0B,94,00,
3128989,000000BA,false,Rx,0,7,03,FF,0F,00,00,53,86,00,
3136873,000000C4,false,Rx,0,7,42,08,FC,00,00,FF,F1,00,
3138251,000000AA,false,Rx,0,8,68,5E,07,00,B8,0B,94,00,
3138486,000000A8,false,Rx,0,8,05,07,21,E0,21,1F,0F,04,
3138727,000000A9,false,Rx,0,8,F0,07,79,DF,1D,C7,E0,21,
3138971,000000BA,false,Rx,0,7,03,FF,0F,00,00,54,87,00,
3144875,00000480,false,Rx,0,8,17,42,FD,FF,FF,FF,FF,FF,
3146975,000000B6,false,Rx,0,5,00,01,80,00,C8,00,00,00,
3147199,000000C4,false,Rx,0,7,42,08,FC,00,00,FF,F1,00,
3147422,000000CE,false,Rx,0,8,00,00,00,00,00,00,00,00,
3147650,0000019E,false,Rx,0,8,00,E8,4F,FC,FE,00,00,D3,
3147883,000001A0,false,Rx,0,8,00,80,00,40,01,14,10,87,
3148108,000002B2,false,Rx,0,8,00,00,00,00,50,00,00,04,
3148332,000000A8,false,Rx,0,8,06,08,21,E0,21,1F,0F,04,
3148557,000000A9,false,Rx,0,8,F1,08,79,DF,1D,C7,E0,21,
3148795,000000AA,false,Rx,0,8,5A,50,07,00,B8,0B,94,00,
3149020,000000BA,false,Rx,0,7,03,FF,0F,00,00,55,88,00,
3149245,000000C8,false,Rx,0,6,38,08,CC,00,00,9C,00,00,
3152863,000001D0,false,Rx,0,8,3C,76,66,C3,9C,9E,CD,82,
3156985,000000C4,false,Rx,0,7,42,08,FC,00,00,FF,F1,00,
3158366,000000AA,false,Rx,0,8,5C,52,07,00,B8,0B,94,00,
3158609,000000A8,false,Rx,0,8,07,09,21,E0,21,1F,0F,04,
3158855,000000A9,false,Rx,0,8,F2,09,79,DF,1D,C7,E0,21,
3159090,000000BA,false,Rx,0,7,03,FF,0F,00,00,56,89,00,
3160283,000001FB,false,Rx,0,2,F2,FF,00,00,00,00,00,00,
3166764,000000B6,false,Rx,0,5,02,02,80,00,C8,00,00,00,
3166996,000000C4,false,Rx,0,7,42,08,FC,00,00,FF,F1,00,
3167221,000000CE,false,Rx,0,8,00,00,00,00,00,00,00,00,
3167446,0000019E,false,Rx,0,8,00,E8,4F,FC,FE,00,00,D3,
3167676,000001A0,false,Rx,0,8,00,80,00,60,01,11,20,B4,
3168094,000002B2,false,Rx,0,8,00,00,00,00,40,00,00,04,
3168320,000001A6,false,Rx,0,8,00,00,00,00,00,00,F0,FC,
3168545,000000A8,false,Rx,0,8,08,0A,21,E0,21,1F,0F,04,
3168776,000000A9,false,Rx,0,8,F3,0A,79,DF,1D,C7,E0,21,
3169008,000000AA,false,Rx,0,8,5E,54,07,00,B8,0B,94,00,
3169232,000000BA,false,Rx,0,7,03,FF,0F,00,00,57,8A,00,
3176931,000000C4,false,Rx,0,7,42,08,FC,00,00,FF,F1,00,
3178405,000000AA,false,Rx,0,8,60,56,07,00,B8,0B,94,00,
3178631,000000A8,false,Rx,0,8,09,0B,21,E0,21,1F,0F,04,
3178871,000000A9,false,Rx,0,8,F4,0B,79,DF,1D,C7,E0,21,
3179096,000000BA,false,Rx,0,7,03,FF,0F,00,00,58,8B,00,
3180829,000003B0,false,Rx,0,2,FD,FF,00,00,00,00,00,00,
3182740,000001B4,false,Rx,0,8,00,D0,E2,F0,44,32,FE,CF,
3186738,000000B6,false,Rx,0,5,03,03,80,00,C8,00,00,00,
3186970,000000C4,false,Rx,0,7,42,08,FC,00,00,FF,F1,00,
3187195,000000CE,false,Rx,0,8,00,00,00,00,00,00,00,00,
3187606,0000019E,false,Rx,0,8,00,E8,5F,FC,FE,00,00,E3,
3187843,000001A0,false,Rx,0,8,00,80,00,60,01,14,30,C7,
3188068,000002B2,false,Rx,0,8,00,00,00,00,50,00,00,04,
3188294,000000AA,false,Rx,0,8,62,58,07,00,B8,0B,94,00,
3188519,000000A8,false,Rx,0,8,0A,0C,21,E0,21,1F,0F,04,
3188748,000000A9,false,Rx,0,8,F5,0C,79,DF,1D,C7,E0,21,
3188980,000000BA,false,Rx,0,7,03,FF,0F,00,00,59,8C,00,
3197026,000000C4,false,Rx,0,7,42,08,FC,00,00,FF,F1,00,
3198401,000000AA,false,Rx,0,8,64,5A,07,00,B8,0B,94,00,
3198637,000000A8,false,Rx,0,8,0B,0D,21,E0,21,1F,0F,04,
3198924,000000A9,false,Rx,0,8,F6,0D,79,DF,1D,C7,E0,21,
3198929,000000BA,false,Rx,0,7,03,FF,0F,00,00,5A,8D,00,
3205957,00000130,false,Rx,0,5,45,43,21,8F,98,00,00,00,
3206932,000000B6,false,Rx,0,5,04,04,80,00,C8,00,00,00,
3207157,000000C4,false,Rx,0,7,42,08,FC,00,00,FF,F1,00,
3207382,000000CE,false,Rx,0,8,00,00,00,00,00,00,00,00,
3207607,0000019E,false,Rx,0,8,00,E8,5F,FC,FE,00,00,E3,
3207848,000001A0,false,Rx,0,8,00,80,00,60,01,14,40,D7,
3208073,000002B2,false,Rx,0,8,00,00,00,00,50,00,00,04,
3208299,000000AA,false,Rx,0,8,66,5C,07,00,B8,0B,94,00,
3208523,000000A8,false,Rx,0,8,0C,0E,21,E0,21,1F,0F,04,
3208751,000000A9,false,Rx,0,8,F7,0E,79,DF,1D,C7,E0,21,
3208984,000000BA,false,Rx,0,7,03,FF,0F,00,00,5B,8E,00,
3217209,000000C4,false,Rx,0,7,42,08,FC,00,00,FF,F1,00,
3217216,00000194,false,Rx,0,4,E9,F8,00,F0,00,00,00,00,
3217221,000001D6,false,Rx,0,2,FF,F3,00,00,00,00,00,00,
3218244,000000AA,false,Rx,0,8,5A,50,07,00,B8,0B,94,00,
3218495,000000A8,false,Rx,0,8,FD,00,21,E0,21,1F,0F,04,
3218743,000000A9,false,Rx,0,8,E9,00,79,DF,1D,C7,E0,21,
3218976,000000BA,false,Rx,0,7,03,FF,0F,00,00,4D,80,00,
3226930,000000B6,false,Rx,0,5,05,05,80,00,C8,00,00,00,
3227155,000000C4,false,Rx,0,7,42,08,FC,00,00,FF,F1,00,
3227380,000000CE,false,Rx,0,8,00,00,00,00,00,00,00,00,
3227605,0000019E,false,Rx,0,8,00,E8,5F,FC,FE,00,00,E3,
3227840,000001A0,false,Rx,0,8,00,80,00,60,01,11,50,E4,
3228064,000002B2,false,Rx,0,8,00,00,00,00,40,00,00,04,
3228287,000000A8,false,Rx,0,8,FE,01,21,E0,21,1F,0F,04,
3228513,000000A9,false,Rx,0,8,EA,01,79,DF,1D,C7,E0,21,
3228740,000000AA,false,Rx,0,8,5C,52,07,00,B8,0B,94,00,
3228972,000000BA,false,Rx,0,7,03,FF,0F,00,00,4E,81,00,
3232767,00000497,false,Rx,0,8,29,42,FF,FF,FF,FF,FF,FF,
3237244,000000C4,false,Rx,0,7,42,08,FC,00,00,FF,F1,00,
3237683,00000335,false,Rx,0,8,00,EC,10,00,00,99,00,00,
3238303,000000AA,false,Rx,0,8,5E,54,07,00,B8,0B,94,00,
3238544,000000A8,false,Rx,0,8,FF,02,21,E0,21,1F,0F,04,
3238820,000000A9,false,Rx,0,8,EB,02,79,DF,1D,C7,E0,21,
3239046,000000BA,false,Rx,0,7,03,FF,0F,00,00,4F,82,00,
3246999,000000B6,false,Rx,0,5,06,06,80,00,C8,00,00,00,
3247224,000000C4,false,Rx,0,7,42,08,FC,00,00,FF,F1,00,
3247449,000000CE,false,Rx,0,8,00,00,00,00,00,00,00,00,
3247677,0000019E,false,Rx,0,8,00,E8,5F,FC,FE,00,00,E3,
3247909,000001A0,false,Rx,0,8,00,80,00,40,01,14,60,D7,
3248133,000002B2,false,Rx,0,8,00,00,00,00,50,00,00,04,
3248359,000000A8,false,Rx,0,8,00,03,21,E0,21,1F,0F,04,
3248584,000000A9,false,Rx,0,8,EC,03,79,DF,1D,C7,E0,21,
3248821,000000AA,false,Rx,0,8,60,56,07,00,B8,0B,94,00,
3249046,000000BA,false,Rx,0,7,03,FF,0F,00,00,50,83,00,
3252852,000001D0,false,Rx,0,8,3C,76,66,C3,9C,9E,CD,82,
3257368,000000C4,false,Rx,0,7,42,08,FC,00,00,FF,F1,00,
3258377,000000AA,false,Rx,0,8,62,58,07,00,B8,0B,94,00,
3258603,000000A8,false,Rx,0,8,02,04,21,E0,21,1F,0F,04,
3258843,000000A9,false,Rx,0,8,ED,04,79,DF,1D,C7,E0,21,
3259069,000000BA,false,Rx,0,7,03,FF,0F,00,00,51,84,00,
3266878,000000B6,false,Rx,0,5,07,07,80,00,C8,00,00,00,
3267103,000000C4,false,Rx,0,7,42,08,FC,00,00,FF,F1,00,
3267328,000000CE,false,Rx,0,8,00,00,00,00,00,00,00,00,
3267553,0000019E,false,Rx,0,8,00,E8,5F,FC,FE,00,00,E3,
3267792,000001A0,false,Rx,0,8,00,80,00,40,01,14,70,E7,
3268018,000002B2,false,Rx,0,8,00,00,00,00,50,00,00,04,
3268243,000001A6,false,Rx,0,8,00,00,00,00,00,00,80,FE,
3268468,000000A8,false,Rx,0,8,03,05,21,E0,21,1F,0F,04,
3268697,000000A9,false,Rx,0,8,EE,05,79,DF,1D,C7,E0,21,
3268929,000000AA,false,Rx,0,8,64,5A,07,00,B8,0B,94,00,
3269154,000000BA,false,Rx,0,7,03,FF,0F,00,00,52,85,00,
3277387,000000C4,false,Rx,0,7,42,08,FC,00,00,FF,F1,00,
3278394,000000AA,false,Rx,0,8,66,5C,07,00,B8,0B,94,00,
3278629,000000A8,false,Rx,0,8,04,06,21,E0,21,1F,0F,04,
3278942,000000A9,false,Rx,0,8,EF,06,79,DF,1D,C7,E0,21,
3278947,000000BA,false,Rx,0,7,03,FF,0F,00,00,53,86,00,
3282566,000001B4,false,Rx,0,8,00,D0,E2,F1,44,32,FE,D0,
3286747,000000B6,false,Rx,0,5,08,08,80,00,C8,00,00,00,
3286977,000000C4,false,Rx,0,7,42,08,FC,00,00,FF,F1,00,
3287388,000000CE,false,Rx,0,8,00,00,00,00,00,00,00,00,
3287613,0000019E,false,Rx,0,8,00,E8,5F,FC,FE,00,00,E3,
3287852,000001A0,false,Rx,0,8,00,80,00,40,01,11,80,F4,
3288077,000002B2,false,Rx,0,8,00,00,00,00,40,00,00,04,
3288303,000000AA,false,Rx,0,8,68,5E,07,00,B8,0B,94,00,
3288528,000000A8,false,Rx,0,8,05,07,21,E0,21,1F,0F,04,
3288757,000000A9,false,Rx,0,8,F0,07,79,DF,1D,C7,E0,21,
3288989,000000BA,false,Rx,0,7,03,FF,0F,00,00,54,87,00,
3297421,000000C4,false,Rx,0,7,42,08,FC,00,00,FF,F1,00,
3298239,000000AA,false,Rx,0,8,5A,50,07,00,B8,0B,94,00,
3298702,000000A8,false,Rx,0,8,06,08,21,E0,21,1F,0F,04,
3298708,000000A9,false,Rx,0,8,F1,08,79,DF,1D,C7,E0,21,
3298979,000000BA,false,Rx,0,7,03,FF,0F,00,00,55,88,00,
3306562,00000130,false,Rx,0,5,45,43,21,8F,A9,00,00,00,
3306803,000000B6,false,Rx,0,5,09,09,80,00,C8,00,00,00,
3307028,000000C4,false,Rx,0,7,42,08,FC,00,00,FF,F1,00,
3307253,000000CE,false,Rx,0,8,00,00,00,00,00,00,00,00,
3307478,0000019E,false,Rx,0,8,00,E8,5F,FC,FE,00,00,E3,
3307711,000001A0,false,Rx,0,8,00,80,00,60,01,14,90,28,
3307942,000002B2,false,Rx,0,8,00,00,00,00,50,00,00,04,
3308353,000000AA,false,Rx,0,8,5C,52,07,00,B8,0B,94,00,
3308578,000000A8,false,Rx,0,8,07,09,21,E0,21,1F,0F,04,
3308817,000000A9,false,Rx,0,8,F2,09,79,DF,1D,C7,E0,21,
3309041,000000BA,false,Rx,0,7,03,FF,0F,00,00,56,89,00,
3309266,000001D2,false,Rx,0,5,E1,0C,8F,50,F0,00,00,00,
3317492,000000C4,false,Rx,0,7,42,08,FC,00,00,FF,F1,00,
3317498,000001D6,false,Rx,0,2,FF,F3,00,00,00,00,00,00,
3318317,000000AA,false,Rx,0,8,5E,54,07,00,B8,0B,94,00,
3318544,000000A8,false,Rx,0,8,08,0A,21,E0,21,1F,0F,04,
3318778,000000A9,false,Rx,0,8,F3,0A,79,DF,1D,C7,E0,21,
3319009,000000BA,false,Rx,0,7,03,FF,0F,00,00,57,8A,00,
3326887,000000B6,false,Rx,0,5,0A,0A,80,00,C8,00,00,00,
3327112,000000C4,false,Rx,0,7,42,08,FC,00,00,FF,F1,00,
3327337,000000CE,false,Rx,0,8,00,00,00,00,00,00,00,00,
3327562,0000019E,false,Rx,0,8,00,E8,5F,FC,FE,00,00,E3,
3327797,000001A0,false,Rx,0,8,00,80,00,40,01,14,A0,18,
3328208,000002B2,false,Rx,0,8,00,00,00,00,50,00,00,04,
3328433,000000A8,false,Rx,0,8,09,0B,21,E0,21,1F,0F,04,
3328668,000000A9,false,Rx,0,8,F4,0B,79,DF,1D,C7,E0,21,
3328900,000000AA,false,Rx,0,8,60,56,07,00,B8,0B,94,00,
3329125,000000BA,false,Rx,0,7,03,FF,0F,00,00,58,8B,00,
3329350,000004A9,false,Rx,0,8,30,42,FF,FF,FF,FF,FF,FF,
3337668,000000C4,false,Rx,0,7,42,08,FC,00,00,FF,F1,00,
3338293,000000AA,false,Rx,0,8,62,58,07,00,B8,0B,94,00,
3338532,000000A8,false,Rx,0,8,0A,0C,21,E0,21,1F,0F,04,
3338771,000000A9,false,Rx,0,8,F5,0C,79,DF,1D,C7,E0,21,
3339044,000000BA,false,Rx,0,7,03,FF,0F,00,00,59,8C,00,
3346813,000000B6,false,Rx,0,5,0B,0B,80,00,C8,00,00,00,
3347038,000000C4,false,Rx,0,7,42,08,FC,00,00,FF,F1,00,
3347263,000000CE,false,Rx,0,8,00,00,00,00,00,00,00,00,
3347678,0000019E,false,Rx,0,8,00,E8,5F,FC,FE,00,00,E3,
3347910,000001A0,false,Rx,0,8,00,80,00,60,01,14,B0,48,
3348135,000002B2,false,Rx,0,8,00,00,00,00,50,00,00,04,
3348360,000000C8,false,Rx,0,6,38,08,2C,00,00,AC,00,00,
3348584,000000A8,false,Rx,0,8,0B,0D,21,E0,21,1F,0F,04,
3348926,000000A9,false,Rx,0,8,F6,0D,79,DF,1D,C7,E0,21,
3348931,000000AA,false,Rx,0,8,64,5A,07,00,B8,0B,94,00,
3349156,000000BA,false,Rx,0,7,03,FF,0F,00,00,5A,8D,00,
3349381,000001FB,false,Rx,0,2,F3,FF,00,00,00,00,00,00,
3352809,000001D0,false,Rx,0,8,3C,76,67,C3,9C,9E,CD,82,
3357907,000000C4,false,Rx,0,7,42,08,FC,00,00,FF,F1,00,
3358336,000000AA,false,Rx,0,8,66,5C,07,00,B8,0B,94,00,
3358563,000000A8,false,Rx,0,8,0C,0E,21,E0,21,1F,0F,04,
3358802,000000A9,false,Rx,0,8,F7,0E,79,DF,1D,C7,E0,21,
3359027,000000BA,false,Rx,0,7,03,FF,0F,00,00,5B,8E,00,
3366723,000000B6,false,Rx,0,5,0C,0C,80,00,C8,00,00,00,
3366954,000000C4,false,Rx,0,7,42,08,FC,00,00,FF,F1,00,
3367365,000000CE,false,Rx,0,8,00,00,00,00,00,00,00,00,
3367590,0000019E,false,Rx,0,8,00,E8,5F,FC,FE,00,00,E3,
3367829,000001A0,false,Rx,0,8,00,80,00,60,01,14,C0,58,
3368054,000002B2,false,Rx,0,8,00,00,00,00,50,00,00,04,
3368279,000001A6,false,Rx,0,8,00,00,00,00,00,00,10,F0,
3368505,000000A8,false,Rx,0,8,FD,00,21,E0,21,1F,0F,04,
3368734,000000A9,false,Rx,0,8,E9,00,79,DF,1D,C7,E0,21,
3368966,000000AA,false,Rx,0,8,5A,50,07,00,B8,0B,94,00,
3369191,000000BA,false,Rx,0,7,03,FF,0F,00,00,4D,80,00,
3378052,000000C4,false,Rx,0,7,42,08,FC,00,00,FF,F1,00,
3378296,000000AA,false,Rx,0,8,5C,52,07,00,B8,0B,94,00,
3378533,000000A8,false,Rx,0,8,FE,01,21,E0,21,1F,0F,04,
3378768,000000A9,false,Rx,0,8,EA,01,79,DF,1D,C7,E0,21,
3379015,000000BA,false,Rx,0,7,03,FF,0F,00,00,4E,81,00,
3382881,000001B4,false,Rx,0,8,00,D0,E2,F2,44,32,FE,D1,
3386876,000000B6,false,Rx,0,5,0D,0D,80,00,C8,00,00,00,
3387100,000000C4,false,Rx,0,7,42,08,FC,00,00,FF,F1,00,
3387325,000000CE,false,Rx,0,8,00,00,00,00,00,00,00,00,
3387551,0000019E,false,Rx,0,8,00,E8,5F,FC,FE,00,00,E3,
3387786,000001A0,false,Rx,0,8,00,80,00,60,01,14,D0,68,
3388011,000002B2,false,Rx,0,8,00,00,00,00,50,00,00,04,
3388236,000000AA,false,Rx,0,8,5E,54,07,00,B8,0B,94,00,
3388650,000000A8,false,Rx,0,8,FF,02,21,E0,21,1F,0F,04,
3388883,000000A9,false,Rx,0,8,EB,02,79,DF,1D,C7,E0,21,
3389108,000000BA,false,Rx,0,7,03,FF,0F,00,00,4F,82,00,
3398138,000000C4,false,Rx,0,7,42,08,FC,00,00,FF,F1,00,
3398383,000000AA,false,Rx,0,8,60,56,07,00,B8,0B,94,00,
3398613,000000A8,false,Rx,0,8,00,03,21,E0,21,1F,0F,04,
3398851,000000A9,false,Rx,0,8,EC,03,79,DF,1D,C7,E0,21,
3399091,000000BA,false,Rx,0,7,03,FF,0F,00,00,50,83,00,
3405957,00000130,false,Rx,0,5,45,43,21,8F,BA,00,00,00,
3406933,000000B6,false,Rx,0,5,0E,0E,80,00,C8,00,00,00,
3407158,000000C4,false,Rx,0,7,42,08,FC,00,00,FF,F1,00,
3407383,000000CE,false,Rx,0,8,00,00,00,00,00,00,00,00,
3407608,0000019E,false,Rx,0,8,00,E8,6F,FC,FE,00,00,F3,
3407849,000001A0,false,Rx,0,8,00,80,00,60,01,14,E0,78,
3408074,000002B2,false,Rx,0,8,00,00,00,00,50,00,00,04,
3408299,000000AA,false,Rx,0,8,62,58,07,00,B8,0B,94,00,
3408524,000000A8,false,Rx,0,8,02,04,21,E0,21,1F,0F,04,
3408752,000000A9,false,Rx,0,8,ED,04,79,DF,1D,C7,E0,21,
3408984,000000BA,false,Rx,0,7,03,FF,0F,00,00,51,84,00,
3418282,000000C4,false,Rx,0,7,42,08,FC,00,00,FF,F1,00,
3418289,00000194,false,Rx,0,4,EA,F9,00,F0,00,00,00,00,
3418294,000001D6,false,Rx,0,2,FF,F3,00,00,00,00,00,00,
3418299,000000AA,false,Rx,0,8,64,5A,07,00,B8,0B,94,00,
3418537,000000A8,false,Rx,0,8,03,05,21,E0,21,1F,0F,04,
3418773,000000A9,false,Rx,0,8,EE,05,79,DF,1D,C7,E0,21,
3419004,000000BA,false,Rx,0,7,03,FF,0F,00,00,52,85,00,
3426814,000000B6,false,Rx,0,5,FF,00,80,00,C8,00,00,00,
3427039,000000C4,false,Rx,0,7,42,08,FC,00,00,FF,F1,00,
3427450,000000CE,false,Rx,0,8,00,00,00,00,00,00,00,00,
3427677,0000019E,false,Rx,0,8,00,E8,6F,FC,FE,00,00,F3,
3427910,000001A0,false,Rx,0,8,00,80,00,40,01,14,00,77,
3428135,000002B2,false,Rx,0,8,00,00,00,00,50,00,00,04,
3428360,000000AA,false,Rx,0,8,66,5C,07,00,B8,0B,94,00,
3428585,000000A8,false,Rx,0,8,04,06,21,E0,21,1F,0F,04,
3428825,000000A9,false,Rx,0,8,EF,06,79,DF,1D,C7,E0,21,
3429049,000000BA,false,Rx,0,7,03,FF,0F,00,00,53,86,00,
3429274,000004B0,false,Rx,0,8,00,42,FE,01,FF,FF,FF,FF,
3438338,000000C4,false,Rx,0,7,42,08,FC,00,00,FF,F1,00,
3438345,000005A9,false,Rx,0,8,40,18,00,19,FF,FF,FF,FF,
3438350,000000AA,false,Rx,0,8,68,5E,07,00,B8,0B,94,00,
3438582,000000A8,false,Rx,0,8,05,07,21,E0,21,1F,0F,04,
3438821,000000A9,false,Rx,0,8,F0,07,79,DF,1D,C7,E0,21,
3439046,000000BA,false,Rx,0,7,03,FF,0F,00,00,54,87,00,
3446878,000000B6,false,Rx,0,5,00,01,80,00,C8,00,00,00,
3447103,000000C4,false,Rx,0,7,42,08,FC,00,00,FF,F1,00,
3447328,000000CE,false,Rx,0,8,00,00,00,00,00,00,00,00,
3447552,0000019E,false,Rx,0,8,00,E8,6F,FC,FE,00,00,F3,
3447792,000001A0,false,Rx,0,8,00,80,00,60,01,14,10,A7,
3448203,000002B2,false,Rx,0,8,00,00,00,00,50,00,00,04,
3448428,000000A8,false,Rx,0,8,06,08,21,E0,21,1F,0F,04,
3448655,000000A9,false,Rx,0,8,F1,08,79,DF,1D,C7,E0,21,
3448887,000000AA,false,Rx,0,8,5A,50,07,00,B8,0B,94,00,
3449112,000000BA,false,Rx,0,7,03,FF,0F,00,00,55,88,00,
3449337,000005A9,false,Rx,0,8,40,32,00,21,FF,FF,FF,FF,
3452947,000001D0,false,Rx,0,8,3C,76,67,C3,9C,9E,CD,82,
3458387,000000C4,false,Rx,0,7,42,08,FC,00,00,FF,F1,00,
3458394,000000AA,false,Rx,0,8,5C,52,07,00,B8,0B,94,00,
3458634,000000A8,false,Rx,0,8,07,09,21,E0,21,1F,0F,04,
3458881,000000A9,false,Rx,0,8,F2,09,79,DF,1D,C7,E0,21,
3459106,000000BA,false,Rx,0,7,03,FF,0F,00,00,56,89,00,
3466744,000000B6,false,Rx,0,5,02,02,80,00,C8,00,00,00,
3466976,000000C4,false,Rx,0,7,42,08,FC,00,00,FF,F1,00,
3467201,000000CE,false,Rx,0,8,00,00,00,00,00,00,00,00,
3467612,0000019E,false,Rx,0,8,00,E8,6F,FC,FE,00,00,F3,
3467845,000001A0,false,Rx,0,8,00,80,00,40,01,11,20,94,
3468070,000002B2,false,Rx,0,8,00,00,00,00,40,00,00,04,
3468293,000001A6,false,Rx,0,8,00,00,00,00,00,00,A0,F1,
3468518,000000A8,false,Rx,0,8,08,0A,21,E0,21,1F,0F,04,
3468751,000000A9,false,Rx,0,8,F3,0A,79,DF,1D,C7,E0,21,
3468983,000000AA,false,Rx,0,8,5E,54,07,00,B8,0B,94,00,
3469208,000000BA,false,Rx,0,7,03,FF,0F,00,00,57,8A,00,
3476809,000000C4,false,Rx,0,7,42,08,FC,00,00,FF,F1,00,
3478517,000000AA,false,Rx,0,8,60,56,07,00,B8,0B,94,00,
3478524,000000A8,false,Rx,0,8,09,0B,21,E0,21,1F,0F,04,
3478763,000000A9,false,Rx,0,8,F4,0B,79,DF,1D,C7,E0,21,
3479012,000000BA,false,Rx,0,7,03,FF,0F,00,00,58,8B,00,
3482717,000001B4,false,Rx,0,8,00,D0,E2,F3,44,32,FE,D2,
3486898,000000B6,false,Rx,0,5,03,03,80,00,C8,00,00,00,
3487123,000000C4,false,Rx,0,7,42,08,FC,00,00,FF,F1,00,
3487347,000000CE,false,Rx,0,8,00,00,00,00,00,00,00,00,
3487572,0000019E,false,Rx,0,8,00,E8,6F,FC,FE,00,00,F3,
3487811,000001A0,false,Rx,0,8,00,80,00,40,01,14,30,A7,
3488036,000002B2,false,Rx,0,8,00,00,00,00,50,00,00,04,
3488261,000000AA,false,Rx,0,8,62,58,07,00,B8,0B,94,00,
3488486,000000A8,false,Rx,0,8,0A,0C,21,E0,21,1F,0F,04,
3488714,000000A9,false,Rx,0,8,F5,0C,79,DF,1D,C7,E0,21,
3488946,000000BA,false,Rx,0,7,03,FF,0F,00,00,59,8C,00,
3496874,000000C4,false,Rx,0,7,42,08,FC,00,00,FF,F1,00,
3498515,000000AA,false,Rx,0,8,64,5A,07,00,B8,0B,94,00,
3498521,000000A8,false,Rx,0,8,0B,0D,21,E0,21,1F,0F,04,
3498762,000000A9,false,Rx,0,8,F6,0D,79,DF,1D,C7,E0,21,
3499009,000000BA,false,Rx,0,7,03,FF,0F,00,00,5A,8D,00,
3505940,00000130,false,Rx,0,5,45,43,21,8F,CB,00,00,00,
3506924,000000B6,false,Rx,0,5,04,04,80,00,C8,00,00,00,
3507173,000000C4,false,Rx,0,7,42,08,FC,00,00,FF,F1,00,
3507405,000000CE,false,Rx,0,8,00,00,00,00,00,00,00,00,
3507651,0000019E,false,Rx,0,8,00,E8,6F,FC,FE,00,00,F3,
3507894,000001A0,false,Rx,0,8,00,80,00,60,01,14,40,D7,
3508136,000002B2,false,Rx,0,8,00,00,00,00,50,00,00,04,
3508378,000000AA,false,Rx,0,8,66,5C,07,00,B8,0B,94,00,
3508603,000000A8,false,Rx,0,8,0C,0E,21,E0,21,1F,0F,04,
3508844,000000A9,false,Rx,0,8,F7,0E,79,DF,1D,C7,E0,21,
3509069,000000BA,false,Rx,0,7,03,FF,0F,00,00,5B,8E,00,
3509294,000001D2,false,Rx,0,5,E1,0C,8F,60,F0,00,00,00,
3516873,000000C4,false,Rx,0,7,42,08,FC,00,00,FF,F1,00,
3518533,000001D6,false,Rx,0,2,FF,F3,00,00,00,00,00,00,
3518540,000000AA,false,Rx,0,8,5A,50,07,00,B8,0B,94,00,
3518545,000000A8,false,Rx,0,8,FD,00,21,E0,21,1F,0F,04,
3518797,000000A9,false,Rx,0,8,E9,00,79,DF,1D,C7,E0,21,
3519030,000000BA,false,Rx,0,7,03,FF,0F,00,00,4D,80,00,
3524975,00000480,false,Rx,0,8,17,42,FD,FF,FF,FF,FF,FF,
3526894,000000B6,false,Rx,0,5,05,05,80,00,C8,00,00,00,
3527119,000000C4,false,Rx,0,7,42,08,FC,00,00,FF,F1,00,
3527530,000000CE,false,Rx,0,8,00,00,00,00,00,00,00,00,
3527765,0000019E,false,Rx,0,8,00,E8,6F,FC,FE,00,00,F3,
3527997,000001A0,false,Rx,0,8,00,80,00,40,01,14,50,C7,
3528222,000002B2,false,Rx,0,8,00,00,00,00,50,00,00,04,
3528446,000000A8,false,Rx,0,8,FE,01,21,E0,21,1F,0F,04,
3528676,000000A9,false,Rx,0,8,EA,01,79,DF,1D,C7,E0,21,
3528907,000000AA,false,Rx,0,8,5C,52,07,00,B8,0B,94,00,
3529132,000000BA,false,Rx,0,7,03,FF,0F,00,00,4E,81,00,
3536880,000000C4,false,Rx,0,7,42,08,FC,00,00,FF,F1,00,
3538723,000000AA,false,Rx,0,8,5E,54,07,00,B8,0B,94,00,
3538730,000000A8,false,Rx,0,8,FF,02,21,E0,21,1F,0F,04,
3538735,000000A9,false,Rx,0,8,EB,02,79,DF,1D,C7,E0,21,
3538983,000000BA,false,Rx,0,7,03,FF,0F,00,00,4F,82,00,
3540161,000001FB,false,Rx,0,2,F4,FF,00,00,00,00,00,00,
3547017,000000B6,false,Rx,0,5,06,06,80,00,C8,00,00,00,
3547241,000000C4,false,Rx,0,7,42,08,FC,00,00,FF,F1,00,
3547466,000000CE,false,Rx,0,8,00,00,00,00,00,00,00,00,
3547697,0000019E,false,Rx,0,8,00,E8,6F,FC,FE,00,00,F3,
3547928,000001A0,false,Rx,0,8,00,80,00,60,01,14,60,F7,
3548153,000002B2,false,Rx,0,8,00,00,00,00,50,00,00,04,
3548378,000000A8,false,Rx,0,8,00,03,21,E0,21,1F,0F,04,
3548603,000000A9,false,Rx,0,8,EC,03,79,DF,1D,C7,E0,21,
3548846,000000AA,false,Rx,0,8,60,56,07,00,B8,0B,94,00,
3549071,000000BA,false,Rx,0,7,03,FF,0F,00,00,50,83,00,
3549296,000000C8,false,Rx,0,6,38,08,7C,00,00,CC,00,00,
3552909,000001D0,false,Rx,0,8,3C,76,68,C3,9C,9E,CD,82,
3556907,000000C4,false,Rx,0,7,42,08,FC,00,00,FF,F1,00,
3558761,000000AA,false,Rx,0,8,62,58,07,00,B8,0B,94,00,
3558767,000000A8,false,Rx,0,8,02,04,21,E0,21,1F,0F,04,
3558773,000000A9,false,Rx,0,8,ED,04,79,DF,1D,C7,E0,21,
3559018,000000BA,false,Rx,0,7,03,FF,0F,00,00,51,84,00,
3566920,000000B6,false,Rx,0,5,07,07,80,00,C8,00,00,00,
3567145,000000C4,false,Rx,0,7,42,08,FC,00,00,FF,F1,00,
3567370,000000CE,false,Rx,0,8,00,00,00,00,00,00,00,00,
3567596,0000019E,false,Rx,0,8,00,E8,6F,FC,FE,00,00,F3,
3567829,000001A0,false,Rx,0,8,00,80,00,60,01,14,70,08,
3568054,000002B2,false,Rx,0,8,00,00,00,00,50,00,00,04,
3568279,000001A6,false,Rx,0,8,00,00,00,00,00,00,30,F3,
3568504,000000A8,false,Rx,0,8,03,05,21,E0,21,1F,0F,04,
3568735,000000A9,false,Rx,0,8,EE,05,79,DF,1D,C7,E0,21,
3568966,000000AA,false,Rx,0,8,64,5A,07,00,B8,0B,94,00,
3569191,000000BA,false,Rx,0,7,03,FF,0F,00,00,52,85,00,
3576952,000000C4,false,Rx,0,7,42,08,FC,00,00,FF,F1,00,
3579419,000000AA,false,Rx,0,8,66,5C,07,00,B8,0B,94,00,
3579426,000000A8,false,Rx,0,8,04,06,21,E0,21,1F,0F,04,
3579432,000000A9,false,Rx,0,8,EF,06,79,DF,1D,C7,E0,21,
3579437,000000BA,false,Rx,0,7,03,FF,0F,00,00,53,86,00,
3582713,000001B4,false,Rx,0,8,00,D0,E2,F4,44,32,FE,D3,
3586898,000000B6,false,Rx,0,5,08,08,80,00,C8,00,00,00,
3587123,000000C4,false,Rx,0,7,42,08,FC,00,00,FF,F1,00,
3587347,000000CE,false,Rx,0,8,00,00,00,00,00,00,00,00,
3587572,0000019E,false,Rx,0,8,00,E8,6F,FC,FE,00,00,F3,
3587813,000001A0,false,Rx,0,8,00,80,00,60,01,14,80,18,
3588038,000002B2,false,Rx,0,8,00,00,00,00,50,00,00,04,
3588263,000000AA,false,Rx,0,8,68,5E,07,00,B8,0B,94,00,
3588489,000000A8,false,Rx,0,8,05,07,21,E0,21,1F,0F,04,
3588721,000000A9,false,Rx,0,8,F0,07,79,DF,1D,C7,E0,21,
3588954,000000BA,false,Rx,0,7,03,FF,0F,00,00,54,87,00,
3596880,000000C4,false,Rx,0,7,42,08,FC,00,00,FF,F1,00,
3598954,000000AA,false,Rx,0,8,5A,50,07,00,B8,0B,94,00,
3598960,000000A8,false,Rx,0,8,06,08,21,E0,21,1F,0F,04,
3598965,000000A9,false,Rx,0,8,F1,08,79,DF,1D,C7,E0,21,
3598971,000000BA,false,Rx,0,7,03,FF,0F,00,00,55,88,00,
3605879,00000130,false,Rx,0,5,45,43,21,8F,DC,00,00,00,
3606862,000000B6,false,Rx,0,5,09,09,80,00,C8,00,00,00,
3607086,000000C4,false,Rx,0,7,42,08,FC,00,00,FF,F1,00,
3607312,000000CE,false,Rx,0,8,00,00,00,00,00,00,00,00,
3607537,0000019E,false,Rx,0,8,00,E8,7F,FC,FE,00,00,03,
3607767,000001A0,false,Rx,0,8,00,80,00,60,01,14,90,28,
3607999,000002B2,false,Rx,0,8,00,00,00,00,50,00,00,04,
3608410,000000AA,false,Rx,0,8,5C,52,07,00,B8,0B,94,00,
3608635,000000A8,false,Rx,0,8,07,09,21,E0,21,1F,0F,04,
3608873,000000A9,false,Rx,0,8,F2,09,79,DF,1D,C7,E0,21,
3609098,000000BA,false,Rx,0,7,03,FF,0F,00,00,56,89,00,
3612710,00000497,false,Rx,0,8,29,42,FF,FF,FF,FF,FF,FF,
3617110,000000C4,false,Rx,0,7,42,08,FC,00,00,FF,F1,00,
3617115,00000194,false,Rx,0,4,EB,FA,00,F0,00,00,00,00,
3617373,000001D6,false,Rx,0,2,FF,F3,00,00,00,00,00,00,
3617377,000002A6,false,Rx,0,2,00,FC,00,00,00,00,00,00,
3619031,000000AA,false,Rx,0,8,5E,54,07,00,B8,0B,94,00,
3619038,000000A8,false,Rx,0,8,08,0A,21,E0,21,1F,0F,04,
3619043,000000A9,false,Rx,0,8,F3,0A,79,DF,1D,C7,E0,21,
3619048,000000BA,false,Rx,0,7,03,FF,0F,00,00,57,8A,00,
3626934,000000B6,false,Rx,0,5,0A,0A,80,00,C8,00,00,00,
3627160,000000C4,false,Rx,0,7,42,08,FC,00,00,FF,F1,00,
3627385,000000CE,false,Rx,0,8,00,00,00,00,00,00,00,00,
