Time Stamp,ID,Extended,Dir,Bus,LEN,D1,D2,D3,D4,D5,D6,D7,D8
33366317,000000B6,false,Rx,0,5,0A,0A,80,00,C8,00,00,00,
33366322,000000C4,false,Rx,0,7,30,0A,FC,00,00,FF,F1,00,
33366327,000000CE,false,Rx,0,8,00,00,00,00,00,00,00,00,
33366332,0000019E,false,Rx,0,8,00,EA,DF,FC,FE,20,00,86,
33366337,000001A0,false,Rx,0,8,00,80,00,00,80,00,A8,4B,
33366342,000002B2,false,Rx,0,8,00,00,00,00,0F,80,00,04,
33366581,000001A6,false,Rx,0,8,00,00,00,00,00,00,60,FE,
33369227,000000A8,false,Rx,0,8,9E,0C,FA,00,FA,F0,03,00,
33369458,000000A9,false,Rx,0,8,FE,5C,A0,0F,32,A0,6F,07,
33369681,000000AA,false,Rx,0,8,36,0C,FA,00,00,00,84,00,
33375334,000000C4,false,Rx,0,7,30,0A,FC,00,00,FF,F1,00,
33375339,000001D6,false,Rx,0,2,FF,F3,00,00,00,00,00,00,
33379039,000000A8,false,Rx,0,8,9F,0D,FA,00,FA,F0,03,00,
33379270,000000A9,false,Rx,0,8,FF,5D,A0,0F,32,A0,6F,07,
33379677,000000AA,false,Rx,0,8,37,0D,FA,00,00,00,84,00,
33386486,000000B6,false,Rx,0,5,0B,0B,80,00,C8,00,00,00,
33386491,000000C4,false,Rx,0,7,30,0A,FC,00,00,FF,F1,00,
33386496,000000CE,false,Rx,0,8,00,00,00,00,00,00,00,00,
33386502,0000019E,false,Rx,0,8,00,EA,DF,FC,FE,20,00,86,
33386507,000001A0,false,Rx,0,8,00,80,00,00,80,00,B8,5B,
33386512,000002B2,false,Rx,0,8,00,00,00,00,0F,80,00,04,
33389143,000000A8,false,Rx,0,8,A0,0E,FA,00,FA,F0,03,00,
33389374,000000A9,false,Rx,0,8,00,5E,A0,0F,32,A0,6F,07,
33389597,000000AA,false,Rx,0,8,38,0E,FA,00,00,00,84,00,
33395145,000000C4,false,Rx,0,7,30,0A,FC,00,00,FF,F1,00,
33399081,000000A8,false,Rx,0,8,92,00,FA,00,FA,F0,03,00,
33399347,000000A9,false,Rx,0,8,F2,50,A0,0F,32,A0,6F,07,
33399754,000000AA,false,Rx,0,8,2A,00,FA,00,00,00,84,00,
33406574,000000B6,false,Rx,0,5,0C,0C,80,00,C8,00,00,00,
33406579,000000C4,false,Rx,0,7,30,0A,FC,00,00,FF,F1,00,
33406584,000000CE,false,Rx,0,8,00,00,00,00,00,00,00,00,
33406589,0000019E,false,Rx,0,8,00,EA,EF,FC,FE,20,00,96,
33406595,000001A0,false,Rx,0,8,00,80,00,00,80,00,C8,6B,
33406600,000002B2,false,Rx,0,8,00,00,00,00,0F,80,00,04,
33409109,000000A8,false,Rx,0,8,93,01,FA,00,FA,F0,03,00,
33409381,000000A9,false,Rx,0,8,F3,51,A0,0F,32,A0,6F,07,
33409605,000000AA,false,Rx,0,8,2B,01,FA,00,00,00,84,00,
33409828,000001D0,false,Rx,0,8,3B,FF,41,C3,00,00,CD,A6,
33415221,000000C4,false,Rx,0,7,30,0A,FC,00,00,FF,F1,00,
33415226,000002A6,false,Rx,0,2,00,FC,00,00,00,00,00,00,
33419145,000000A8,false,Rx,0,8,94,02,FA,00,FA,F0,03,00,
33419372,000000A9,false,Rx,0,8,F4,52,A0,0F,32,A0,6F,07,
33419604,000000AA,false,Rx,0,8,2C,02,FA,00,00,00,84,00,
33424953,000000B6,false,Rx,0,5,0D,0D,80,00,C8,00,00,00,
33426741,000000C4,false,Rx,0,7,30,0A,FC,00,00,FF,F1,00,
33426746,000000CE,false,Rx,0,8,00,00,00,00,00,00,00,00,
33426751,0000019E,false,Rx,0,8,00,EA,EF,FC,FE,20,00,96,
33426756,000001A0,false,Rx,0,8,00,80,00,00,80,00,D8,7B,
33426761,000002B2,false,Rx,0,8,00,00,00,00,0F,80,00,04,
33429092,000000A8,false,Rx,0,8,95,03,FA,00,FA,F0,03,00,
33429323,000000A9,false,Rx,0,8,F5,53,A0,0F,32,A0,6F,07,
33429730,000000AA,false,Rx,0,8,2D,03,FA,00,00,00,84,00,
33435085,000000C4,false,Rx,0,7,30,0A,FC,00,00,FF,F1,00,
33438433,00000130,false,Rx,0,5,41,43,21,0F,FB,00,00,00,
33439021,000000A8,false,Rx,0,8,96,04,FA,00,FA,F0,03,00,
33439254,000000A9,false,Rx,0,8,F6,54,A0,0F,32,A0,6F,07,
33439478,000000AA,false,Rx,0,8,2E,04,FA,00,00,00,84,00,
33444279,00000497,false,Rx,0,8,29,52,FF,FF,FF,FF,FF,FF,
33445056,000000B6,false,Rx,0,5,0E,0E,80,00,C8,00,00,00,
33446743,000000C4,false,Rx,0,7,30,0A,FC,00,00,FF,F1,00,
33446748,000000CE,false,Rx,0,8,00,00,00,00,00,00,00,00,
33446753,0000019E,false,Rx,0,8,00,EA,EF,FC,FE,20,00,96,
33446758,000001A0,false,Rx,0,8,00,80,00,00,80,00,E8,8B,
33446763,000002B2,false,Rx,0,8,00,00,00,00,0F,80,00,04,
33449029,000000A8,false,Rx,0,8,97,05,FA,00,FA,F0,03,00,
33449257,000000A9,false,Rx,0,8,F7,55,A0,0F,32,A0,6F,07,
33449672,000000AA,false,Rx,0,8,2F,05,FA,00,00,00,84,00,
33455037,000000C4,false,Rx,0,7,30,0A,FC,00,00,FF,F1,00,
33459213,000000A8,false,Rx,0,8,98,06,FA,00,FA,F0,03,00,
33459445,000000A9,false,Rx,0,8,F8,56,A0,0F,32,A0,6F,07,
33459670,000000AA,false,Rx,0,8,30,06,FA,00,00,00,84,00,
33465021,000000B6,false,Rx,0,5,FF,00,80,00,C8,00,00,00,
33465256,000000C4,false,Rx,0,7,30,0A,FC,00,00,FF,F1,00,
33466916,000000CE,false,Rx,0,8,00,00,00,00,00,00,00,00,
33466921,0000019E,false,Rx,0,8,00,EA,EF,FC,FE,20,00,96,
33466926,000001A0,false,Rx,0,8,00,80,00,00,80,00,08,AA,
33466932,000002B2,false,Rx,0,8,00,00,00,00,0F,80,00,04,
33466937,000001A6,false,Rx,0,8,00,00,00,00,00,00,F0,FF,
33466942,000000C8,false,Rx,0,6,24,0A,2C,00,00,0C,00,00,
33469041,000000A8,false,Rx,0,8,99,07,FA,00,FA,F0,03,00,
33469453,000000A9,false,Rx,0,8,F9,57,A0,0F,32,A0,6F,07,
33469676,000000AA,false,Rx,0,8,31,07,FA,00,00,00,84,00,
33475092,000000C4,false,Rx,0,7,30,0A,FC,00,00,FF,F1,00,
33475323,000001D6,false,Rx,0,2,FF,F3,00,00,00,00,00,00,
33479207,000000A8,false,Rx,0,8,9A,08,FA,00,FA,F0,03,00,
33479439,000000A9,false,Rx,0,8,FA,58,A0,0F,32,A0,6F,07,
33479662,000000AA,false,Rx,0,8,32,08,FA,00,00,00,84,00,
33485014,000000B6,false,Rx,0,5,00,01,80,00,C8,00,00,00,
33485247,000000C4,false,Rx,0,7,30,0A,FC,00,00,FF,F1,00,
33485470,000000CE,false,Rx,0,8,00,00,00,00,00,00,00,00,
33487138,0000019E,false,Rx,0,8,00,EA,EF,FC,FE,20,00,96,
33487143,000001A0,false,Rx,0,8,00,80,00,00,80,00,18,BA,
33487148,000002B2,false,Rx,0,8,00,00,00,00,0F,80,00,04,
33489055,000000A8,false,Rx,0,8,9B,09,FA,00,FA,F0,03,00,
33489301,000000A9,false,Rx,0,8,FB,59,A0,0F,32,A0,6F,07,
33489546,000000AA,false,Rx,0,8,33,09,FA,00,00,00,84,00,
33495092,000000C4,false,Rx,0,7,30,0A,FC,00,00,FF,F1,00,
33498985,000000A8,false,Rx,0,8,9C,0A,FA,00,FA,F0,03,00,
33499212,000000A9,false,Rx,0,8,FC,5A,A0,0F,32,A0,6F,07,
33499442,000000AA,false,Rx,0,8,34,0A,FA,00,00,00,84,00,
33504983,000000B6,false,Rx,0,5,02,02,80,00,C8,00,00,00,
33505210,000000C4,false,Rx,0,7,30,0A,FC,00,00,FF,F1,00,
33505625,000000CE,false,Rx,0,8,00,00,00,00,00,00,00,00,
33507299,0000019E,false,Rx,0,8,00,EA,EF,FC,FE,20,00,96,
33507304,000001A0,false,Rx,0,8,00,80,00,00,80,00,28,CA,
33507309,000002B2,false,Rx,0,8,00,00,00,00,0F,80,00,04,
33509027,000000A8,false,Rx,0,8,9D,0B,FA,00,FA,F0,03,00,
33509260,000000A9,false,Rx,0,8,FD,5B,A0,0F,32,A0,6F,07,
33509485,000000AA,false,Rx,0,8,35,0B,FA,00,00,00,84,00,
33509709,000001D0,false,Rx,0,8,3B,FF,42,C3,00,00,CD,A6,
33515157,000000C4,false,Rx,0,7,30,0A,FC,00,00,FF,F1,00,
33519064,000000A8,false,Rx,0,8,9E,0C,FA,00,FA,F0,03,00,
33519302,000000A9,false,Rx,0,8,FE,5C,A0,0F,32,A0,6F,07,
33519526,000000AA,false,Rx,0,8,36,0C,FA,00,00,00,84,00,
33525067,000000B6,false,Rx,0,5,03,03,80,00,C8,00,00,00,
33525301,000000C4,false,Rx,0,7,30,0A,FC,00,00,FF,F1,00,
33525529,000000CE,false,Rx,0,8,00,00,00,00,00,00,00,00,
33525753,0000019E,false,Rx,0,8,00,EA,EF,FC,FE,20,00,96,
127537,000001A0,false,Rx,0,8,00,80,00,00,80,00,38,DA,
127542,000002B2,false,Rx,0,8,00,00,00,00,0F,80,00,04,
127548,000004A9,false,Rx,0,8,00,52,FF,FF,FF,FF,FF,FF,
129082,000000A8,false,Rx,0,8,9F,0D,FA,00,FA,F0,03,00,
129316,000000A9,false,Rx,0,8,FF,5D,A0,0F,32,A0,6F,07,
129722,000000AA,false,Rx,0,8,37,0D,FA,00,00,00,84,00,
135082,000000C4,false,Rx,0,7,30,0A,FC,00,00,FF,F1,00,
138423,00000130,false,Rx,0,5,41,43,21,0F,0C,00,00,00,
139204,000000A8,false,Rx,0,8,A0,0E,FA,00,FA,F0,03,00,
139460,000000A9,false,Rx,0,8,00,5E,A0,0F,32,A0,6F,07,
139697,000000AA,false,Rx,0,8,38,0E,FA,00,00,00,84,00,
145143,000000B6,false,Rx,0,5,04,04,80,00,C8,00,00,00,
145374,000000C4,false,Rx,0,7,30,0A,FC,00,00,FF,F1,00,
145597,000000CE,false,Rx,0,8,00,00,00,00,00,00,00,00,
145824,0000019E,false,Rx,0,8,00,EA,EF,FC,FE,20,00,96,
147483,000001A0,false,Rx,0,8,00,80,00,00,80,00,48,EA,
147488,000002B2,false,Rx,0,8,00,00,00,00,0F,80,00,04,
149194,000000A8,false,Rx,0,8,92,00,FA,00,FA,F0,03,00,
149429,000000A9,false,Rx,0,8,F2,50,A0,0F,32,A0,6F,07,
149661,000000AA,false,Rx,0,8,2A,00,FA,00,00,00,84,00,
155104,000000C4,false,Rx,0,7,30,0A,FC,00,00,FF,F1,00,
158995,000000A8,false,Rx,0,8,93,01,FA,00,FA,F0,03,00,
159220,000000A9,false,Rx,0,8,F3,51,A0,0F,32,A0,6F,07,
159451,000000AA,false,Rx,0,8,2B,01,FA,00,00,00,84,00,
164984,000000B6,false,Rx,0,5,05,05,80,00,C8,00,00,00,
165211,000000C4,false,Rx,0,7,30,0A,FC,00,00,FF,F1,00,
165443,000000CE,false,Rx,0,8,00,00,00,00,00,00,00,00,
165667,0000019E,false,Rx,0,8,00,EA,EF,FC,FE,20,00,96,
167526,000001A0,false,Rx,0,8,00,80,00,00,80,00,58,FA,
167531,000002B2,false,Rx,0,8,00,00,00,00,0F,80,00,04,
167537,000001A6,false,Rx,0,8,00,00,00,00,00,00,80,F1,
168909,000000A8,false,Rx,0,8,94,02,FA,00,FA,F0,03,00,
169135,000000A9,false,Rx,0,8,F4,52,A0,0F,32,A0,6F,07,
169367,000000AA,false,Rx,0,8,2C,02,FA,00,00,00,84,00,
175171,000000C4,false,Rx,0,7,30,0A,FC,00,00,FF,F1,00,
175403,000001D6,false,Rx,0,2,FF,F3,00,00,00,00,00,00,
179109,000000A8,false,Rx,0,8,95,03,FA,00,FA,F0,03,00,
179340,000000A9,false,Rx,0,8,F5,53,A0,0F,32,A0,6F,07,
179562,000000AA,false,Rx,0,8,2D,03,FA,00,00,00,84,00,
185099,000000B6,false,Rx,0,5,06,06,80,00,C8,00,00,00,
185333,000000C4,false,Rx,0,7,30,0A,FC,00,00,FF,F1,00,
185557,000000CE,false,Rx,0,8,00,00,00,00,00,00,00,00,
185782,0000019E,false,Rx,0,8,00,EA,EF,FC,FE,20,00,96,
186006,000001A0,false,Rx,0,8,00,80,00,00,80,00,68,0B,
187616,000002B2,false,Rx,0,8,00,00,00,00,0F,80,00,04,
189157,000000A8,false,Rx,0,8,96,04,FA,00,FA,F0,03,00,
189382,000000A9,false,Rx,0,8,F6,54,A0,0F,32,A0,6F,07,
189617,000000AA,false,Rx,0,8,2E,04,FA,00,00,00,84,00,
195200,000000C4,false,Rx,0,7,30,0A,FC,00,00,FF,F1,00,
199093,000000A8,false,Rx,0,8,97,05,FA,00,FA,F0,03,00,
199324,000000A9,false,Rx,0,8,F7,55,A0,0F,32,A0,6F,07,
199732,000000AA,false,Rx,0,8,2F,05,FA,00,00,00,84,00,
205088,000000B6,false,Rx,0,5,07,07,80,00,C8,00,00,00,
205324,000000C4,false,Rx,0,7,30,0A,FC,00,00,FF,F1,00,
205548,000000CE,false,Rx,0,8,00,00,00,00,00,00,00,00,
205772,0000019E,false,Rx,0,8,00,EA,0F,FC,FE,20,00,B5,
205997,000001A0,false,Rx,0,8,00,80,00,00,80,00,78,1B,
206224,000002B2,false,Rx,0,8,00,00,00,00,0F,80,00,04,
207794,00000480,false,Rx,0,8,12,42,FD,FF,FF,FF,FF,FF,
208967,000000A8,false,Rx,0,8,98,06,FA,00,FA,F0,03,00,
209198,000000A9,false,Rx,0,8,F8,56,A0,0F,32,A0,6F,07,
209430,000000AA,false,Rx,0,8,30,06,FA,00,00,00,84,00,
209653,000001D0,false,Rx,0,8,3B,FF,42,C3,00,00,CD,A6,
215079,000000C4,false,Rx,0,7,30,0A,FC,00,00,FF,F1,00,
219150,000000A8,false,Rx,0,8,99,07,FA,00,FA,F0,03,00,
219384,000000A9,false,Rx,0,8,F9,57,A0,0F,32,A0,6F,07,
219608,000000AA,false,Rx,0,8,31,07,FA,00,00,00,84,00,
224970,000000B6,false,Rx,0,5,08,08,80,00,C8,00,00,00,
225387,000000C4,false,Rx,0,7,30,0A,FC,00,00,FF,F1,00,
225611,000000CE,false,Rx,0,8,00,00,00,00,00,00,00,00,
225835,0000019E,false,Rx,0,8,00,EA,0F,FC,FE,20,00,B5,
226063,000001A0,false,Rx,0,8,00,80,00,00,80,00,88,2B,
226298,000002B2,false,Rx,0,8,00,00,00,00,0F,80,00,04,
228953,000000A8,false,Rx,0,8,9A,08,FA,00,FA,F0,03,00,
229180,000000A9,false,Rx,0,8,FA,58,A0,0F,32,A0,6F,07,
229426,000000AA,false,Rx,0,8,32,08,FA,00,00,00,84,00,
235037,000000C4,false,Rx,0,7,30,0A,FC,00,00,FF,F1,00,
238379,00000130,false,Rx,0,5,41,43,21,0F,1D,00,00,00,
238973,000000A8,false,Rx,0,8,9B,09,FA,00,FA,F0,03,00,
239199,000000A9,false,Rx,0,8,FB,59,A0,0F,32,A0,6F,07,
239429,000000AA,false,Rx,0,8,33,09,FA,00,00,00,84,00,
245151,000000B6,false,Rx,0,5,09,09,80,00,C8,00,00,00,
245382,000000C4,false,Rx,0,7,30,0A,FC,00,00,FF,F1,00,
245606,000000CE,false,Rx,0,8,00,00,00,00,00,00,00,00,
245831,0000019E,false,Rx,0,8,00,EA,0F,FC,FE,20,00,B5,
246055,000001A0,false,Rx,0,8,00,80,00,00,80,00,98,3B,
246287,000002B2,false,Rx,0,8,00,00,00,00,0F,80,00,04,
249022,000000A8,false,Rx,0,8,9C,0A,FA,00,FA,F0,03,00,
249256,000000A9,false,Rx,0,8,FC,5A,A0,0F,32,A0,6F,07,
249699,000000AA,false,Rx,0,8,34,0A,FA,00,00,00,84,00,
255084,000000C4,false,Rx,0,7,30,0A,FC,00,00,FF,F1,00,
259168,000000A8,false,Rx,0,8,9D,0B,FA,00,FA,F0,03,00,
259399,000000A9,false,Rx,0,8,FD,5B,A0,0F,32,A0,6F,07,
259624,000000AA,false,Rx,0,8,35,0B,FA,00,00,00,84,00,
265169,000000B6,false,Rx,0,5,0A,0A,80,00,C8,00,00,00,
265397,000000C4,false,Rx,0,7,30,0A,FC,00,00,FF,F1,00,
265621,000000CE,false,Rx,0,8,00,00,00,00,00,00,00,00,
265845,0000019E,false,Rx,0,8,00,EA,0F,FC,FE,20,00,B5,
266073,000001A0,false,Rx,0,8,00,80,00,00,80,00,A8,4B,
266308,000002B2,false,Rx,0,8,00,00,00,00,0F,80,00,04,
266533,000001A6,false,Rx,0,8,00,00,00,00,00,00,10,F3,
268133,000000C8,false,Rx,0,6,24,0A,7C,00,00,1C,00,00,
269131,000000A8,false,Rx,0,8,9E,0C,FA,00,FA,F0,03,00,
269366,000000A9,false,Rx,0,8,FE,5C,A0,0F,32,A0,6F,07,
269590,000000AA,false,Rx,0,8,36,0C,FA,00,00,00,84,00,
275168,000000C4,false,Rx,0,7,30,0A,FC,00,00,FF,F1,00,
275399,000001D6,false,Rx,0,2,FF,F3,00,00,00,00,00,00,
278917,000000A8,false,Rx,0,8,9F,0D,FA,00,FA,F0,03,00,
279143,000000A9,false,Rx,0,8,FF,5D,A0,0F,32,A0,6F,07,
279373,000000AA,false,Rx,0,8,37,0D,FA,00,00,00,84,00,
285092,000000B6,false,Rx,0,5,0B,0B,80,00,C8,00,00,00,
285323,000000C4,false,Rx,0,7,30,0A,FC,00,00,FF,F1,00,
285548,000000CE,false,Rx,0,8,00,00,00,00,00,00,00,00,
285772,0000019E,false,Rx,0,8,00,EA,0F,FC,FE,20,00,B5,
285996,000001A0,false,Rx,0,8,00,80,00,00,80,00,B8,5B,
286222,000002B2,false,Rx,0,8,00,00,00,00,0F,80,00,04,
288940,000000A8,false,Rx,0,8,A0,0E,FA,00,FA,F0,03,00,
289166,000000A9,false,Rx,0,8,00,5E,A0,0F,32,A0,6F,07,
289397,000000AA,false,Rx,0,8,38,0E,FA,00,00,00,84,00,
295197,000000C4,false,Rx,0,7,30,0A,FC,00,00,FF,F1,00,
299106,000000A8,false,Rx,0,8,92,00,FA,00,FA,F0,03,00,
299340,000000A9,false,Rx,0,8,F2,50,A0,0F,32,A0,6F,07,
299565,000000AA,false,Rx,0,8,2A,00,FA,00,00,00,84,00,
299790,00000492,false,Rx,0,8,17,52,FF,FF,FF,FF,FF,FF,
305142,000000B6,false,Rx,0,5,0C,0C,80,00,C8,00,00,00,
305373,000000C4,false,Rx,0,7,30,0A,FC,00,00,FF,F1,00,
305601,000000CE,false,Rx,0,8,00,00,00,00,00,00,00,00,
305826,0000019E,false,Rx,0,8,00,EA,0F,FC,FE,20,00,B5,
306050,000001A0,false,Rx,0,8,00,80,00,00,80,00,C8,6B,
306284,000002B2,false,Rx,0,8,00,00,00,00,0F,80,00,04,
308849,000000A8,false,Rx,0,8,93,01,FA,00,FA,F0,03,00,
309074,000000A9,false,Rx,0,8,F3,51,A0,0F,32,A0,6F,07,
309300,000000AA,false,Rx,0,8,2B,01,FA,00,00,00,84,00,
309708,000001D0,false,Rx,0,8,3B,FF,43,C3,00,00,CD,A6,
315154,000000C4,false,Rx,0,7,30,0A,FC,00,00,FF,F1,00,
319064,000000A8,false,Rx,0,8,94,02,FA,00,FA,F0,03,00,
319298,000000A9,false,Rx,0,8,F4,52,A0,0F,32,A0,6F,07,
319522,000000AA,false,Rx,0,8,2C,02,FA,00,00,00,84,00,
325086,000000B6,false,Rx,0,5,0D,0D,80,00,C8,00,00,00,
325320,000000C4,false,Rx,0,7,30,0A,FC,00,00,FF,F1,00,
325543,000000CE,false,Rx,0,8,00,00,00,00,00,00,00,00,
325771,0000019E,false,Rx,0,8,00,EA,0F,FC,FE,20,00,B5,
325995,000001A0,false,Rx,0,8,00,80,00,00,80,00,D8,7B,
326221,000002B2,false,Rx,0,8,00,00,00,00,0F,80,00,04,
328874,000000A8,false,Rx,0,8,95,03,FA,00,FA,F0,03,00,
329111,000000A9,false,Rx,0,8,F5,53,A0,0F,32,A0,6F,07,
329342,000000AA,false,Rx,0,8,2D,03,FA,00,00,00,84,00,
335166,000000C4,false,Rx,0,7,30,0A,FC,00,00,FF,F1,00,
336679,000001B5,false,Rx,0,6,00,FF,02,00,88,FF,00,00,
338924,000000A8,false,Rx,0,8,96,04,FA,00,FA,F0,03,00,
339148,000000A9,false,Rx,0,8,F6,54,A0,0F,32,A0,6F,07,
339562,000000AA,false,Rx,0,8,2E,04,FA,00,00,00,84,00,
339786,00000130,false,Rx,0,5,41,43,21,0F,2E,00,00,00,
345140,000000B6,false,Rx,0,5,0E,0E,80,00,C8,00,00,00,
345371,000000C4,false,Rx,0,7,30,0A,FC,00,00,FF,F1,00,
345595,000000CE,false,Rx,0,8,00,00,00,00,00,00,00,00,
345823,0000019E,false,Rx,0,8,00,EA,0F,FC,FE,20,00,B5,
346047,000001A0,false,Rx,0,8,00,80,00,00,80,00,E8,8B,
346279,000002B2,false,Rx,0,8,00,00,00,00,0F,80,00,04,
348853,000000A8,false,Rx,0,8,97,05,FA,00,FA,F0,03,00,
349271,000000A9,false,Rx,0,8,F7,55,A0,0F,32,A0,6F,07,
349499,000000AA,false,Rx,0,8,2F,05,FA,00,00,00,84,00,
355070,000000C4,false,Rx,0,7,30,0A,FC,00,00,FF,F1,00,
359151,000000A8,false,Rx,0,8,98,06,FA,00,FA,F0,03,00,
359380,000000A9,false,Rx,0,8,F8,56,A0,0F,32,A0,6F,07,
359605,000000AA,false,Rx,0,8,30,06,FA,00,00,00,84,00,
365142,000000B6,false,Rx,0,5,FF,00,80,00,C8,00,00,00,
365373,000000C4,false,Rx,0,7,30,0A,FC,00,00,FF,F1,00,
365598,000000CE,false,Rx,0,8,00,00,00,00,00,00,00,00,
365826,0000019E,false,Rx,0,8,00,EA,0F,FC,FE,20,00,B5,
366050,000001A0,false,Rx,0,8,00,80,00,00,80,00,08,AA,
366283,000002B2,false,Rx,0,8,00,00,00,00,0F,80,00,04,
366508,000001A6,false,Rx,0,8,00,00,00,00,00,00,A0,F4,
366732,00000310,false,Rx,0,7,67,2A,35,4F,00,FC,21,00,
368893,000000A8,false,Rx,0,8,99,07,FA,00,FA,F0,03,00,
369134,000000A9,false,Rx,0,8,F9,57,A0,0F,32,A0,6F,07,
369365,000000AA,false,Rx,0,8,31,07,FA,00,00,00,84,00,
375138,000000C4,false,Rx,0,7,30,0A,FC,00,00,FF,F1,00,
375365,000001D6,false,Rx,0,2,FF,F3,00,00,00,00,00,00,
379073,000000A8,false,Rx,0,8,9A,08,FA,00,FA,F0,03,00,
379308,000000A9,false,Rx,0,8,FA,58,A0,0F,32,A0,6F,07,
379532,000000AA,false,Rx,0,8,32,08,FA,00,00,00,84,00,
384337,00000497,false,Rx,0,8,29,52,FF,FF,FF,FF,FF,FF,
385108,000000B6,false,Rx,0,5,00,01,80,00,C8,00,00,00,
385339,000000C4,false,Rx,0,7,30,0A,FC,00,00,FF,F1,00,
385562,000000CE,false,Rx,0,8,00,00,00,00,00,00,00,00,
385787,0000019E,false,Rx,0,8,00,EA,0F,FC,FE,20,00,B5,
386010,000001A0,false,Rx,0,8,00,80,00,00,80,00,18,BA,
386246,000002B2,false,Rx,0,8,00,00,00,00,0F,80,00,04,
389152,000000A8,false,Rx,0,8,9B,09,FA,00,FA,F0,03,00,
389381,000000A9,false,Rx,0,8,FB,59,A0,0F,32,A0,6F,07,
389606,000000AA,false,Rx,0,8,33,09,FA,00,00,00,84,00,
395093,000000C4,false,Rx,0,7,30,0A,FC,00,00,FF,F1,00,
398984,000000A8,false,Rx,0,8,9C,0A,FA,00,FA,F0,03,00,
399402,000000A9,false,Rx,0,8,FC,5A,A0,0F,32,A0,6F,07,
399628,000000AA,false,Rx,0,8,34,0A,FA,00,00,00,84,00,
404981,000000B6,false,Rx,0,5,02,02,80,00,C8,00,00,00,
405206,000000C4,false,Rx,0,7,30,0A,FC,00,00,FF,F1,00,
405622,000000CE,false,Rx,0,8,00,00,00,00,00,00,00,00,
405846,0000019E,false,Rx,0,8,00,EA,0F,FC,FE,20,00,B5,
406069,000001A0,false,Rx,0,8,00,80,00,00,80,00,28,CA,
406308,000002B2,false,Rx,0,8,00,00,00,00,0F,80,00,04,
408840,000000A8,false,Rx,0,8,9D,0B,FA,00,FA,F0,03,00,
409075,000000A9,false,Rx,0,8,FD,5B,A0,0F,32,A0,6F,07,
409309,000000AA,false,Rx,0,8,35,0B,FA,00,00,00,84,00,
409727,000001D0,false,Rx,0,8,3B,FF,43,C3,00,00,CD,A6,
415093,000000C4,false,Rx,0,7,30,0A,FC,00,00,FF,F1,00,
418863,000000A8,false,Rx,0,8,9E,0C,FA,00,FA,F0,03,00,
419087,000000A9,false,Rx,0,8,FE,5C,A0,0F,32,A0,6F,07,
419314,000000AA,false,Rx,0,8,36,0C,FA,00,00,00,84,00,
425036,000000B6,false,Rx,0,5,03,03,80,00,C8,00,00,00,
425269,000000C4,false,Rx,0,7,30,0A,FC,00,00,FF,F1,00,
425493,000000CE,false,Rx,0,8,00,00,00,00,00,00,00,00,
425732,0000019E,false,Rx,0,8,00,EA,1F,FC,FE,20,00,C5,
425963,000001A0,false,Rx,0,8,00,80,00,00,80,00,38,DA,
426196,000002B2,false,Rx,0,8,00,00,00,00,0F,80,00,04,
428859,000000A8,false,Rx,0,8,BF,1D,FA,10,FA,F0,03,00,
429301,000000A9,false,Rx,0,8,01,5D,A1,0F,32,A1,6F,07,
429524,000000AA,false,Rx,0,8,47,1D,FA,00,00,00,84,00,
435142,000000C4,false,Rx,0,7,30,0A,FC,00,00,FF,F1,00,
438302,00000130,false,Rx,0,5,41,43,21,0F,30,00,00,00,
439072,000000A8,false,Rx,0,8,C0,1E,FA,10,FA,F0,03,00,
439306,000000A9,false,Rx,0,8,03,5E,A1,0F,32,A1,6F,07,
439531,000000AA,false,Rx,0,8,48,1E,FA,00,00,00,84,00,
445064,000000B6,false,Rx,0,5,04,04,80,00,C8,00,00,00,
445298,000000C4,false,Rx,0,7,30,0A,FC,00,00,FF,F1,00,
445523,000000CE,false,Rx,0,8,00,00,00,00,00,00,00,00,
445746,0000019E,false,Rx,0,8,00,EA,1F,FC,FE,20,00,C5,
445969,000001A0,false,Rx,0,8,00,80,00,00,80,00,48,EA,
446386,000002B2,false,Rx,0,8,00,00,00,00,0F,80,00,04,
448859,000000A8,false,Rx,0,8,B2,10,FA,10,FA,F0,03,00,
449101,000000A9,false,Rx,0,8,F4,50,A1,0F,32,A1,6F,07,
449336,000000AA,false,Rx,0,8,3A,10,FA,00,00,00,84,00,
455133,000000C4,false,Rx,0,7,30,0A,FC,00,00,FF,F1,00,
458838,000000A8,false,Rx,0,8,B3,11,FA,10,FA,F0,03,00,
459063,000000A9,false,Rx,0,8,F5,51,A1,0F,32,A1,6F,07,
459479,000000AA,false,Rx,0,8,3B,11,FA,00,00,00,84,00,
465013,000000B6,false,Rx,0,5,05,05,80,00,C8,00,00,00,
465246,000000C4,false,Rx,0,7,30,0A,FC,00,00,FF,F1,00,
465469,000000CE,false,Rx,0,8,00,00,00,00,00,00,00,00,
465693,0000019E,false,Rx,0,8,00,EA,1F,FC,FE,20,00,C5,
466105,000001A0,false,Rx,0,8,00,80,00,00,80,00,58,FA,
466335,000002B2,false,Rx,0,8,00,00,00,00,0F,80,00,04,
466560,000001A6,false,Rx,0,8,00,00,00,00,00,00,30,F6,
466820,000000C8,false,Rx,0,6,24,0A,CC,00,00,2C,00,00,
466825,00000374,false,Rx,0,5,00,00,00,00,FC,00,00,00,
467235,000004A9,false,Rx,0,8,00,52,FF,FF,FF,FF,FF,FF,
469053,000000A8,false,Rx,0,8,B4,12,FA,10,FA,F0,03,00,
469058,000000A9,false,Rx,0,8,F6,52,A1,0F,32,A1,6F,07,
469305,000000AA,false,Rx,0,8,3C,12,FA,00,00,00,84,00,
475090,000000C4,false,Rx,0,7,30,0A,FC,00,00,FF,F1,00,
475323,000001D6,false,Rx,0,2,FF,F3,00,00,00,00,00,00,
478908,000000A8,false,Rx,0,8,B5,13,FA,10,FA,F0,03,00,
479324,000000A9,false,Rx,0,8,F7,53,A1,0F,32,A1,6F,07,
479546,000000AA,false,Rx,0,8,3D,13,FA,00,00,00,84,00,
485085,000000B6,false,Rx,0,5,06,06,80,00,C8,00,00,00,
485318,000000C4,false,Rx,0,7,30,0A,FC,00,00,FF,F1,00,
485542,000000CE,false,Rx,0,8,00,00,00,00,00,00,00,00,
485766,0000019E,false,Rx,0,8,00,EA,1F,FC,FE,20,00,C5,
485991,000001A0,false,Rx,0,8,00,80,00,00,80,00,68,0B,
486216,000002B2,false,Rx,0,8,00,00,00,00,0F,80,00,04,
489056,000000A8,false,Rx,0,8,B6,14,FA,10,FA,F0,03,00,
489061,000000A9,false,Rx,0,8,F8,54,A1,0F,32,A1,6F,07,
489314,000000AA,false,Rx,0,8,3E,14,FA,00,00,00,84,00,
495280,000000C4,false,Rx,0,7,30,0A,FC,00,00,FF,F1,00,
498804,000000A8,false,Rx,0,8,B7,15,FA,10,FA,F0,03,00,
499028,000000A9,false,Rx,0,8,F9,55,A1,0F,32,A1,6F,07,
499263,000000AA,false,Rx,0,8,3F,15,FA,00,00,00,84,00,
505164,000000B6,false,Rx,0,5,07,07,80,00,C8,00,00,00,
505395,000000C4,false,Rx,0,7,30,0A,FC,00,00,FF,F1,00,
505623,000000CE,false,Rx,0,8,00,00,00,00,00,00,00,00,
505851,0000019E,false,Rx,0,8,00,EA,1F,FC,FE,20,00,C5,
506075,000001A0,false,Rx,0,8,00,80,00,00,80,00,78,1B,
506308,000002B2,false,Rx,0,8,00,00,00,00,0F,80,00,04,
509160,000000A8,false,Rx,0,8,B8,16,FA,10,FA,F0,03,00,
509165,000000A9,false,Rx,0,8,FA,56,A1,0F,32,A1,6F,07,
509414,000000AA,false,Rx,0,8,40,16,FA,00,00,00,84,00,
509637,000001D0,false,Rx,0,8,3B,FF,44,C3,00,00,CD,A6,
515130,000000C4,false,Rx,0,7,30,0A,FC,00,00,FF,F1,00,
519044,000000A8,false,Rx,0,8,B9,17,FA,10,FA,F0,03,00,
519291,000000A9,false,Rx,0,8,FB,57,A1,0F,32,A1,6F,07,
519526,000000AA,false,Rx,0,8,41,17,FA,00,00,00,84,00,
525070,000000B6,false,Rx,0,5,08,08,80,00,C8,00,00,00,
525305,000000C4,false,Rx,0,7,30,0A,FC,00,00,FF,F1,00,
525529,000000CE,false,Rx,0,8,00,00,00,00,00,00,00,00,
525754,0000019E,false,Rx,0,8,00,EA,1F,FC,FE,20,00,C5,
525977,000001A0,false,Rx,0,8,00,80,00,00,80,00,88,2B,
526203,000002B2,false,Rx,0,8,00,00,00,00,0F,80,00,04,
529411,000000A8,false,Rx,0,8,BA,18,FA,10,FA,F0,03,00,
529416,000000A9,false,Rx,0,8,FC,58,A1,0F,32,A1,6F,07,
529421,000000AA,false,Rx,0,8,42,18,FA,00,00,00,84,00,
535133,000000C4,false,Rx,0,7,30,0A,FC,00,00,FF,F1,00,
538478,00000130,false,Rx,0,5,41,43,21,0F,41,00,00,00,
538882,000000A8,false,Rx,0,8,BB,19,FA,10,FA,F0,03,00,
539108,000000A9,false,Rx,0,8,FD,59,A1,0F,32,A1,6F,07,
539522,000000AA,false,Rx,0,8,43,19,FA,00,00,00,84,00,
545059,000000B6,false,Rx,0,5,09,09,80,00,C8,00,00,00,
545294,000000C4,false,Rx,0,7,30,0A,FC,00,00,FF,F1,00,
545518,000000CE,false,Rx,0,8,00,00,00,00,00,00,00,00,
545927,0000019E,false,Rx,0,8,00,EA,1F,FC,FE,20,00,C5,
546152,000001A0,false,Rx,0,8,00,80,00,00,80,00,98,3B,
546382,000002B2,false,Rx,0,8,00,00,00,00,0F,80,00,04,
549310,00000480,false,Rx,0,8,12,42,FD,FF,FF,FF,FF,FF,
549315,000000A8,false,Rx,0,8,BC,1A,FA,10,FA,F0,03,00,
549320,000000A9,false,Rx,0,8,FE,5A,A1,0F,32,A1,6F,07,
549561,000000AA,false,Rx,0,8,44,1A,FA,00,00,00,84,00,
555150,000000C4,false,Rx,0,7,30,0A,FC,00,00,FF,F1,00,
558675,000000A8,false,Rx,0,8,BD,1B,FA,10,FA,F0,03,00,
559083,000000A9,false,Rx,0,8,FF,5B,A1,0F,32,A1,6F,07,
559316,000000AA,false,Rx,0,8,45,1B,FA,00,00,00,84,00,
565027,000000B6,false,Rx,0,5,0A,0A,80,00,C8,00,00,00,
565263,000000C4,false,Rx,0,7,30,0A,FC,00,00,FF,F1,00,
565487,000000CE,false,Rx,0,8,00,00,00,00,00,00,00,00,
565712,0000019E,false,Rx,0,8,00,EA,1F,FC,FE,20,00,C5,
565935,000001A0,false,Rx,0,8,00,80,00,00,80,00,A8,4B,
566163,000002B2,false,Rx,0,8,00,00,00,00,0F,80,00,04,
566577,000001A6,false,Rx,0,8,00,00,00,00,00,00,C0,F7,
569484,000000A8,false,Rx,0,8,BE,1C,FA,10,FA,F0,03,00,
569489,000000A9,false,Rx,0,8,00,5C,A1,0F,32,A1,6F,07,
569494,000000AA,false,Rx,0,8,46,1C,FA,00,00,00,84,00,
575112,000000C4,false,Rx,0,7,30,0A,FC,00,00,FF,F1,00,
575343,000001D6,false,Rx,0,2,FF,F3,00,00,00,00,00,00,
578866,000000A8,false,Rx,0,8,BF,1D,FA,10,FA,F0,03,00,
579094,000000A9,false,Rx,0,8,01,5D,A1,0F,32,A1,6F,07,
579326,000000AA,false,Rx,0,8,47,1D,FA,00,00,00,84,00,
585044,000000B6,false,Rx,0,5,0B,0B,80,00,C8,00,00,00,
585278,000000C4,false,Rx,0,7,30,0A,FC,00,00,FF,F1,00,
585503,000000CE,false,Rx,0,8,00,00,00,00,00,00,00,00,
585726,0000019E,false,Rx,0,8,00,EA,1F,FC,FE,20,00,C5,
585950,000001A0,false,Rx,0,8,00,80,00,00,80,00,B8,5B,
586369,000002B2,false,Rx,0,8,00,00,00,00,0F,80,00,04,
589607,000000A8,false,Rx,0,8,C0,1E,FA,10,FA,F0,03,00,
589612,000000A9,false,Rx,0,8,03,5E,A1,0F,32,A1,6F,07,
589617,000000AA,false,Rx,0,8,48,1E,FA,00,00,00,84,00,
595262,000000C4,false,Rx,0,7,30,0A,FC,00,00,FF,F1,00,
598967,000000A8,false,Rx,0,8,B2,10,FA,10,FA,F0,03,00,
599194,000000A9,false,Rx,0,8,F4,50,A1,0F,32,A1,6F,07,
599425,000000AA,false,Rx,0,8,3A,10,FA,00,00,00,84,00,
605146,000000B6,false,Rx,0,5,0C,0C,80,00,C8,00,00,00,
605378,000000C4,false,Rx,0,7,30,0A,FC,00,00,FF,F1,00,
605601,000000CE,false,Rx,0,8,00,00,00,00,00,00,00,00,
605825,0000019E,false,Rx,0,8,00,EA,1F,FC,FE,20,00,C5,
606049,000001A0,false,Rx,0,8,00,80,00,00,80,00,C8,6B,
606284,000002B2,false,Rx,0,8,00,00,00,00,0F,80,00,04,
609754,000000A8,false,Rx,0,8,B3,11,FA,10,FA,F0,03,00,
609759,000000A9,false,Rx,0,8,F5,51,A1,0F,32,A1,6F,07,
609764,000000AA,false,Rx,0,8,3B,11,FA,00,00,00,84,00,
609769,000001D0,false,Rx,0,8,3B,FF,44,C3,00,00,CD,A6,
615172,000000C4,false,Rx,0,7,30,0A,FC,00,00,FF,F1,00,
618879,000000A8,false,Rx,0,8,B4,12,FA,10,FA,F0,03,00,
619108,000000A9,false,Rx,0,8,F6,52,A1,0F,32,A1,6F,07,
619339,000000AA,false,Rx,0,8,3C,12,FA,00,00,00,84,00,
625110,000000B6,false,Rx,0,5,0D,0D,80,00,C8,00,00,00,
625340,000000C4,false,Rx,0,7,30,0A,FC,00,00,FF,F1,00,
625563,000000CE,false,Rx,0,8,00,00,00,00,00,00,00,00,
625791,0000019E,false,Rx,0,8,00,EA,2F,FC,FE,20,00,D5,
626018,000001A0,false,Rx,0,8,00,80,00,00,80,00,D8,7B,
626253,000002B2,false,Rx,0,8,00,00,00,00,0F,80,00,04,
629887,000000A8,false,Rx,0,8,95,03,FA,00,FA,F0,03,00,
629892,000000A9,false,Rx,0,8,F5,53,A0,0F,32,A0,6F,07,
629897,000000AA,false,Rx,0,8,2D,03,FA,00,00,00,84,00,
635184,000000C4,false,Rx,0,7,30,0A,FC,00,00,FF,F1,00,
638343,00000130,false,Rx,0,5,41,43,21,0F,52,00,00,00,
638751,000000A8,false,Rx,0,8,96,04,FA,00,FA,F0,03,00,
638974,000000A9,false,Rx,0,8,F6,54,A0,0F,32,A0,6F,07,
639203,00000492,false,Rx,0,8,17,52,FF,FF,FF,FF,FF,FF,
639437,000000AA,false,Rx,0,8,2E,04,FA,00,00,00,84,00,
645058,000000B6,false,Rx,0,5,0E,0E,80,00,C8,00,00,00,
645292,000000C4,false,Rx,0,7,30,0A,FC,00,00,FF,F1,00,
645515,000000CE,false,Rx,0,8,00,00,00,00,00,00,00,00,
645740,0000019E,false,Rx,0,8,00,EA,2F,FC,FE,20,00,D5,
645964,000001A0,false,Rx,0,8,00,80,00,00,80,00,E8,8B,
646381,000002B2,false,Rx,0,8,00,00,00,00,0F,80,00,04,
650131,000000A8,false,Rx,0,8,97,05,FA,00,FA,F0,03,00,
650136,000000A9,false,Rx,0,8,F7,55,A0,0F,32,A0,6F,07,
650141,000000AA,false,Rx,0,8,2F,05,FA,00,00,00,84,00,
655024,000000C4,false,Rx,0,7,30,0A,FC,00,00,FF,F1,00,
658785,000000A8,false,Rx,0,8,98,06,FA,00,FA,F0,03,00,
659197,000000A9,false,Rx,0,8,F8,56,A0,0F,32,A0,6F,07,
659431,000000AA,false,Rx,0,8,30,06,FA,00,00,00,84,00,
664965,000000B6,false,Rx,0,5,FF,00,80,00,C8,00,00,00,
665190,000000C4,false,Rx,0,7,30,0A,FC,00,00,FF,F1,00,
665605,000000CE,false,Rx,0,8,00,00,00,00,00,00,00,00,
665828,0000019E,false,Rx,0,8,00,EA,2F,FC,FE,20,00,D5,
666053,000001A0,false,Rx,0,8,00,80,00,00,80,00,08,AA,
666287,000002B2,false,Rx,0,8,00,00,00,00,0F,80,00,04,
666510,000001A6,false,Rx,0,8,00,00,00,00,00,00,50,F9,
666738,000000C8,false,Rx,0,6,24,0A,2C,00,00,6C,00,00,
670279,000000A8,false,Rx,0,8,99,07,FA,00,FA,F0,03,00,
670285,000000A9,false,Rx,0,8,F9,57,A0,0F,32,A0,6F,07,
670290,000000AA,false,Rx,0,8,31,07,FA,00,00,00,84,00,
675169,000000C4,false,Rx,0,7,30,0A,FC,00,00,FF,F1,00,
675400,000001D6,false,Rx,0,2,FF,F3,00,00,00,00,00,00,
678736,000000A8,false,Rx,0,8,9A,08,FA,00,FA,F0,03,00,
678960,000000A9,false,Rx,0,8,FA,58,A0,0F,32,A0,6F,07,
679184,000000AA,false,Rx,0,8,32,08,FA,00,00,00,84,00,
683815,000001B6,false,Rx,0,7,00,FC,00,00,00,AC,00,00,
685139,000000B6,false,Rx,0,5,00,01,80,00,C8,00,00,00,
685370,000000C4,false,Rx,0,7,30,0A,FC,00,00,FF,F1,00,
685595,000000CE,false,Rx,0,8,00,00,00,00,00,00,00,00,
685822,0000019E,false,Rx,0,8,00,EA,2F,FC,FE,20,00,D5,
686047,000001A0,false,Rx,0,8,00,80,00,00,80,00,18,BA,
686279,000002B2,false,Rx,0,8,00,00,00,00,0F,80,00,04,
690330,000000A8,false,Rx,0,8,9B,09,FA,00,FA,F0,03,00,
690335,000000A9,false,Rx,0,8,FB,59,A0,0F,32,A0,6F,07,
690340,000000AA,false,Rx,0,8,33,09,FA,00,00,00,84,00,
695213,000000C4,false,Rx,0,7,30,0A,FC,00,00,FF,F1,00,
698747,000000A8,false,Rx,0,8,9C,0A,FA,00,FA,F0,03,00,
699156,000000A9,false,Rx,0,8,FC,5A,A0,0F,32,A0,6F,07,
699400,000000AA,false,Rx,0,8,34,0A,FA,00,00,00,84,00,
704997,000000B6,false,Rx,0,5,02,02,80,00,C8,00,00,00,
705225,000000C4,false,Rx,0,7,30,0A,FC,00,00,FF,F1,00,
705641,000000CE,false,Rx,0,8,00,00,00,00,00,00,00,00,
705864,0000019E,false,Rx,0,8,00,EA,2F,FC,FE,20,00,D5,
706089,000001A0,false,Rx,0,8,00,80,00,00,80,00,28,CA,
706321,000002B2,false,Rx,0,8,00,00,00,00,0F,80,00,04,
708557,000000A8,false,Rx,0,8,9D,0B,FA,00,FA,F0,03,00,
710418,000000A9,false,Rx,0,8,FD,5B,A0,0F,32,A0,6F,07,
710423,000000AA,false,Rx,0,8,35,0B,FA,00,00,00,84,00,
710428,000001D0,false,Rx,0,8,3B,FF,45,C3,00,00,CD,A6,
715079,000000C4,false,Rx,0,7,30,0A,FC,00,00,FF,F1,00,
718784,000000A8,false,Rx,0,8,9E,0C,FA,00,FA,F0,03,00,
719009,000000A9,false,Rx,0,8,FE,5C,A0,0F,32,A0,6F,07,
719420,000000AA,false,Rx,0,8,36,0C,FA,00,00,00,84,00,
724444,00000497,false,Rx,0,8,29,52,FF,FF,FF,FF,FF,FF,
725031,000000B6,false,Rx,0,5,03,03,80,00,C8,00,00,00,
725264,000000C4,false,Rx,0,7,30,0A,FC,00,00,FF,F1,00,
725495,000000CE,false,Rx,0,8,00,00,00,00,00,00,00,00,
725729,0000019E,false,Rx,0,8,00,EA,2F,FC,FE,20,00,D5,
725953,000001A0,false,Rx,0,8,00,80,00,00,80,00,38,DA,
726369,000002B2,false,Rx,0,8,00,00,00,00,0F,80,00,04,
728608,000000A8,false,Rx,0,8,9F,0D,FA,00,FA,F0,03,00,
728831,000000A9,false,Rx,0,8,FF,5D,A0,0F,32,A0,6F,07,
730460,000000AA,false,Rx,0,8,37,0D,FA,00,00,00,84,00,
735116,000000C4,false,Rx,0,7,30,0A,FC,00,00,FF,F1,00,
738504,00000130,false,Rx,0,5,41,43,21,0F,63,00,00,00,
738726,000000A8,false,Rx,0,8,A0,0E,FA,00,FA,F0,03,00,
739136,000000A9,false,Rx,0,8,00,5E,A0,0F,32,A0,6F,07,
739365,000000AA,false,Rx,0,8,38,0E,FA,00,00,00,84,00,
745079,000000B6,false,Rx,0,5,04,04,80,00,C8,00,00,00,
745313,000000C4,false,Rx,0,7,30,0A,FC,00,00,FF,F1,00,
745537,000000CE,false,Rx,0,8,00,00,00,00,00,00,00,00,
745760,0000019E,false,Rx,0,8,00,EA,2F,FC,FE,20,00,D5,
745984,000001A0,false,Rx,0,8,00,80,00,00,80,00,48,EA,
746210,000002B2,false,Rx,0,8,00,00,00,00,0F,80,00,04,
748820,000000A8,false,Rx,0,8,92,00,FA,00,FA,F0,03,00,
750443,000000A9,false,Rx,0,8,F2,50,A0,0F,32,A0,6F,07,
750448,000000AA,false,Rx,0,8,2A,00,FA,00,00,00,84,00,
755111,000000C4,false,Rx,0,7,30,0A,FC,00,00,FF,F1,00,
758638,000000A8,false,Rx,0,8,93,01,FA,00,FA,F0,03,00,
758862,000000A9,false,Rx,0,8,F3,51,A0,0F,32,A0,6F,07,
759280,000000AA,false,Rx,0,8,2B,01,FA,00,00,00,84,00,
765000,000000B6,false,Rx,0,5,05,05,80,00,C8,00,00,00,
765225,000000C4,false,Rx,0,7,30,0A,FC,00,00,FF,F1,00,
765641,000000CE,false,Rx,0,8,00,00,00,00,00,00,00,00,
765865,0000019E,false,Rx,0,8,00,EA,2F,FC,FE,20,00,D5,
766088,000001A0,false,Rx,0,8,00,80,00,00,80,00,58,FA,
766324,000002B2,false,Rx,0,8,00,00,00,00,0F,80,00,04,
766548,000001A6,false,Rx,0,8,00,00,00,00,00,00,E0,FA,
768652,000000A8,false,Rx,0,8,94,02,FA,00,FA,F0,03,00,
768884,000000A9,false,Rx,0,8,F4,52,A0,0F,32,A0,6F,07,
770496,000000AA,false,Rx,0,8,2C,02,FA,00,00,00,84,00,
775148,000000C4,false,Rx,0,7,30,0A,FC,00,00,FF,F1,00,
775374,000001D6,false,Rx,0,2,FF,F3,00,00,00,00,00,00,
778716,000000A8,false,Rx,0,8,95,03,FA,00,FA,F0,03,00,
778941,000000A9,false,Rx,0,8,F5,53,A0,0F,32,A0,6F,07,
779356,000000AA,false,Rx,0,8,2D,03,FA,00,00,00,84,00,
785123,000000B6,false,Rx,0,5,06,06,80,00,C8,00,00,00,
785346,000000C4,false,Rx,0,7,30,0A,FC,00,00,FF,F1,00,
785578,000000CE,false,Rx,0,8,00,00,00,00,00,00,00,00,
785802,0000019E,false,Rx,0,8,00,EA,2F,FC,FE,20,00,D5,
786026,000001A0,false,Rx,0,8,00,80,00,00,80,00,68,0B,
786259,000002B2,false,Rx,0,8,00,00,00,00,0F,80,00,04,
788863,000000A8,false,Rx,0,8,96,04,FA,00,FA,F0,03,00,
789091,000000A9,false,Rx,0,8,F6,54,A0,0F,32,A0,6F,07,
790688,000000AA,false,Rx,0,8,2E,04,FA,00,00,00,84,00,
795199,000000C4,false,Rx,0,7,30,0A,FC,00,00,FF,F1,00,
798790,000000A8,false,Rx,0,8,97,05,FA,00,FA,F0,03,00,
799200,000000A9,false,Rx,0,8,F7,55,A0,0F,32,A0,6F,07,
799431,000000AA,false,Rx,0,8,2F,05,FA,00,00,00,84,00,
805149,000000B6,false,Rx,0,5,07,07,80,00,C8,00,00,00,
805376,000000C4,false,Rx,0,7,30,0A,FC,00,00,FF,F1,00,
805608,000000CE,false,Rx,0,8,00,00,00,00,00,00,00,00,
805832,0000019E,false,Rx,0,8,00,EA,2F,FC,FE,20,00,D5,
806057,000001A0,false,Rx,0,8,00,80,00,00,80,00,78,1B,
806292,000002B2,false,Rx,0,8,00,00,00,00,0F,80,00,04,
806514,000004A9,false,Rx,0,8,00,52,FF,FF,FF,FF,FF,FF,
808755,000000A8,false,Rx,0,8,98,06,FA,00,FA,F0,03,00,
808983,000000A9,false,Rx,0,8,F8,56,A0,0F,32,A0,6F,07,
809212,000000AA,false,Rx,0,8,30,06,FA,00,00,00,84,00,
810836,000001D0,false,Rx,0,8,3B,FF,45,C3,00,00,CD,A6,
815104,000000C4,false,Rx,0,7,30,0A,FC,00,00,FF,F1,00,
818639,000000A8,false,Rx,0,8,99,07,FA,00,FA,F0,03,00,
818863,000000A9,false,Rx,0,8,F9,57,A0,0F,32,A0,6F,07,
819087,000000AA,false,Rx,0,8,31,07,FA,00,00,00,84,00,
825001,000000B6,false,Rx,0,5,08,08,80,00,C8,00,00,00,
825226,000000C4,false,Rx,0,7,30,0A,FC,00,00,FF,F1,00,
825457,000000CE,false,Rx,0,8,00,00,00,00,00,00,00,00,
825879,0000019E,false,Rx,0,8,00,EA,2F,FC,FE,20,00,D5,
826121,000001A0,false,Rx,0,8,00,80,00,00,80,00,88,2B,
826381,000002B2,false,Rx,0,8,00,00,00,00,0F,80,00,04,
828633,000000A8,false,Rx,0,8,9A,08,FA,00,FA,F0,03,00,
828857,000000A9,false,Rx,0,8,FA,58,A0,0F,32,A0,6F,07,
829080,000000AA,false,Rx,0,8,32,08,FA,00,00,00,84,00,
835119,000000C4,false,Rx,0,7,30,0A,FC,00,00,FF,F1,00,
838511,00000130,false,Rx,0,5,41,43,21,0F,74,00,00,00,
838746,000000A8,false,Rx,0,8,9B,09,FA,00,FA,F0,03,00,
838984,000000A9,false,Rx,0,8,FB,59,A0,0F,32,A0,6F,07,
839253,000000AA,false,Rx,0,8,33,09,FA,00,00,00,84,00,
845156,000000B6,false,Rx,0,5,09,09,80,00,C8,00,00,00,
845388,000000C4,false,Rx,0,7,30,0A,FC,00,00,FF,F1,00,
845611,000000CE,false,Rx,0,8,00,00,00,00,00,00,00,00,
845838,0000019E,false,Rx,0,8,00,EA,3F,FC,FE,20,00,E5,
846062,000001A0,false,Rx,0,8,00,80,00,00,80,00,98,3B,
846298,000002B2,false,Rx,0,8,00,00,00,00,0F,80,00,04,
848723,000000A8,false,Rx,0,8,9C,0A,FA,00,FA,F0,03,00,
848945,000000A9,false,Rx,0,8,FC,5A,A0,0F,32,A0,6F,07,
849362,000000AA,false,Rx,0,8,34,0A,FA,00,00,00,84,00,
855068,000000C4,false,Rx,0,7,30,0A,FC,00,00,FF,F1,00,
858604,000000A8,false,Rx,0,8,9D,0B,FA,00,FA,F0,03,00,
858828,000000A9,false,Rx,0,8,FD,5B,A0,0F,32,A0,6F,07,
859051,000000AA,false,Rx,0,8,35,0B,FA,00,00,00,84,00,
865143,000000B6,false,Rx,0,5,0A,0A,80,00,C8,00,00,00,
865374,000000C4,false,Rx,0,7,30,0A,FC,00,00,FF,F1,00,
865597,000000CE,false,Rx,0,8,00,00,00,00,00,00,00,00,
865821,0000019E,false,Rx,0,8,00,EA,3F,FC,FE,20,00,E5,
866049,000001A0,false,Rx,0,8,00,80,00,00,80,00,A8,4B,
866283,000002B2,false,Rx,0,8,00,00,00,00,0F,80,00,04,
866508,000001A6,false,Rx,0,8,00,00,00,00,00,00,70,FC,
866735,000000C8,false,Rx,0,6,24,0A,7C,00,00,8C,00,00,
868610,000000A8,false,Rx,0,8,9E,0C,FA,00,FA,F0,03,00,
868843,000000A9,false,Rx,0,8,FE,5C,A0,0F,32,A0,6F,07,
869067,000000AA,false,Rx,0,8,36,0C,FA,00,00,00,84,00,
875131,000000C4,false,Rx,0,7,30,0A,FC,00,00,FF,F1,00,
875366,000001D6,false,Rx,0,2,FF,F3,00,00,00,00,00,00,
878884,000000A8,false,Rx,0,8,9F,0D,FA,00,FA,F0,03,00,
879109,000000A9,false,Rx,0,8,FF,5D,A0,0F,32,A0,6F,07,
879341,000000AA,false,Rx,0,8,37,0D,FA,00,00,00,84,00,
885057,000000B6,false,Rx,0,5,0B,0B,80,00,C8,00,00,00,
885292,000000C4,false,Rx,0,7,30,0A,FC,00,00,FF,F1,00,
885517,000000CE,false,Rx,0,8,00,00,00,00,00,00,00,00,
885742,0000019E,false,Rx,0,8,00,EA,3F,FC,FE,20,00,E5,
885965,000001A0,false,Rx,0,8,00,80,00,00,80,00,B8,5B,
886190,000002B2,false,Rx,0,8,00,00,00,00,0F,80,00,04,
887885,00000480,false,Rx,0,8,12,42,FD,FF,FF,FF,FF,FF,
888665,000000A8,false,Rx,0,8,A0,0E,FA,00,FA,F0,03,00,
888889,000000A9,false,Rx,0,8,00,5E,A0,0F,32,A0,6F,07,
889114,000000AA,false,Rx,0,8,38,0E,FA,00,00,00,84,00,
895267,000000C4,false,Rx,0,7,30,0A,FC,00,00,FF,F1,00,
898603,000000A8,false,Rx,0,8,92,00,FA,00,FA,F0,03,00,
898827,000000A9,false,Rx,0,8,F2,50,A0,0F,32,A0,6F,07,
899052,000000AA,false,Rx,0,8,2A,00,FA,00,00,00,84,00,
905145,000000B6,false,Rx,0,5,0C,0C,80,00,C8,00,00,00,
905377,000000C4,false,Rx,0,7,30,0A,FC,00,00,FF,F1,00,
905601,000000CE,false,Rx,0,8,00,00,00,00,00,00,00,00,
905829,0000019E,false,Rx,0,8,00,EA,3F,FC,FE,20,00,E5,
906053,000001A0,false,Rx,0,8,00,80,00,00,80,00,C8,6B,
906287,000002B2,false,Rx,0,8,00,00,00,00,0F,80,00,04,
908523,000000A8,false,Rx,0,8,93,01,FA,00,FA,F0,03,00,
908747,000000A9,false,Rx,0,8,F3,51,A0,0F,32,A0,6F,07,
909156,000000AA,false,Rx,0,8,2B,01,FA,00,00,00,84,00,
909391,000001D0,false,Rx,0,8,3B,FF,46,C3,00,00,CD,A6,
915046,000000C4,false,Rx,0,7,30,0A,FC,00,00,FF,F1,00,
918755,000000A8,false,Rx,0,8,94,02,FA,00,FA,F0,03,00,
918979,000000A9,false,Rx,0,8,F4,52,A0,0F,32,A0,6F,07,
919395,000000AA,false,Rx,0,8,2C,02,FA,00,00,00,84,00,
924943,000000B6,false,Rx,0,5,0D,0D,80,00,C8,00,00,00,
925169,000000C4,false,Rx,0,7,30,0A,FC,00,00,FF,F1,00,
925584,000000CE,false,Rx,0,8,00,00,00,00,00,00,00,00,
925807,0000019E,false,Rx,0,8,00,EA,3F,FC,FE,20,00,E5,
926032,000001A0,false,Rx,0,8,00,80,00,00,80,00,D8,7B,
926273,000002B2,false,Rx,0,8,00,00,00,00,0F,80,00,04,
928511,000000A8,false,Rx,0,8,95,03,FA,00,FA,F0,03,00,
928735,000000A9,false,Rx,0,8,F5,53,A0,0F,32,A0,6F,07,
929143,000000AA,false,Rx,0,8,2D,03,FA,00,00,00,84,00,
935108,000000C4,false,Rx,0,7,30,0A,FC,00,00,FF,F1,00,
938473,00000130,false,Rx,0,5,41,43,21,0F,85,00,00,00,
938697,000000A8,false,Rx,0,8,96,04,FA,00,FA,F0,03,00,
938921,000000A9,false,Rx,0,8,F6,54,A0,0F,32,A0,6F,07,
939338,000000AA,false,Rx,0,8,2E,04,FA,00,00,00,84,00,
945051,000000B6,false,Rx,0,5,0E,0E,80,00,C8,00,00,00,
945283,000000C4,false,Rx,0,7,30,0A,FC,00,00,FF,F1,00,
945506,000000CE,false,Rx,0,8,00,00,00,00,00,00,00,00,
945730,0000019E,false,Rx,0,8,00,EA,3F,FC,FE,20,00,E5,
946142,000001A0,false,Rx,0,8,00,80,00,00,80,00,E8,8B,
946372,000002B2,false,Rx,0,8,00,00,00,00,0F,80,00,04,
948609,000000A8,false,Rx,0,8,97,05,FA,00,FA,F0,03,00,
949017,000000A9,false,Rx,0,8,F7,55,A0,0F,32,A0,6F,07,
949248,000000AA,false,Rx,0,8,2F,05,FA,00,00,00,84,00,
955075,000000C4,false,Rx,0,7,30,0A,FC,00,00,FF,F1,00,
958603,000000A8,false,Rx,0,8,98,06,FA,00,FA,F0,03,00,
958831,000000A9,false,Rx,0,8,F8,56,A0,0F,32,A0,6F,07,
959056,000000AA,false,Rx,0,8,30,06,FA,00,00,00,84,00,
964958,000000B6,false,Rx,0,5,FF,00,80,00,C8,00,00,00,
965374,000000C4,false,Rx,0,7,30,0A,FC,00,00,FF,F1,00,
965598,000000CE,false,Rx,0,8,00,00,00,00,00,00,00,00,
965821,0000019E,false,Rx,0,8,00,EA,3F,FC,FE,20,00,E5,
966045,000001A0,false,Rx,0,8,00,80,00,00,80,00,08,AA,
966279,000002B2,false,Rx,0,8,00,00,00,00,0F,80,00,04,
966503,000001A6,false,Rx,0,8,00,00,00,00,00,00,00,FE,
968559,000000A8,false,Rx,0,8,99,07,FA,00,FA,F0,03,00,
968785,000000A9,false,Rx,0,8,F9,57,A0,0F,32,A0,6F,07,
969016,000000AA,false,Rx,0,8,31,07,FA,00,00,00,84,00,
975309,000000C4,false,Rx,0,7,30,0A,FC,00,00,FF,F1,00,
975314,000001D6,false,Rx,0,2,FF,F3,00,00,00,00,00,00,
978585,000000A8,false,Rx,0,8,9A,08,FA,00,FA,F0,03,00,
978810,000000A9,false,Rx,0,8,FA,58,A0,0F,32,A0,6F,07,
979034,00000492,false,Rx,0,8,17,52,FF,FF,FF,FF,FF,FF,
979269,000000AA,false,Rx,0,8,32,08,FA,00,00,00,84,00,
985168,000000B6,false,Rx,0,5,00,01,80,00,C8,00,00,00,
985398,000000C4,false,Rx,0,7,30,0A,FC,00,00,FF,F1,00,
985623,000000CE,false,Rx,0,8,00,00,00,00,00,00,00,00,
985850,0000019E,false,Rx,0,8,00,EA,3F,FC,FE,20,00,E5,
986074,000001A0,false,Rx,0,8,00,80,00,00,80,00,18,BA,
986308,000002B2,false,Rx,0,8,00,00,00,00,0F,80,00,04,
988730,000000A8,false,Rx,0,8,9B,09,FA,00,FA,F0,03,00,
988958,000000A9,false,Rx,0,8,FB,59,A0,0F,32,A0,6F,07,
989184,000000AA,false,Rx,0,8,33,09,FA,00,00,00,84,00,
995114,000000C4,false,Rx,0,7,30,0A,FC,00,00,FF,F1,00,
998641,000000A8,false,Rx,0,8,9C,0A,FA,00,FA,F0,03,00,
999049,000000A9,false,Rx,0,8,FC,5A,A0,0F,32,A0,6F,07,
999280,000000AA,false,Rx,0,8,34,0A,FA,00,00,00,84,00,
1005001,000000B6,false,Rx,0,5,02,02,80,00,C8,00,00,00,
1005229,000000C4,false,Rx,0,7,30,0A,FC,00,00,FF,F1,00,
1005461,000000CE,false,Rx,0,8,00,00,00,00,00,00,00,00,
1005869,0000019E,false,Rx,0,8,00,EA,3F,FC,FE,20,00,E5,
1006092,000001A0,false,Rx,0,8,00,80,00,00,80,00,28,CA,
1006323,000002B2,false,Rx,0,8,00,00,00,00,0F,80,00,04,
1008561,000000A8,false,Rx,0,8,9D,0B,FA,00,FA,F0,03,00,
1008789,000000A9,false,Rx,0,8,FD,5B,A0,0F,32,A0,6F,07,
1009013,000000AA,false,Rx,0,8,35,0B,FA,00,00,00,84,00,
1009247,000001D0,false,Rx,0,8,3B,FF,46,C3,00,00,CD,A6,
1015174,000000C4,false,Rx,0,7,30,0A,FC,00,00,FF,F1,00,
1015179,000002A6,false,Rx,0,2,00,FC,00,00,00,00,00,00,
1018749,000000A8,false,Rx,0,8,9E,0C,FA,00,FA,F0,03,00,
1018978,000000A9,false,Rx,0,8,FE,5C,A0,0F,32,A0,6F,07,
1019215,000000AA,false,Rx,0,8,36,0C,FA,00,00,00,84,00,
1025142,000000B6,false,Rx,0,5,03,03,80,00,C8,00,00,00,
1025373,000000C4,false,Rx,0,7,30,0A,FC,00,00,FF,F1,00,
1025596,000000CE,false,Rx,0,8,00,00,00,00,00,00,00,00,
1025819,0000019E,false,Rx,0,8,00,EA,3F,FC,FE,20,00,E5,
1026047,000001A0,false,Rx,0,8,00,80,00,00,80,00,38,DA,
1026279,000002B2,false,Rx,0,8,00,00,00,00,0F,80,00,04,
1028704,000000A8,false,Rx,0,8,9F,0D,FA,00,FA,F0,03,00,
1028929,000000A9,false,Rx,0,8,FF,5D,A0,0F,32,A0,6F,07,
1029153,000000AA,false,Rx,0,8,37,0D,FA,00,00,00,84,00,
1035115,000000C4,false,Rx,0,7,30,0A,FC,00,00,FF,F1,00,
1038459,000000A8,false,Rx,0,8,A0,0E,FA,00,FA,F0,03,00,
1038683,000002FC,false,Rx,0,7,81,01,00,FF,FF,FF,FF,00,
1039091,000000A9,false,Rx,0,8,00,5E,A0,0F,32,A0,6F,07,
1039322,000000AA,false,Rx,0,8,38,0E,FA,00,00,00,84,00,
1039545,00000130,false,Rx,0,5,41,43,21,0F,96,00,00,00,
1045104,000000B6,false,Rx,0,5,04,04,80,00,C8,00,00,00,
1045330,000000C4,false,Rx,0,7,30,0A,FC,00,00,FF,F1,00,
1045552,000000CE,false,Rx,0,8,00,00,00,00,00,00,00,00,
1045777,0000019E,false,Rx,0,8,00,EA,4F,FC,FE,20,00,F5,
1045999,000001A0,false,Rx,0,8,00,80,00,00,80,00,48,EA,
1046415,000002B2,false,Rx,0,8,00,00,00,00,0F,80,00,04,
1048483,000000A8,false,Rx,0,8,92,00,FA,00,FA,F0,03,00,
1048707,000000A9,false,Rx,0,8,F2,50,A0,0F,32,A0,6F,07,
1049116,000000AA,false,Rx,0,8,2A,00,FA,00,00,00,84,00,
1055154,000000C4,false,Rx,0,7,30,0A,FC,00,00,FF,F1,00,
1058499,000000A8,false,Rx,0,8,93,01,FA,00,FA,F0,03,00,
1058907,000000A9,false,Rx,0,8,F3,51,A0,0F,32,A0,6F,07,
1059133,000000AA,false,Rx,0,8,2B,01,FA,00,00,00,84,00,
1064306,00000497,false,Rx,0,8,29,52,FF,FF,FF,FF,FF,FF,
1065074,000000B6,false,Rx,0,5,05,05,80,00,C8,00,00,00,
1065301,000000C4,false,Rx,0,7,30,0A,FC,00,00,FF,F1,00,
1065525,000000CE,false,Rx,0,8,00,00,00,00,00,00,00,00,
1065934,0000019E,false,Rx,0,8,00,EA,4F,FC,FE,20,00,F5,
1066158,000001A0,false,Rx,0,8,00,80,00,00,80,00,58,FA,
1066383,000002B2,false,Rx,0,8,00,00,00,00,0F,80,00,04,
1066614,000001A6,false,Rx,0,8,00,00,00,00,00,00,90,FF,
1066838,000000C8,false,Rx,0,6,24,0A,CC,00,00,9C,00,00,
1068533,000000A8,false,Rx,0,8,94,02,FA,00,FA,F0,03,00,
1068757,000000A9,false,Rx,0,8,F4,52,A0,0F,32,A0,6F,07,
1069176,000000AA,false,Rx,0,8,2C,02,FA,00,00,00,84,00,
1075293,000000C4,false,Rx,0,7,30,0A,FC,00,00,FF,F1,00,
1075298,000001D6,false,Rx,0,2,FF,F3,00,00,00,00,00,00,
1078818,000000A8,false,Rx,0,8,95,03,FA,00,FA,F0,03,00,
1079041,000000A9,false,Rx,0,8,F5,53,A0,0F,32,A0,6F,07,
1079280,000000AA,false,Rx,0,8,2D,03,FA,00,00,00,84,00,
1085187,000000B6,false,Rx,0,5,06,06,80,00,C8,00,00,00,
1085411,000000C4,false,Rx,0,7,30,0A,FC,00,00,FF,F1,00,
1085644,000000CE,false,Rx,0,8,00,00,00,00,00,00,00,00,
1085872,0000019E,false,Rx,0,8,00,EA,4F,FC,FE,20,00,F5,
1086098,000001A0,false,Rx,0,8,00,80,00,00,80,00,68,0B,
1086329,000002B2,false,Rx,0,8,00,00,00,00,0F,80,00,04,
1088567,000000A8,false,Rx,0,8,96,04,FA,00,FA,F0,03,00,
1088793,000000A9,false,Rx,0,8,F6,54,A0,0F,32,A0,6F,07,
1089018,000000AA,false,Rx,0,8,2E,04,FA,00,00,00,84,00,
1095290,000000C4,false,Rx,0,7,30,0A,FC,00,00,FF,F1,00,
1098443,000000A8,false,Rx,0,8,97,05,FA,00,FA,F0,03,00,
1098667,000000A9,false,Rx,0,8,F7,55,A0,0F,32,A0,6F,07,
1099074,000000AA,false,Rx,0,8,2F,05,FA,00,00,00,84,00,
1105168,000000B6,false,Rx,0,5,07,07,80,00,C8,00,00,00,
1105400,000000C4,false,Rx,0,7,30,0A,FC,00,00,FF,F1,00,
1105623,000000CE,false,Rx,0,8,00,00,00,00,00,00,00,00,
1105847,0000019E,false,Rx,0,8,00,EA,4F,FC,FE,20,00,F5,
1106075,000001A0,false,Rx,0,8,00,80,00,00,80,00,78,1B,
1106308,000002B2,false,Rx,0,8,00,00,00,00,0F,80,00,04,
1108548,000000A8,false,Rx,0,8,98,06,FA,00,FA,F0,03,00,
1108775,000000A9,false,Rx,0,8,F8,56,A0,0F,32,A0,6F,07,
1108999,000000AA,false,Rx,0,8,30,06,FA,00,00,00,84,00,
1109226,000001D0,false,Rx,0,8,3B,FF,47,C3,00,00,CD,A6,
1115115,000000C4,false,Rx,0,7,30,0A,FC,00,00,FF,F1,00,
1118825,000000A8,false,Rx,0,8,99,07,FA,00,FA,F0,03,00,
1119048,000000A9,false,Rx,0,8,F9,57,A0,0F,32,A0,6F,07,
1119280,000000AA,false,Rx,0,8,31,07,FA,00,00,00,84,00,
1125001,000000B6,false,Rx,0,5,08,08,80,00,C8,00,00,00,
1125227,000000C4,false,Rx,0,7,30,0A,FC,00,00,FF,F1,00,
1125456,000000CE,false,Rx,0,8,00,00,00,00,00,00,00,00,
1125681,0000019E,false,Rx,0,8,00,EA,4F,FC,FE,20,00,F5,
1126089,000001A0,false,Rx,0,8,00,80,00,00,80,00,88,2B,
1126321,000002B2,false,Rx,0,8,00,00,00,00,0F,80,00,04,
1128562,000000A8,false,Rx,0,8,BA,18,FA,10,FA,F0,03,00,
1128786,000000A9,false,Rx,0,8,FC,58,A1,0F,32,A1,6F,07,
1129011,000000AA,false,Rx,0,8,42,18,FA,00,00,00,84,00,
1135099,000000C4,false,Rx,0,7,30,0A,FC,00,00,FF,F1,00,
1138272,00000130,false,Rx,0,5,41,43,21,0F,A7,00,00,00,
1138680,000000A8,false,Rx,0,8,BB,19,FA,10,FA,F0,03,00,
1138901,000000A9,false,Rx,0,8,FD,59,A1,0F,32,A1,6F,07,
1139130,000000AA,false,Rx,0,8,43,19,FA,00,00,00,84,00,
1145116,000000B6,false,Rx,0,5,09,09,80,00,C8,00,00,00,
1145366,000000C4,false,Rx,0,7,30,0A,FC,00,00,FF,F1,00,
1145629,000000CE,false,Rx,0,8,00,00,00,00,00,00,00,00,
1146083,0000019E,false,Rx,0,8,00,EA,4F,FC,FE,20,00,F5,
1146089,000001A0,false,Rx,0,8,00,80,00,00,80,00,98,3B,
1146323,000002B2,false,Rx,0,8,00,00,00,00,0F,80,00,04,
1146547,000004A9,false,Rx,0,8,00,52,FF,FF,FF,FF,FF,FF,
1148426,000000A8,false,Rx,0,8,BC,1A,FA,10,FA,F0,03,00,
1148650,000000A9,false,Rx,0,8,FE,5A,A1,0F,32,A1,6F,07,
1148875,000000AA,false,Rx,0,8,44,1A,FA,00,00,00,84,00,
1155056,000000C4,false,Rx,0,7,30,0A,FC,00,00,FF,F1,00,
1158585,000000A8,false,Rx,0,8,BD,1B,FA,10,FA,F0,03,00,
1158810,000000A9,false,Rx,0,8,FF,5B,A1,0F,32,A1,6F,07,
1159032,000000AA,false,Rx,0,8,45,1B,FA,00,00,00,84,00,
1165125,000000B6,false,Rx,0,5,0A,0A,80,00,C8,00,00,00,
1165355,000000C4,false,Rx,0,7,30,0A,FC,00,00,FF,F1,00,
1165578,000000CE,false,Rx,0,8,00,00,00,00,00,00,00,00,
1165803,0000019E,false,Rx,0,8,00,EA,4F,FC,FE,20,00,F5,
1166027,000001A0,false,Rx,0,8,00,80,00,00,80,00,A8,4B,
1166260,000002B2,false,Rx,0,8,00,00,00,00,0F,80,00,04,
1166484,000001A6,false,Rx,0,8,00,00,00,00,00,00,20,F1,
1168542,000000A8,false,Rx,0,8,BE,1C,FA,10,FA,F0,03,00,
1168770,000000A9,false,Rx,0,8,00,5C,A1,0F,32,A1,6F,07,
1169000,000000AA,false,Rx,0,8,46,1C,FA,00,00,00,84,00,
1175298,000000C4,false,Rx,0,7,30,0A,FC,00,00,FF,F1,00,
1175303,000001D6,false,Rx,0,2,FF,F3,00,00,00,00,00,00,
1178641,000000A8,false,Rx,0,8,BF,1D,FA,10,FA,F0,03,00,
1178865,000000A9,false,Rx,0,8,01,5D,A1,0F,32,A1,6F,07,
1179090,000000AA,false,Rx,0,8,47,1D,FA,00,00,00,84,00,
1185000,000000B6,false,Rx,0,5,0B,0B,80,00,C8,00,00,00,
1185226,000000C4,false,Rx,0,7,30,0A,FC,00,00,FF,F1,00,
1185641,000000CE,false,Rx,0,8,00,00,00,00,00,00,00,00,
1185865,0000019E,false,Rx,0,8,00,EA,4F,FC,FE,20,00,F5,
1186086,000001A0,false,Rx,0,8,00,80,00,00,80,00,B8,5B,
1186324,000002B2,false,Rx,0,8,00,00,00,00,0F,80,00,04,
1188380,000000A8,false,Rx,0,8,C0,1E,FA,10,FA,F0,03,00,
1188605,000000A9,false,Rx,0,8,03,5E,A1,0F,32,A1,6F,07,
1188828,000000AA,false,Rx,0,8,48,1E,FA,00,00,00,84,00,
1195103,000000C4,false,Rx,0,7,30,0A,FC,00,00,FF,F1,00,
1198450,000000A8,false,Rx,0,8,B2,10,FA,10,FA,F0,03,00,
1198675,000000A9,false,Rx,0,8,F4,50,A1,0F,32,A1,6F,07,
1198899,000000AA,false,Rx,0,8,3A,10,FA,00,00,00,84,00,
1205172,000000B6,false,Rx,0,5,0C,0C,80,00,C8,00,00,00,
1205403,000000C4,false,Rx,0,7,30,0A,FC,00,00,FF,F1,00,
1205626,000000CE,false,Rx,0,8,00,00,00,00,00,00,00,00,
1205850,0000019E,false,Rx,0,8,00,EA,4F,FC,FE,20,00,F5,
1206078,000001A0,false,Rx,0,8,00,80,00,00,80,00,C8,6B,
1206313,000002B2,false,Rx,0,8,00,00,00,00,0F,80,00,04,
1208368,000000A8,false,Rx,0,8,B3,11,FA,10,FA,F0,03,00,
1208593,000000A9,false,Rx,0,8,F5,51,A1,0F,32,A1,6F,07,
1208816,000000AA,false,Rx,0,8,3B,11,FA,00,00,00,84,00,
1209226,000001D0,false,Rx,0,8,3B,FF,47,C3,00,00,CD,A6,
1215108,000000C4,false,Rx,0,7,30,0A,FC,00,00,FF,F1,00,
1218635,000000A8,false,Rx,0,8,B4,12,FA,10,FA,F0,03,00,
1218859,000000A9,false,Rx,0,8,F6,52,A1,0F,32,A1,6F,07,
1219082,000000AA,false,Rx,0,8,3C,12,FA,00,00,00,84,00,
1224984,000000B6,false,Rx,0,5,0D,0D,80,00,C8,00,00,00,
1225210,000000C4,false,Rx,0,7,30,0A,FC,00,00,FF,F1,00,
1225442,000000CE,false,Rx,0,8,00,00,00,00,00,00,00,00,
1225850,0000019E,false,Rx,0,8,00,EA,4F,FC,FE,20,00,F5,
1226074,000001A0,false,Rx,0,8,00,80,00,00,80,00,D8,7B,
1226306,000002B2,false,Rx,0,8,00,00,00,00,0F,80,00,04,
1227993,00000480,false,Rx,0,8,12,42,FD,FF,FF,FF,FF,FF,
1228408,000000A8,false,Rx,0,8,B5,13,FA,10,FA,F0,03,00,
1228633,000000A9,false,Rx,0,8,F7,53,A1,0F,32,A1,6F,07,
1229040,000000AA,false,Rx,0,8,3D,13,FA,00,00,00,84,00,
1235062,000000C4,false,Rx,0,7,30,0A,FC,00,00,FF,F1,00,
1238665,000000A8,false,Rx,0,8,B6,14,FA,10,FA,F0,03,00,
1238890,00000130,false,Rx,0,5,41,43,21,0F,B8,00,00,00,
1239116,000000A9,false,Rx,0,8,F8,54,A1,0F,32,A1,6F,07,
1239350,000000AA,false,Rx,0,8,3E,14,FA,00,00,00,84,00,
1245078,000000B6,false,Rx,0,5,0E,0E,80,00,C8,00,00,00,
1245321,000000C4,false,Rx,0,7,30,0A,FC,00,00,FF,F1,00,
1245546,000000CE,false,Rx,0,8,00,00,00,00,00,00,00,00,
1245769,0000019E,false,Rx,0,8,00,EA,4F,FC,FE,20,00,F5,
1245994,000001A0,false,Rx,0,8,00,80,00,00,80,00,E8,8B,
1246220,000002B2,false,Rx,0,8,00,00,00,00,0F,80,00,04,
1248278,000000A8,false,Rx,0,8,B7,15,FA,10,FA,F0,03,00,
1248508,000000A9,false,Rx,0,8,F9,55,A1,0F,32,A1,6F,07,
1248916,000000AA,false,Rx,0,8,3F,15,FA,00,00,00,84,00,
1255105,000000C4,false,Rx,0,7,30,0A,FC,00,00,FF,F1,00,
1258454,000000A8,false,Rx,0,8,B8,16,FA,10,FA,F0,03,00,
1258679,000000A9,false,Rx,0,8,FA,56,A1,0F,32,A1,6F,07,
1258904,000000AA,false,Rx,0,8,40,16,FA,00,00,00,84,00,
1264994,000000B6,false,Rx,0,5,FF,00,80,00,C8,00,00,00,
1265223,000000C4,false,Rx,0,7,30,0A,FC,00,00,FF,F1,00,
1265637,000000CE,false,Rx,0,8,00,00,00,00,00,00,00,00,
1265861,0000019E,false,Rx,0,8,00,EA,5F,FC,FE,20,00,06,
1266084,000001A0,false,Rx,0,8,00,80,00,00,80,00,08,AA,
1266322,000002B2,false,Rx,0,8,00,00,00,00,0F,80,00,04,
1266549,000001A6,false,Rx,0,8,00,00,00,00,00,00,B0,F2,
1266773,000000C8,false,Rx,0,6,24,0A,2C,00,00,AC,00,00,
1268650,000000A8,false,Rx,0,8,B9,17,FA,10,FA,F0,03,00,
1268883,000000A9,false,Rx,0,8,FB,57,A1,0F,32,A1,6F,07,
1269111,000000AA,false,Rx,0,8,41,17,FA,00,00,00,84,00,
1275254,000000C4,false,Rx,0,7,30,0A,FC,00,00,FF,F1,00,
1275259,000001D6,false,Rx,0,2,FF,F3,00,00,00,00,00,00,
1278422,000000A8,false,Rx,0,8,BA,18,FA,10,FA,F0,03,00,
1278646,000000A9,false,Rx,0,8,FC,58,A1,0F,32,A1,6F,07,
1279053,000000AA,false,Rx,0,8,42,18,FA,00,00,00,84,00,
1285142,000000B6,false,Rx,0,5,00,01,80,00,C8,00,00,00,
1285372,000000C4,false,Rx,0,7,30,0A,FC,00,00,FF,F1,00,
1285600,000000CE,false,Rx,0,8,00,00,00,00,00,00,00,00,
1285825,0000019E,false,Rx,0,8,00,EA,5F,FC,FE,20,00,06,
1286049,000001A0,false,Rx,0,8,00,80,00,00,80,00,18,BA,
1286284,000002B2,false,Rx,0,8,00,00,00,00,0F,80,00,04,
1288522,000000A8,false,Rx,0,8,BB,19,FA,10,FA,F0,03,00,
1288746,000000A9,false,Rx,0,8,FD,59,A1,0F,32,A1,6F,07,
1289155,000000AA,false,Rx,0,8,43,19,FA,00,00,00,84,00,
1295171,000000C4,false,Rx,0,7,30,0A,FC,00,00,FF,F1,00,
1298338,000000A8,false,Rx,0,8,BC,1A,FA,10,FA,F0,03,00,
1298578,000000A9,false,Rx,0,8,FE,5A,A1,0F,32,A1,6F,07,
1298802,000000AA,false,Rx,0,8,44,1A,FA,00,00,00,84,00,
1305078,000000B6,false,Rx,0,5,02,02,80,00,C8,00,00,00,
1305310,000000C4,false,Rx,0,7,30,0A,FC,00,00,FF,F1,00,
1305534,000000CE,false,Rx,0,8,00,00,00,00,00,00,00,00,
1305757,0000019E,false,Rx,0,8,00,EA,5F,FC,FE,20,00,06,
1306167,000001A0,false,Rx,0,8,00,80,00,00,80,00,28,CA,
1306391,000002B2,false,Rx,0,8,00,00,00,00,0F,80,00,04,
1308451,000000A8,false,Rx,0,8,BD,1B,FA,10,FA,F0,03,00,
1308674,000000A9,false,Rx,0,8,FF,5B,A1,0F,32,A1,6F,07,
1308899,000000AA,false,Rx,0,8,45,1B,FA,00,00,00,84,00,
1309127,000001D0,false,Rx,0,8,3B,FF,48,C3,00,00,CD,A6,
1315093,000000C4,false,Rx,0,7,30,0A,FC,00,00,FF,F1,00,
1318646,000000A8,false,Rx,0,8,BE,1C,FA,10,FA,F0,03,00,
1318871,000000A9,false,Rx,0,8,00,5C,A1,0F,32,A1,6F,07,
1319095,000000AA,false,Rx,0,8,46,1C,FA,00,00,00,84,00,
1319328,00000492,false,Rx,0,8,17,52,FF,FF,FF,FF,FF,FF,
1325083,000000B6,false,Rx,0,5,03,03,80,00,C8,00,00,00,
1325327,000000C4,false,Rx,0,7,30,0A,FC,00,00,FF,F1,00,
1325552,000000CE,false,Rx,0,8,00,00,00,00,00,00,00,00,
1325776,0000019E,false,Rx,0,8,00,EA,5F,FC,FE,20,00,06,
1326000,000001A0,false,Rx,0,8,00,80,00,00,80,00,38,DA,
1326225,000002B2,false,Rx,0,8,00,00,00,00,0F,80,00,04,
1328469,000000A8,false,Rx,0,8,9F,0D,FA,00,FA,F0,03,00,
1328694,000000A9,false,Rx,0,8,FF,5D,A0,0F,32,A0,6F,07,
1329105,000000AA,false,Rx,0,8,37,0D,FA,00,00,00,84,00,
1335142,000000C4,false,Rx,0,7,30,0A,FC,00,00,FF,F1,00,
1336707,000001B5,false,Rx,0,6,00,FF,02,00,88,FF,00,00,
1338271,000000A8,false,Rx,0,8,A0,0E,FA,00,FA,F0,03,00,
1338496,00000130,false,Rx,0,5,41,43,21,0F,C9,00,00,00,
1338728,000000A9,false,Rx,0,8,00,5E,A0,0F,32,A0,6F,07,
1338957,000000AA,false,Rx,0,8,38,0E,FA,00,00,00,84,00,
1345167,000000B6,false,Rx,0,5,04,04,80,00,C8,00,00,00,
1345401,000000C4,false,Rx,0,7,30,0A,FC,00,00,FF,F1,00,
1345625,000000CE,false,Rx,0,8,00,00,00,00,00,00,00,00,
1345850,0000019E,false,Rx,0,8,00,EA,5F,FC,FE,20,00,06,
1346075,000001A0,false,Rx,0,8,00,80,00,00,80,00,48,EA,
1346306,000002B2,false,Rx,0,8,00,00,00,00,0F,80,00,04,
1348193,000000A8,false,Rx,0,8,92,00,FA,00,FA,F0,03,00,
1348608,000000A9,false,Rx,0,8,F2,50,A0,0F,32,A0,6F,07,
1348835,000000AA,false,Rx,0,8,2A,00,FA,00,00,00,84,00,
1355174,000000C4,false,Rx,0,7,30,0A,FC,00,00,FF,F1,00,
1358487,000000A8,false,Rx,0,8,93,01,FA,00,FA,F0,03,00,
1358710,000000A9,false,Rx,0,8,F3,51,A0,0F,32,A0,6F,07,
1358935,000000AA,false,Rx,0,8,2B,01,FA,00,00,00,84,00,
1365205,000000B6,false,Rx,0,5,05,05,80,00,C8,00,00,00,
1365431,000000C4,false,Rx,0,7,30,0A,FC,00,00,FF,F1,00,
1365654,000000CE,false,Rx,0,8,00,00,00,00,00,00,00,00,
1365882,0000019E,false,Rx,0,8,00,EA,5F,FC,FE,20,00,06,
1366111,000001A0,false,Rx,0,8,00,80,00,00,80,00,58,FA,
1366334,000002B2,false,Rx,0,8,00,00,00,00,0F,80,00,04,
1366566,000001A6,false,Rx,0,8,00,00,00,00,00,00,40,F4,
1366791,00000310,false,Rx,0,7,67,2B,35,4F,00,FC,21,00,
1368485,000000A8,false,Rx,0,8,94,02,FA,00,FA,F0,03,00,
1368710,000000A9,false,Rx,0,8,F4,52,A0,0F,32,A0,6F,07,
1368945,000000AA,false,Rx,0,8,2C,02,FA,00,00,00,84,00,
1375283,000000C4,false,Rx,0,7,30,0A,FC,00,00,FF,F1,00,
1375289,000001D6,false,Rx,0,2,FF,F3,00,00,00,00,00,00,
1378263,000000A8,false,Rx,0,8,95,03,FA,00,FA,F0,03,00,
1378487,000000A9,false,Rx,0,8,F5,53,A0,0F,32,A0,6F,07,
1378710,000000AA,false,Rx,0,8,2D,03,FA,00,00,00,84,00,
1385165,000000B6,false,Rx,0,5,06,06,80,00,C8,00,00,00,
1385396,000000C4,false,Rx,0,7,30,0A,FC,00,00,FF,F1,00,
1385619,000000CE,false,Rx,0,8,00,00,00,00,00,00,00,00,
1385847,0000019E,false,Rx,0,8,00,EA,5F,FC,FE,20,00,06,
1386072,000001A0,false,Rx,0,8,00,80,00,00,80,00,68,0B,
1386308,000002B2,false,Rx,0,8,00,00,00,00,0F,80,00,04,
1388362,000000A8,false,Rx,0,8,96,04,FA,00,FA,F0,03,00,
1388586,000000A9,false,Rx,0,8,F6,54,A0,0F,32,A0,6F,07,
1388810,000000AA,false,Rx,0,8,2E,04,FA,00,00,00,84,00,
1395265,000000C4,false,Rx,0,7,30,0A,FC,00,00,FF,F1,00,
1398346,000000A8,false,Rx,0,8,97,05,FA,00,FA,F0,03,00,
1398569,000000A9,false,Rx,0,8,F7,55,A0,0F,32,A0,6F,07,
1398977,000000AA,false,Rx,0,8,2F,05,FA,00,00,00,84,00,
1404338,00000497,false,Rx,0,8,29,52,FF,FF,FF,FF,FF,FF,
1405111,000000B6,false,Rx,0,5,07,07,80,00,C8,00,00,00,
1405342,000000C4,false,Rx,0,7,30,0A,FC,00,00,FF,F1,00,
1405566,000000CE,false,Rx,0,8,00,00,00,00,00,00,00,00,
1405789,0000019E,false,Rx,0,8,00,EA,5F,FC,FE,20,00,06,
1406013,000001A0,false,Rx,0,8,00,80,00,00,80,00,78,1B,
1406245,000002B2,false,Rx,0,8,00,00,00,00,0F,80,00,04,
1408305,000000A8,false,Rx,0,8,98,06,FA,00,FA,F0,03,00,
1408529,000000A9,false,Rx,0,8,F8,56,A0,0F,32,A0,6F,07,
1408754,000000AA,false,Rx,0,8,30,06,FA,00,00,00,84,00,
1408976,000001D0,false,Rx,0,8,3B,FF,48,C3,00,00,CD,A6,
1415023,000000C4,false,Rx,0,7,30,0A,FC,00,00,FF,F1,00,
1418412,000000A8,false,Rx,0,8,99,07,FA,00,FA,F0,03,00,
1418636,000000A9,false,Rx,0,8,F9,57,A0,0F,32,A0,6F,07,
1419042,000000AA,false,Rx,0,8,31,07,FA,00,00,00,84,00,
1424969,000000B6,false,Rx,0,5,08,08,80,00,C8,00,00,00,
1425194,000000C4,false,Rx,0,7,30,0A,FC,00,00,FF,F1,00,
1425609,000000CE,false,Rx,0,8,00,00,00,00,00,00,00,00,
1425832,0000019E,false,Rx,0,8,00,EA,5F,FC,FE,20,00,06,
1426055,000001A0,false,Rx,0,8,00,80,00,00,80,00,88,2B,
1426288,000002B2,false,Rx,0,8,00,00,00,00,0F,80,00,04,
1428360,000000A8,false,Rx,0,8,BA,18,FA,10,FA,F0,03,00,
1428768,000000A9,false,Rx,0,8,FC,58,A1,0F,32,A1,6F,07,
1428995,000000AA,false,Rx,0,8,42,18,FA,00,00,00,84,00,
1435051,000000C4,false,Rx,0,7,30,0A,FC,00,00,FF,F1,00,
1438222,000000A8,false,Rx,0,8,BB,19,FA,10,FA,F0,03,00,
1438453,000000A9,false,Rx,0,8,FD,59,A1,0F,32,A1,6F,07,
1438679,00000130,false,Rx,0,5,41,43,21,0F,DA,00,00,00,
1438902,000000AA,false,Rx,0,8,43,19,FA,00,00,00,84,00,
1445163,000000B6,false,Rx,0,5,09,09,80,00,C8,00,00,00,
1445394,000000C4,false,Rx,0,7,30,0A,FC,00,00,FF,F1,00,
1445618,000000CE,false,Rx,0,8,00,00,00,00,00,00,00,00,
1445846,0000019E,false,Rx,0,8,00,EA,5F,FC,FE,20,00,06,
1446071,000001A0,false,Rx,0,8,00,80,00,00,80,00,98,3B,
1446305,000002B2,false,Rx,0,8,00,00,00,00,0F,80,00,04,
1448175,000000A8,false,Rx,0,8,BC,1A,FA,10,FA,F0,03,00,
1448407,000000A9,false,Rx,0,8,FE,5A,A1,0F,32,A1,6F,07,
1448814,000000AA,false,Rx,0,8,44,1A,FA,00,00,00,84,00,
1455160,000000C4,false,Rx,0,7,30,0A,FC,00,00,FF,F1,00,
1458387,000000A8,false,Rx,0,8,BD,1B,FA,10,FA,F0,03,00,
1458619,000000A9,false,Rx,0,8,FF,5B,A1,0F,32,A1,6F,07,
1458844,000000AA,false,Rx,0,8,45,1B,FA,00,00,00,84,00,
1465112,000000B6,false,Rx,0,5,0A,0A,80,00,C8,00,00,00,
1465345,000000C4,false,Rx,0,7,30,0A,FC,00,00,FF,F1,00,
1465570,000000CE,false,Rx,0,8,00,00,00,00,00,00,00,00,
1465794,0000019E,false,Rx,0,8,00,EA,6F,FC,FE,20,00,16,
1466018,000001A0,false,Rx,0,8,00,80,00,00,80,00,A8,4B,
1466252,000002B2,false,Rx,0,8,00,00,00,00,0F,80,00,04,
1466476,000001A6,false,Rx,0,8,00,00,00,00,00,00,D0,F5,
1466701,000000C8,false,Rx,0,6,24,0A,7C,00,00,CC,00,00,
1466925,00000374,false,Rx,0,5,00,00,00,00,FC,00,00,00,
1468259,000000A8,false,Rx,0,8,BE,1C,FA,10,FA,F0,03,00,
1468483,000000A9,false,Rx,0,8,00,5C,A1,0F,32,A1,6F,07,
1468897,000000AA,false,Rx,0,8,46,1C,FA,00,00,00,84,00,
1475125,000000C4,false,Rx,0,7,30,0A,FC,00,00,FF,F1,00,
1475348,000001D6,false,Rx,0,2,FF,F3,00,00,00,00,00,00,
1478380,000000A8,false,Rx,0,8,BF,1D,FA,10,FA,F0,03,00,
1478603,000000A9,false,Rx,0,8,01,5D,A1,0F,32,A1,6F,07,
1479010,000000AA,false,Rx,0,8,47,1D,FA,00,00,00,84,00,
1485099,000000B6,false,Rx,0,5,0B,0B,80,00,C8,00,00,00,
1485331,000000C4,false,Rx,0,7,30,0A,FC,00,00,FF,F1,00,
1485555,000000CE,false,Rx,0,8,00,00,00,00,00,00,00,00,
1485780,0000019E,false,Rx,0,8,00,EA,6F,FC,FE,20,00,16,
1486004,000001A0,false,Rx,0,8,00,80,00,00,80,00,B8,5B,
1486229,000002B2,false,Rx,0,8,00,00,00,00,0F,80,00,04,
1486461,000004A9,false,Rx,0,8,00,52,FF,FF,FF,FF,FF,FF,
1488338,000000A8,false,Rx,0,8,C0,1E,FA,10,FA,F0,03,00,
1488563,000000A9,false,Rx,0,8,03,5E,A1,0F,32,A1,6F,07,
1488789,000000AA,false,Rx,0,8,48,1E,FA,00,00,00,84,00,
1495187,000000C4,false,Rx,0,7,30,0A,FC,00,00,FF,F1,00,
1498167,000000A8,false,Rx,0,8,B2,10,FA,10,FA,F0,03,00,
1498398,000000A9,false,Rx,0,8,F4,50,A1,0F,32,A1,6F,07,
1498806,000000AA,false,Rx,0,8,3A,10,FA,00,00,00,84,00,
1505085,000000B6,false,Rx,0,5,0C,0C,80,00,C8,00,00,00,
1505318,000000C4,false,Rx,0,7,30,0A,FC,00,00,FF,F1,00,
1505543,000000CE,false,Rx,0,8,00,00,00,00,00,00,00,00,
1505766,0000019E,false,Rx,0,8,00,EA,6F,FC,FE,20,00,16,
1505991,000001A0,false,Rx,0,8,00,80,00,00,80,00,C8,6B,
1506219,000002B2,false,Rx,0,8,00,00,00,00,0F,80,00,04,
1508287,000000A8,false,Rx,0,8,B3,11,FA,10,FA,F0,03,00,
1508511,000000A9,false,Rx,0,8,F5,51,A1,0F,32,A1,6F,07,
1508735,000000AA,false,Rx,0,8,3B,11,FA,00,00,00,84,00,
1508961,000001D0,false,Rx,0,8,3B,FF,49,C3,00,00,CD,A6,
1515108,000000C4,false,Rx,0,7,30,0A,FC,00,00,FF,F1,00,
1518506,000000A8,false,Rx,0,8,B4,12,FA,10,FA,F0,03,00,
1518730,000000A9,false,Rx,0,8,F6,52,A1,0F,32,A1,6F,07,
1518955,000000AA,false,Rx,0,8,3C,12,FA,00,00,00,84,00,
1525089,000000B6,false,Rx,0,5,0D,0D,80,00,C8,00,00,00,
1525325,000000C4,false,Rx,0,7,30,0A,FC,00,00,FF,F1,00,
1525549,000000CE,false,Rx,0,8,00,00,00,00,00,00,00,00,
1525773,0000019E,false,Rx,0,8,00,EA,6F,FC,FE,20,00,16,
1525998,000001A0,false,Rx,0,8,00,80,00,00,80,00,D8,7B,
1526227,000002B2,false,Rx,0,8,00,00,00,00,0F,80,00,04,
1528293,000000A8,false,Rx,0,8,B5,13,FA,10,FA,F0,03,00,
1528521,000000A9,false,Rx,0,8,F7,53,A1,0F,32,A1,6F,07,
1528745,000000AA,false,Rx,0,8,3D,13,FA,00,00,00,84,00,
1535141,000000C4,false,Rx,0,7,30,0A,FC,00,00,FF,F1,00,
1538300,000000A8,false,Rx,0,8,B6,14,FA,10,FA,F0,03,00,
1538525,00000130,false,Rx,0,5,41,43,21,0F,FB,00,00,00,
1538749,000000A9,false,Rx,0,8,F8,54,A1,0F,32,A1,6F,07,
1538974,000000AA,false,Rx,0,8,3E,14,FA,00,00,00,84,00,
1545130,000000B6,false,Rx,0,5,0E,0E,80,00,C8,00,00,00,
1545354,000000C4,false,Rx,0,7,30,0A,FC,00,00,FF,F1,00,
1545578,000000CE,false,Rx,0,8,00,00,00,00,00,00,00,00,
1545803,0000019E,false,Rx,0,8,00,EA,6F,FC,FE,20,00,16,
1546026,000001A0,false,Rx,0,8,00,80,00,00,80,00,E8,8B,
1546262,000002B2,false,Rx,0,8,00,00,00,00,0F,80,00,04,
1548318,000000A8,false,Rx,0,8,B7,15,FA,10,FA,F0,03,00,
1548550,000000A9,false,Rx,0,8,F9,55,A1,0F,32,A1,6F,07,
1548956,000000AA,false,Rx,0,8,3F,15,FA,00,00,00,84,00,
1555126,000000C4,false,Rx,0,7,30,0A,FC,00,00,FF,F1,00,
1558527,000000A8,false,Rx,0,8,B8,16,FA,10,FA,F0,03,00,
1558749,000000A9,false,Rx,0,8,FA,56,A1,0F,32,A1,6F,07,
1558973,000000AA,false,Rx,0,8,40,16,FA,00,00,00,84,00,
1565067,000000B6,false,Rx,0,5,FF,00,80,00,C8,00,00,00,
1565301,000000C4,false,Rx,0,7,30,0A,FC,00,00,FF,F1,00,
1565525,000000CE,false,Rx,0,8,00,00,00,00,00,00,00,00,
1565748,0000019E,false,Rx,0,8,00,EA,6F,FC,FE,20,00,16,
1565973,000001A0,false,Rx,0,8,00,80,00,00,80,00,08,AA,
1566198,000002B2,false,Rx,0,8,00,00,00,00,0F,80,00,04,
1566614,000001A6,false,Rx,0,8,00,00,00,00,00,00,60,F7,
1568116,00000480,false,Rx,0,8,12,42,FD,FF,FF,FF,FF,FF,
1568347,000000A8,false,Rx,0,8,B9,17,FA,10,FA,F0,03,00,
1568571,000000A9,false,Rx,0,8,FB,57,A1,0F,32,A1,6F,07,
1568989,000000AA,false,Rx,0,8,41,17,FA,00,00,00,84,00,
1575313,000000C4,false,Rx,0,7,30,0A,FC,00,00,FF,F1,00,
1575318,000001D6,false,Rx,0,2,FF,F3,00,00,00,00,00,00,
1578378,000000A8,false,Rx,0,8,BA,18,FA,10,FA,F0,03,00,
1578601,000000A9,false,Rx,0,8,FC,58,A1,0F,32,A1,6F,07,
1578826,000000AA,false,Rx,0,8,42,18,FA,00,00,00,84,00,
1585091,000000B6,false,Rx,0,5,00,01,80,00,C8,00,00,00,
1585317,000000C4,false,Rx,0,7,30,0A,FC,00,00,FF,F1,00,
1585542,000000CE,false,Rx,0,8,00,00,00,00,00,00,00,00,
1585950,0000019E,false,Rx,0,8,00,EA,6F,FC,FE,20,00,16,
1586179,000001A0,false,Rx,0,8,00,80,00,00,80,00,18,BA,
1586409,000002B2,false,Rx,0,8,00,00,00,00,0F,80,00,04,
1588284,000000A8,false,Rx,0,8,BB,19,FA,10,FA,F0,03,00,
1588509,000000A9,false,Rx,0,8,FD,59,A1,0F,32,A1,6F,07,
1588918,000000AA,false,Rx,0,8,43,19,FA,00,00,00,84,00,
1595151,000000C4,false,Rx,0,7,30,0A,FC,00,00,FF,F1,00,
1598373,000000A8,false,Rx,0,8,BC,1A,FA,10,FA,F0,03,00,
1598601,000000A9,false,Rx,0,8,FE,5A,A1,0F,32,A1,6F,07,
1598825,000000AA,false,Rx,0,8,44,1A,FA,00,00,00,84,00,
1605096,000000B6,false,Rx,0,5,02,02,80,00,C8,00,00,00,
1605327,000000C4,false,Rx,0,7,30,0A,FC,00,00,FF,F1,00,
1605549,000000CE,false,Rx,0,8,00,00,00,00,00,00,00,00,
1605774,0000019E,false,Rx,0,8,00,EA,6F,FC,FE,20,00,16,
1605998,000001A0,false,Rx,0,8,00,80,00,00,80,00,28,CA,
1606416,000002B2,false,Rx,0,8,00,00,00,00,0F,80,00,04,
1608098,000000A8,false,Rx,0,8,BD,1B,FA,10,FA,F0,03,00,
1608330,000000A9,false,Rx,0,8,FF,5B,A1,0F,32,A1,6F,07,
1608738,000000AA,false,Rx,0,8,45,1B,FA,00,00,00,84,00,
1608961,000001D0,false,Rx,0,8,3B,FF,49,C3,00,00,CD,A6,
1615166,000000C4,false,Rx,0,7,30,0A,FC,00,00,FF,F1,00,
1618260,000000A8,false,Rx,0,8,BE,1C,FA,10,FA,F0,03,00,
1618691,000000A9,false,Rx,0,8,00,5C,A1,0F,32,A1,6F,07,
1618918,000000AA,false,Rx,0,8,46,1C,FA,00,00,00,84,00,
1625194,000000B6,false,Rx,0,5,03,03,80,00,C8,00,00,00,
1625424,000000C4,false,Rx,0,7,30,0A,FC,00,00,FF,F1,00,
1625647,000000CE,false,Rx,0,8,00,00,00,00,00,00,00,00,
1625872,0000019E,false,Rx,0,8,00,EA,6F,FC,FE,20,00,16,
1626101,000001A0,false,Rx,0,8,00,80,00,00,80,00,38,DA,
1626332,000002B2,false,Rx,0,8,00,00,00,00,0F,80,00,04,
1628204,000000A8,false,Rx,0,8,9F,0D,FA,00,FA,F0,03,00,
1628435,000000A9,false,Rx,0,8,FF,5D,A0,0F,32,A0,6F,07,
1628660,000000AA,false,Rx,0,8,37,0D,FA,00,00,00,84,00,
1635247,000000C4,false,Rx,0,7,30,0A,FC,00,00,FF,F1,00,
1638227,000000A8,false,Rx,0,8,A0,0E,FA,00,FA,F0,03,00,
1638458,00000130,false,Rx,0,5,41,43,21,0F,0C,00,00,00,
1638682,000000A9,false,Rx,0,8,00,5E,A0,0F,32,A0,6F,07,
1638907,000000AA,false,Rx,0,8,38,0E,FA,00,00,00,84,00,
1645207,000000B6,false,Rx,0,5,04,04,80,00,C8,00,00,00,
1645935,000000C4,false,Rx,0,7,30,0A,FC,00,00,FF,F1,00,
1645940,000000CE,false,Rx,0,8,00,00,00,00,00,00,00,00,
1645945,0000019E,false,Rx,0,8,00,EA,6F,FC,FE,20,00,16,
1645985,000001A0,false,Rx,0,8,00,80,00,00,80,00,48,EA,
1646404,000002B2,false,Rx,0,8,00,00,00,00,0F,80,00,04,
1648301,000000A8,false,Rx,0,8,92,00,FA,00,FA,F0,03,00,
1648526,000000A9,false,Rx,0,8,F2,50,A0,0F,32,A0,6F,07,
1648933,000000AA,false,Rx,0,8,2A,00,FA,00,00,00,84,00,
1655155,000000C4,false,Rx,0,7,30,0A,FC,00,00,FF,F1,00,
1658202,000000A8,false,Rx,0,8,93,01,FA,00,FA,F0,03,00,
1658465,000000A9,false,Rx,0,8,F3,51,A0,0F,32,A0,6F,07,
1658709,00000492,false,Rx,0,8,17,52,FF,FF,FF,FF,FF,FF,
1658932,000000AA,false,Rx,0,8,2B,01,FA,00,00,00,84,00,
1665020,000000B6,false,Rx,0,5,05,05,80,00,C8,00,00,00,
1665254,000000C4,false,Rx,0,7,30,0A,FC,00,00,FF,F1,00,
1665479,000000CE,false,Rx,0,8,00,00,00,00,00,00,00,00,
1665887,0000019E,false,Rx,0,8,00,EA,6F,FC,FE,20,00,16,
1666112,000001A0,false,Rx,0,8,00,80,00,00,80,00,58,FA,
1666343,000002B2,false,Rx,0,8,00,00,00,00,0F,80,00,04,
1666571,000001A6,false,Rx,0,8,00,00,00,00,00,00,F0,F8,
1666794,000000C8,false,Rx,0,6,24,0A,CC,00,00,EC,00,00,
1668306,000000A8,false,Rx,0,8,94,02,FA,00,FA,F0,03,00,
1668715,000000A9,false,Rx,0,8,F4,52,A0,0F,32,A0,6F,07,
1668953,000000AA,false,Rx,0,8,2C,02,FA,00,00,00,84,00,
1675300,000000C4,false,Rx,0,7,30,0A,FC,00,00,FF,F1,00,
1675305,000001D6,false,Rx,0,2,FF,F3,00,00,00,00,00,00,
1678151,000000A8,false,Rx,0,8,95,03,FA,00,FA,F0,03,00,
1678566,000000A9,false,Rx,0,8,F5,53,A0,0F,32,A0,6F,07,
1678792,000000AA,false,Rx,0,8,2D,03,FA,00,00,00,84,00,
1683234,000001B6,false,Rx,0,7,00,FC,00,00,00,AC,00,00,
1685111,000000B6,false,Rx,0,5,06,06,80,00,C8,00,00,00,
1685343,000000C4,false,Rx,0,7,30,0A,FC,00,00,FF,F1,00,
1685567,000000CE,false,Rx,0,8,00,00,00,00,00,00,00,00,
1685791,0000019E,false,Rx,0,8,00,EA,7F,FC,FE,20,00,26,
1686015,000001A0,false,Rx,0,8,00,80,00,00,80,00,68,0B,
1686247,000002B2,false,Rx,0,8,00,00,00,00,0F,80,00,04,
1688303,000000A8,false,Rx,0,8,96,04,FA,00,FA,F0,03,00,
1688712,000000A9,false,Rx,0,8,F6,54,A0,0F,32,A0,6F,07,
1688939,000000AA,false,Rx,0,8,2E,04,FA,00,00,00,84,00,
1695151,000000C4,false,Rx,0,7,30,0A,FC,00,00,FF,F1,00,
1698130,000000A8,false,Rx,0,8,97,05,FA,00,FA,F0,03,00,
1698365,000000A9,false,Rx,0,8,F7,55,A0,0F,32,A0,6F,07,
1698607,000000AA,false,Rx,0,8,2F,05,FA,00,00,00,84,00,
1705070,000000B6,false,Rx,0,5,07,07,80,00,C8,00,00,00,
1705304,000000C4,false,Rx,0,7,30,0A,FC,00,00,FF,F1,00,
1705528,000000CE,false,Rx,0,8,00,00,00,00,00,00,00,00,
1705751,0000019E,false,Rx,0,8,00,EA,7F,FC,FE,20,00,26,
1705976,000001A0,false,Rx,0,8,00,80,00,00,80,00,78,1B,
1706392,000002B2,false,Rx,0,8,00,00,00,00,0F,80,00,04,
1708077,000000A8,false,Rx,0,8,98,06,FA,00,FA,F0,03,00,
1708311,000000A9,false,Rx,0,8,F8,56,A0,0F,32,A0,6F,07,
1708719,000000AA,false,Rx,0,8,30,06,FA,00,00,00,84,00,
1708942,000001D0,false,Rx,0,8,3B,FF,4A,C3,00,00,CD,A6,
1715143,000000C4,false,Rx,0,7,30,0A,FC,00,00,FF,F1,00,
1718530,000000A8,false,Rx,0,8,99,07,FA,00,FA,F0,03,00,
1718753,000000A9,false,Rx,0,8,F9,57,A0,0F,32,A0,6F,07,
1718976,000000AA,false,Rx,0,8,31,07,FA,00,00,00,84,00,
1725127,000000B6,false,Rx,0,5,08,08,80,00,C8,00,00,00,
1725358,000000C4,false,Rx,0,7,30,0A,FC,00,00,FF,F1,00,
1725582,000000CE,false,Rx,0,8,00,00,00,00,00,00,00,00,
1725810,0000019E,false,Rx,0,8,00,EA,7F,FC,FE,20,00,26,
1726034,000001A0,false,Rx,0,8,00,80,00,00,80,00,88,2B,
1726270,000002B2,false,Rx,0,8,00,00,00,00,0F,80,00,04,
1728138,000000A8,false,Rx,0,8,BA,18,FA,10,FA,F0,03,00,
1728368,000000A9,false,Rx,0,8,FC,58,A1,0F,32,A1,6F,07,
1728592,000000AA,false,Rx,0,8,42,18,FA,00,00,00,84,00,
1735176,000000C4,false,Rx,0,7,30,0A,FC,00,00,FF,F1,00,
1738409,000000A8,false,Rx,0,8,BB,19,FA,10,FA,F0,03,00,
1738414,00000130,false,Rx,0,5,41,43,21,0F,1D,00,00,00,
1738638,000000A9,false,Rx,0,8,FD,59,A1,0F,32,A1,6F,07,
1739046,000000AA,false,Rx,0,8,43,19,FA,00,00,00,84,00,
1744416,00000497,false,Rx,0,8,29,52,FF,FF,FF,FF,FF,FF,
1745187,000000B6,false,Rx,0,5,09,09,80,00,C8,00,00,00,
1745417,000000C4,false,Rx,0,7,30,0A,FC,00,00,FF,F1,00,
1745642,000000CE,false,Rx,0,8,00,00,00,00,00,00,00,00,
1745866,0000019E,false,Rx,0,8,00,EA,7F,FC,FE,20,00,26,
1746091,000001A0,false,Rx,0,8,00,80,00,00,80,00,98,3B,
1746323,000002B2,false,Rx,0,8,00,00,00,00,0F,80,00,04,
1748037,000000A8,false,Rx,0,8,BC,1A,FA,10,FA,F0,03,00,
1748278,000000A9,false,Rx,0,8,FE,5A,A1,0F,32,A1,6F,07,
1748513,000000AA,false,Rx,0,8,44,1A,FA,00,00,00,84,00,
1755104,000000C4,false,Rx,0,7,30,0A,FC,00,00,FF,F1,00,
1758110,000000A8,false,Rx,0,8,BD,1B,FA,10,FA,F0,03,00,
1758349,000000A9,false,Rx,0,8,FF,5B,A1,0F,32,A1,6F,07,
1758572,000000AA,false,Rx,0,8,45,1B,FA,00,00,00,84,00,
1765105,000000B6,false,Rx,0,5,0A,0A,80,00,C8,00,00,00,
1765340,000000C4,false,Rx,0,7,30,0A,FC,00,00,FF,F1,00,
1765564,000000CE,false,Rx,0,8,00,00,00,00,00,00,00,00,
1765789,0000019E,false,Rx,0,8,00,EA,7F,FC,FE,20,00,26,
1766013,000001A0,false,Rx,0,8,00,80,00,00,80,00,A8,4B,
1766247,000002B2,false,Rx,0,8,00,00,00,00,0F,80,00,04,
1766471,000001A6,false,Rx,0,8,00,00,00,00,00,00,80,FA,
1768345,000000A8,false,Rx,0,8,BE,1C,FA,10,FA,F0,03,00,
1768752,000000A9,false,Rx,0,8,00,5C,A1,0F,32,A1,6F,07,
1768988,000000AA,false,Rx,0,8,46,1C,FA,00,00,00,84,00,
1775331,000000C4,false,Rx,0,7,30,0A,FC,00,00,FF,F1,00,
1775336,000001D6,false,Rx,0,2,FF,F3,00,00,00,00,00,00,
1778196,000000A8,false,Rx,0,8,BF,1D,FA,10,FA,F0,03,00,
1778426,000000A9,false,Rx,0,8,01,5D,A1,0F,32,A1,6F,07,
1778833,000000AA,false,Rx,0,8,47,1D,FA,00,00,00,84,00,
1785104,000000B6,false,Rx,0,5,0B,0B,80,00,C8,00,00,00,
1785329,000000C4,false,Rx,0,7,30,0A,FC,00,00,FF,F1,00,
1785554,000000CE,false,Rx,0,8,00,00,00,00,00,00,00,00,
1785778,0000019E,false,Rx,0,8,00,EA,7F,FC,FE,20,00,26,
1786001,000001A0,false,Rx,0,8,00,80,00,00,80,00,B8,5B,
1786229,000002B2,false,Rx,0,8,00,00,00,00,0F,80,00,04,
1788295,000000A8,false,Rx,0,8,C0,1E,FA,10,FA,F0,03,00,
1788520,000000A9,false,Rx,0,8,03,5E,A1,0F,32,A1,6F,07,
1788743,000000AA,false,Rx,0,8,48,1E,FA,00,00,00,84,00,
1795130,000000C4,false,Rx,0,7,30,0A,FC,00,00,FF,F1,00,
1798384,000000A8,false,Rx,0,8,B2,10,FA,10,FA,F0,03,00,
1798606,000000A9,false,Rx,0,8,F4,50,A1,0F,32,A1,6F,07,
1798834,000000AA,false,Rx,0,8,3A,10,FA,00,00,00,84,00,
1805104,000000B6,false,Rx,0,5,0C,0C,80,00,C8,00,00,00,
1805335,000000C4,false,Rx,0,7,30,0A,FC,00,00,FF,F1,00,
1805559,000000CE,false,Rx,0,8,00,00,00,00,00,00,00,00,
1805783,0000019E,false,Rx,0,8,00,EA,7F,FC,FE,20,00,26,
1806007,000001A0,false,Rx,0,8,00,80,00,00,80,00,C8,6B,
1806233,000002B2,false,Rx,0,8,00,00,00,00,0F,80,00,04,
1808112,000000A8,false,Rx,0,8,B3,11,FA,10,FA,F0,03,00,
1808343,000000A9,false,Rx,0,8,F5,51,A1,0F,32,A1,6F,07,
1808567,000000AA,false,Rx,0,8,3B,11,FA,00,00,00,84,00,
1808790,000001D0,false,Rx,0,8,3B,FF,4A,C3,00,00,CD,A6,
1815168,000000C4,false,Rx,0,7,30,0A,FC,00,00,FF,F1,00,
1818353,000000A8,false,Rx,0,8,B4,12,FA,10,FA,F0,03,00,
1818581,000000A9,false,Rx,0,8,F6,52,A1,0F,32,A1,6F,07,
1818806,000000AA,false,Rx,0,8,3C,12,FA,00,00,00,84,00,
1825116,000000B6,false,Rx,0,5,0D,0D,80,00,C8,00,00,00,
1825347,000000C4,false,Rx,0,7,30,0A,FC,00,00,FF,F1,00,
1825572,000000CE,false,Rx,0,8,00,00,00,00,00,00,00,00,
1825796,0000019E,false,Rx,0,8,00,EA,7F,FC,FE,20,00,26,
1826020,000001A0,false,Rx,0,8,00,80,00,00,80,00,D8,7B,
1826256,000002B2,false,Rx,0,8,00,00,00,00,0F,80,00,04,
1826481,000004A9,false,Rx,0,8,00,52,FF,FF,FF,FF,FF,FF,
1827983,000000A8,false,Rx,0,8,B5,13,FA,10,FA,F0,03,00,
1828402,000000A9,false,Rx,0,8,F7,53,A1,0F,32,A1,6F,07,
1828625,000000AA,false,Rx,0,8,3D,13,FA,00,00,00,84,00,
1835195,000000C4,false,Rx,0,7,30,0A,FC,00,00,FF,F1,00,
1838268,000000A8,false,Rx,0,8,B6,14,FA,10,FA,F0,03,00,
1838273,00000130,false,Rx,0,5,41,43,21,0F,2E,00,00,00,
1838496,000000A9,false,Rx,0,8,F8,54,A1,0F,32,A1,6F,07,
1838903,000000AA,false,Rx,0,8,3E,14,FA,00,00,00,84,00,
1845204,000000B6,false,Rx,0,5,0E,0E,80,00,C8,00,00,00,
1845434,000000C4,false,Rx,0,7,30,0A,FC,00,00,FF,F1,00,
1845662,000000CE,false,Rx,0,8,00,00,00,00,00,00,00,00,
1845896,0000019E,false,Rx,0,8,00,EA,7F,FC,FE,20,00,26,
1846130,000001A0,false,Rx,0,8,00,80,00,00,80,00,E8,8B,
1846359,000002B2,false,Rx,0,8,00,00,00,00,0F,80,00,04,
1848254,000000A8,false,Rx,0,8,B7,15,FA,10,FA,F0,03,00,
1848478,000000A9,false,Rx,0,8,F9,55,A1,0F,32,A1,6F,07,
1848703,000000AA,false,Rx,0,8,3F,15,FA,00,00,00,84,00,
1855128,000000C4,false,Rx,0,7,30,0A,FC,00,00,FF,F1,00,
1858120,000000A8,false,Rx,0,8,B8,16,FA,10,FA,F0,03,00,
1858350,000000A9,false,Rx,0,8,FA,56,A1,0F,32,A1,6F,07,
1858577,000000AA,false,Rx,0,8,40,16,FA,00,00,00,84,00,
1865160,000000B6,false,Rx,0,5,FF,00,80,00,C8,00,00,00,
1865394,000000C4,false,Rx,0,7,30,0A,FC,00,00,FF,F1,00,
1865618,000000CE,false,Rx,0,8,00,00,00,00,00,00,00,00,
1865843,0000019E,false,Rx,0,8,00,EA,7F,FC,FE,20,00,26,
1866067,000001A0,false,Rx,0,8,00,80,00,00,80,00,08,AA,
1866300,000002B2,false,Rx,0,8,00,00,00,00,0F,80,00,04,
1866523,000001A6,false,Rx,0,8,00,00,00,00,00,00,10,FC,
1866749,000000C8,false,Rx,0,6,24,0A,2C,00,00,0C,00,00,
1868261,000000A8,false,Rx,0,8,B9,17,FA,10,FA,F0,03,00,
1868485,000000A9,false,Rx,0,8,FB,57,A1,0F,32,A1,6F,07,
1868902,000000AA,false,Rx,0,8,41,17,FA,00,00,00,84,00,
1875345,000000C4,false,Rx,0,7,30,0A,FC,00,00,FF,F1,00,
1875350,000001D6,false,Rx,0,2,FF,F3,00,00,00,00,00,00,
1878028,000000A8,false,Rx,0,8,BA,18,FA,10,FA,F0,03,00,
1878439,000000A9,false,Rx,0,8,FC,58,A1,0F,32,A1,6F,07,
1878666,000000AA,false,Rx,0,8,42,18,FA,00,00,00,84,00,
1885119,000000B6,false,Rx,0,5,00,01,80,00,C8,00,00,00,
1885345,000000C4,false,Rx,0,7,30,0A,FC,00,00,FF,F1,00,
1885568,000000CE,false,Rx,0,8,00,00,00,00,00,00,00,00,
1885793,0000019E,false,Rx,0,8,00,EA,8F,FC,FE,20,00,36,
1886017,000001A0,false,Rx,0,8,00,80,00,00,80,00,18,BA,
1886435,000002B2,false,Rx,0,8,00,00,00,00,0F,80,00,04,
1888120,000000A8,false,Rx,0,8,BB,19,FA,10,FA,F0,03,00,
1888351,000000A9,false,Rx,0,8,FD,59,A1,0F,32,A1,6F,07,
1888762,000000AA,false,Rx,0,8,43,19,FA,00,00,00,84,00,
1891960,000002C0,false,Rx,0,3,3F,81,0C,00,00,00,00,00,
1895385,000000C4,false,Rx,0,7,30,0A,FC,00,00,FF,F1,00,
1898248,000000A8,false,Rx,0,8,BC,1A,FA,10,FA,F0,03,00,
1898498,000000A9,false,Rx,0,8,FE,5A,A1,0F,32,A1,6F,07,
1898723,000000AA,false,Rx,0,8,44,1A,FA,00,00,00,84,00,
1905187,000000B6,false,Rx,0,5,02,02,80,00,C8,00,00,00,
1905412,000000C4,false,Rx,0,7,30,0A,FC,00,00,FF,F1,00,
1905640,000000CE,false,Rx,0,8,00,00,00,00,00,00,00,00,
1905865,0000019E,false,Rx,0,8,00,EA,8F,FC,FE,20,00,36,
1906089,000001A0,false,Rx,0,8,00,80,00,00,80,00,28,CA,
1906313,000002B2,false,Rx,0,8,00,00,00,00,0F,80,00,04,
1908006,000000A8,false,Rx,0,8,BD,1B,FA,10,FA,F0,03,00,
1908233,00000480,false,Rx,0,8,12,42,FD,FF,FF,FF,FF,FF,
1908465,000000A9,false,Rx,0,8,FF,5B,A1,0F,32,A1,6F,07,
1908690,000000AA,false,Rx,0,8,45,1B,FA,00,00,00,84,00,
1908912,000001D0,false,Rx,0,8,3B,FF,4B,C3,00,00,CD,A6,
1915425,000000C4,false,Rx,0,7,30,0A,FC,00,00,FF,F1,00,
1918133,000000A8,false,Rx,0,8,BE,1C,FA,10,FA,F0,03,00,
1918364,000000A9,false,Rx,0,8,00,5C,A1,0F,32,A1,6F,07,
1918770,000000AA,false,Rx,0,8,46,1C,FA,00,00,00,84,00,
1925038,000000B6,false,Rx,0,5,03,03,80,00,C8,00,00,00,
1925272,000000C4,false,Rx,0,7,30,0A,FC,00,00,FF,F1,00,
1925495,000000CE,false,Rx,0,8,00,00,00,00,00,00,00,00,
1925719,0000019E,false,Rx,0,8,00,EA,8F,FC,FE,20,00,36,
1925944,000001A0,false,Rx,0,8,00,80,00,00,80,00,38,DA,
1926360,000002B2,false,Rx,0,8,00,00,00,00,0F,80,00,04,
1928231,000000A8,false,Rx,0,8,BF,1D,FA,10,FA,F0,03,00,
1928460,000000A9,false,Rx,0,8,01,5D,A1,0F,32,A1,6F,07,
1928684,000000AA,false,Rx,0,8,47,1D,FA,00,00,00,84,00,
1935562,000000C4,false,Rx,0,7,30,0A,FC,00,00,FF,F1,00,
1938031,000000A8,false,Rx,0,8,C0,1E,FA,10,FA,F0,03,00,
1938265,000000A9,false,Rx,0,8,03,5E,A1,0F,32,A1,6F,07,
1938489,00000130,false,Rx,0,5,41,43,21,0F,30,00,00,00,
1938714,000000AA,false,Rx,0,8,48,1E,FA,00,00,00,84,00,
1945201,000000B6,false,Rx,0,5,04,04,80,00,C8,00,00,00,
1945432,000000C4,false,Rx,0,7,30,0A,FC,00,00,FF,F1,00,
1945655,000000CE,false,Rx,0,8,00,00,00,00,00,00,00,00,
1945882,0000019E,false,Rx,0,8,00,EA,8F,FC,FE,20,00,36,
1946121,000001A0,false,Rx,0,8,00,80,00,00,80,00,48,EA,
1946357,000002B2,false,Rx,0,8,00,00,00,00,0F,80,00,04,
1948044,000000A8,false,Rx,0,8,B2,10,FA,10,FA,F0,03,00,
1948279,000000A9,false,Rx,0,8,F4,50,A1,0F,32,A1,6F,07,
1948504,000000AA,false,Rx,0,8,3A,10,FA,00,00,00,84,00,
1955769,000000C4,false,Rx,0,7,30,0A,FC,00,00,FF,F1,00,
1958094,000000A8,false,Rx,0,8,B3,11,FA,10,FA,F0,03,00,
1958326,000000A9,false,Rx,0,8,F5,51,A1,0F,32,A1,6F,07,
1958733,000000AA,false,Rx,0,8,3B,11,FA,00,00,00,84,00,
1965027,000000B6,false,Rx,0,5,05,05,80,00,C8,00,00,00,
1965263,000000C4,false,Rx,0,7,30,0A,FC,00,00,FF,F1,00,
1965486,000000CE,false,Rx,0,8,00,00,00,00,00,00,00,00,
1965710,0000019E,false,Rx,0,8,00,EA,8F,FC,FE,20,00,36,
1966120,000001A0,false,Rx,0,8,00,80,00,00,80,00,58,FA,
1966350,000002B2,false,Rx,0,8,00,00,00,00,0F,80,00,04,
1966573,000001A6,false,Rx,0,8,00,00,00,00,00,00,A0,FD,
1968078,000000A8,false,Rx,0,8,B4,12,FA,10,FA,F0,03,00,
1968311,000000A9,false,Rx,0,8,F6,52,A1,0F,32,A1,6F,07,
1968719,000000AA,false,Rx,0,8,3C,12,FA,00,00,00,84,00,
1975899,000000C4,false,Rx,0,7,30,0A,FC,00,00,FF,F1,00,
1975904,000001D6,false,Rx,0,2,FF,F3,00,00,00,00,00,00,
1978075,000000A8,false,Rx,0,8,B5,13,FA,10,FA,F0,03,00,
1978118,000000A9,false,Rx,0,8,F7,53,A1,0F,32,A1,6F,07,
1978533,000000AA,false,Rx,0,8,3D,13,FA,00,00,00,84,00,
1985168,000000B6,false,Rx,0,5,06,06,80,00,C8,00,00,00,
1985398,000000C4,false,Rx,0,7,30,0A,FC,00,00,FF,F1,00,
1985626,000000CE,false,Rx,0,8,00,00,00,00,00,00,00,00,
1985853,0000019E,false,Rx,0,8,00,EA,8F,FC,FE,20,00,36,
1986078,000001A0,false,Rx,0,8,00,80,00,00,80,00,68,0B,
1986312,000002B2,false,Rx,0,8,00,00,00,00,0F,80,00,04,
1987996,000000A8,false,Rx,0,8,B6,14,FA,10,FA,F0,03,00,
1988223,000000A9,false,Rx,0,8,F8,54,A1,0F,32,A1,6F,07,
1988453,000000AA,false,Rx,0,8,3E,14,FA,00,00,00,84,00,
1995905,000000C4,false,Rx,0,7,30,0A,FC,00,00,FF,F1,00,
1998040,000000A8,false,Rx,0,8,B7,15,FA,10,FA,F0,03,00,
1998276,000000A9,false,Rx,0,8,F9,55,A1,0F,32,A1,6F,07,
1998499,00000492,false,Rx,0,8,17,52,FF,FF,FF,FF,FF,FF,
1998724,000000AA,false,Rx,0,8,3F,15,FA,00,00,00,84,00,
2005181,000000B6,false,Rx,0,5,07,07,80,00,C8,00,00,00,
2005404,000000C4,false,Rx,0,7,30,0A,FC,00,00,FF,F1,00,
2005640,000000CE,false,Rx,0,8,00,00,00,00,00,00,00,00,
2005868,0000019E,false,Rx,0,8,00,EA,8F,FC,FE,20,00,36,
2006093,000001A0,false,Rx,0,8,00,80,00,00,80,00,78,1B,
2006324,000002B2,false,Rx,0,8,00,00,00,00,0F,80,00,04,
2008009,000000A8,false,Rx,0,8,B8,16,FA,10,FA,F0,03,00,
2008246,000000A9,false,Rx,0,8,FA,56,A1,0F,32,A1,6F,07,
2008470,000000AA,false,Rx,0,8,40,16,FA,00,00,00,84,00,
2008695,000001D0,false,Rx,0,8,3B,FF,4B,C3,00,00,CD,A6,
2015974,000000C4,false,Rx,0,7,30,0A,FC,00,00,FF,F1,00,
2015979,000002A6,false,Rx,0,2,00,FC,00,00,00,00,00,00,
2018063,000000A8,false,Rx,0,8,B9,17,FA,10,FA,F0,03,00,
2018298,000000A9,false,Rx,0,8,FB,57,A1,0F,32,A1,6F,07,
2018707,000000AA,false,Rx,0,8,41,17,FA,00,00,00,84,00,
2025013,000000B6,false,Rx,0,5,08,08,80,00,C8,00,00,00,
2025246,000000C4,false,Rx,0,7,30,0A,FC,00,00,FF,F1,00,
2025470,000000CE,false,Rx,0,8,00,00,00,00,00,00,00,00,
2025878,0000019E,false,Rx,0,8,00,EA,8F,FC,FE,20,00,36,
2026106,000001A0,false,Rx,0,8,00,80,00,00,80,00,88,2B,
2026336,000002B2,false,Rx,0,8,00,00,00,00,0F,80,00,04,
2028204,000000A8,false,Rx,0,8,9A,08,FA,00,FA,F0,03,00,
2028435,000000A9,false,Rx,0,8,FA,58,A0,0F,32,A0,6F,07,
2028659,000000AA,false,Rx,0,8,32,08,FA,00,00,00,84,00,
2036115,000000C4,false,Rx,0,7,30,0A,FC,00,00,FF,F1,00,
2038021,000000A8,false,Rx,0,8,9B,09,FA,00,FA,F0,03,00,
2038254,000000A9,false,Rx,0,8,FB,59,A0,0F,32,A0,6F,07,
2038481,00000130,false,Rx,0,5,41,43,21,0F,41,00,00,00,
2038708,000000AA,false,Rx,0,8,33,09,FA,00,00,00,84,00,
2045181,000000B6,false,Rx,0,5,09,09,80,00,C8,00,00,00,
2045404,000000C4,false,Rx,0,7,30,0A,FC,00,00,FF,F1,00,
2045640,000000CE,false,Rx,0,8,00,00,00,00,00,00,00,00,
2045868,0000019E,false,Rx,0,8,00,EA,8F,FC,FE,20,00,36,
2046093,000001A0,false,Rx,0,8,00,80,00,00,80,00,98,3B,
2046324,000002B2,false,Rx,0,8,00,00,00,00,0F,80,00,04,
2048017,000000A8,false,Rx,0,8,9C,0A,FA,00,FA,F0,03,00,
2048257,000000A9,false,Rx,0,8,FC,5A,A0,0F,32,A0,6F,07,
2048481,000000AA,false,Rx,0,8,34,0A,FA,00,00,00,84,00,
2056076,000000C4,false,Rx,0,7,30,0A,FC,00,00,FF,F1,00,
2058006,000000A8,false,Rx,0,8,9D,0B,FA,00,FA,F0,03,00,
2058258,000000A9,false,Rx,0,8,FD,5B,A0,0F,32,A0,6F,07,
2058537,000000AA,false,Rx,0,8,35,0B,FA,00,00,00,84,00,
2065042,000000B6,false,Rx,0,5,0A,0A,80,00,C8,00,00,00,
2065278,000000C4,false,Rx,0,7,30,0A,FC,00,00,FF,F1,00,
2065502,000000CE,false,Rx,0,8,00,00,00,00,00,00,00,00,
2065726,0000019E,false,Rx,0,8,00,EA,8F,FC,FE,20,00,36,
2066135,000001A0,false,Rx,0,8,00,80,00,00,80,00,A8,4B,
2066365,000002B2,false,Rx,0,8,00,00,00,00,0F,80,00,04,
2066589,000001A6,false,Rx,0,8,00,00,00,00,00,00,30,FF,
2066814,000000C8,false,Rx,0,6,24,0A,7C,00,00,1C,00,00,
2068140,000000A8,false,Rx,0,8,9E,0C,FA,00,FA,F0,03,00,
2068370,000000A9,false,Rx,0,8,FE,5C,A0,0F,32,A0,6F,07,
2068593,000000AA,false,Rx,0,8,36,0C,FA,00,00,00,84,00,
2076299,000000C4,false,Rx,0,7,30,0A,FC,00,00,FF,F1,00,
2076304,000001D6,false,Rx,0,2,FF,F3,00,00,00,00,00,00,
2078042,000000A8,false,Rx,0,8,9F,0D,FA,00,FA,F0,03,00,
2078316,000000A9,false,Rx,0,8,FF,5D,A0,0F,32,A0,6F,07,
2078541,000000AA,false,Rx,0,8,37,0D,FA,00,00,00,84,00,
2084451,00000497,false,Rx,0,8,29,52,FF,FF,FF,FF,FF,FF,
2085036,000000B6,false,Rx,0,5,0B,0B,80,00,C8,00,00,00,
2085452,000000C4,false,Rx,0,7,30,0A,FC,00,00,FF,F1,00,
2085675,000000CE,false,Rx,0,8,00,00,00,00,00,00,00,00,
2085898,0000019E,false,Rx,0,8,00,EA,8F,FC,FE,20,00,36,
2086127,000001A0,false,Rx,0,8,00,80,00,00,80,00,B8,5B,
2086357,000002B2,false,Rx,0,8,00,00,00,00,0F,80,00,04,
2088045,000000A8,false,Rx,0,8,A0,0E,FA,00,FA,F0,03,00,
2088278,000000A9,false,Rx,0,8,00,5E,A0,0F,32,A0,6F,07,
2088684,000000AA,false,Rx,0,8,38,0E,FA,00,00,00,84,00,
2096323,000000C4,false,Rx,0,7,30,0A,FC,00,00,FF,F1,00,
2098078,000000A8,false,Rx,0,8,92,00,FA,00,FA,F0,03,00,
2098343,000000A9,false,Rx,0,8,F2,50,A0,0F,32,A0,6F,07,
2098574,000000AA,false,Rx,0,8,2A,00,FA,00,00,00,84,00,
2105209,000000B6,false,Rx,0,5,0C,0C,80,00,C8,00,00,00,
2105440,000000C4,false,Rx,0,7,30,0A,FC,00,00,FF,F1,00,
2105663,000000CE,false,Rx,0,8,00,00,00,00,00,00,00,00,
2105886,0000019E,false,Rx,0,8,00,EA,9F,FC,FE,20,00,46,
2106116,000001A0,false,Rx,0,8,00,80,00,00,80,00,C8,6B,
2106346,000002B2,false,Rx,0,8,00,00,00,00,0F,80,00,04,
2107852,000000A8,false,Rx,0,8,93,01,FA,00,FA,F0,03,00,
2108076,000000A9,false,Rx,0,8,F3,51,A0,0F,32,A0,6F,07,
2108495,000000AA,false,Rx,0,8,2B,01,FA,00,00,00,84,00,
2108718,000001D0,false,Rx,0,8,3B,FF,4C,C3,00,00,CD,A6,
2116380,000000C4,false,Rx,0,7,30,0A,FC,00,00,FF,F1,00,
2118101,000000A8,false,Rx,0,8,94,02,FA,00,FA,F0,03,00,
2118352,000000A9,false,Rx,0,8,F4,52,A0,0F,32,A0,6F,07,
2118602,000000AA,false,Rx,0,8,2C,02,FA,00,00,00,84,00,
2125056,000000B6,false,Rx,0,5,0D,0D,80,00,C8,00,00,00,
2125290,000000C4,false,Rx,0,7,30,0A,FC,00,00,FF,F1,00,
2125514,000000CE,false,Rx,0,8,00,00,00,00,00,00,00,00,
2125738,0000019E,false,Rx,0,8,00,EA,9F,FC,FE,20,00,46,
2126148,000001A0,false,Rx,0,8,00,80,00,00,80,00,D8,7B,
2126378,000002B2,false,Rx,0,8,00,00,00,00,0F,80,00,04,
2128063,000000A8,false,Rx,0,8,B5,13,FA,10,FA,F0,03,00,
2128298,000000A9,false,Rx,0,8,F7,53,A1,0F,32,A1,6F,07,
2128522,000000AA,false,Rx,0,8,3D,13,FA,00,00,00,84,00,
2136536,000000C4,false,Rx,0,7,30,0A,FC,00,00,FF,F1,00,
2137886,000000A8,false,Rx,0,8,B6,14,FA,10,FA,F0,03,00,
2138116,000000A9,false,Rx,0,8,F8,54,A1,0F,32,A1,6F,07,
2138363,00000130,false,Rx,0,5,41,43,21,0F,52,00,00,00,
2138607,000000AA,false,Rx,0,8,3E,14,FA,00,00,00,84,00,
2145255,000000B6,false,Rx,0,5,0E,0E,80,00,C8,00,00,00,
2145479,000000C4,false,Rx,0,7,30,0A,FC,00,00,FF,F1,00,
2145701,000000CE,false,Rx,0,8,00,00,00,00,00,00,00,00,
2145926,0000019E,false,Rx,0,8,00,EA,9F,FC,FE,20,00,46,
2146151,000001A0,false,Rx,0,8,00,80,00,00,80,00,E8,8B,
2146382,000002B2,false,Rx,0,8,00,00,00,00,0F,80,00,04,
2147889,000000A8,false,Rx,0,8,B7,15,FA,10,FA,F0,03,00,
2148115,000000A9,false,Rx,0,8,F9,55,A1,0F,32,A1,6F,07,
2148341,000000AA,false,Rx,0,8,3F,15,FA,00,00,00,84,00,
2155162,000000C4,false,Rx,0,7,30,0A,FC,00,00,FF,F1,00,
2157907,000000A8,false,Rx,0,8,B8,16,FA,10,FA,F0,03,00,
2158323,000000A9,false,Rx,0,8,FA,56,A1,0F,32,A1,6F,07,
2158546,000000AA,false,Rx,0,8,40,16,FA,00,00,00,84,00,
2165094,000000B6,false,Rx,0,5,FF,00,80,00,C8,00,00,00,
2165326,000000C4,false,Rx,0,7,30,0A,FC,00,00,FF,F1,00,
2165548,000000CE,false,Rx,0,8,00,00,00,00,00,00,00,00,
2165773,0000019E,false,Rx,0,8,00,EA,9F,FC,FE,20,00,46,
2165997,000001A0,false,Rx,0,8,00,80,00,00,80,00,08,AA,
2166427,000002B2,false,Rx,0,8,00,00,00,00,0F,80,00,04,
2166657,000001A6,false,Rx,0,8,00,00,00,00,00,00,C0,F0,
2166892,000004A9,false,Rx,0,8,00,52,FF,FF,FF,FF,FF,FF,
2168033,000000A8,false,Rx,0,8,B9,17,FA,10,FA,F0,03,00,
2168267,000000A9,false,Rx,0,8,FB,57,A1,0F,32,A1,6F,07,
2168674,000000AA,false,Rx,0,8,41,17,FA,00,00,00,84,00,
2175355,000000C4,false,Rx,0,7,30,0A,FC,00,00,FF,F1,00,
2175360,000001D6,false,Rx,0,2,FF,F3,00,00,00,00,00,00,
2178029,000000A8,false,Rx,0,8,BA,18,FA,10,FA,F0,03,00,
2178260,000000A9,false,Rx,0,8,FC,58,A1,0F,32,A1,6F,07,
2178679,000000AA,false,Rx,0,8,42,18,FA,00,00,00,84,00,
2185155,000000B6,false,Rx,0,5,00,01,80,00,C8,00,00,00,
2185379,000000C4,false,Rx,0,7,30,0A,FC,00,00,FF,F1,00,
2185612,000000CE,false,Rx,0,8,00,00,00,00,00,00,00,00,
2185835,0000019E,false,Rx,0,8,00,EA,9F,FC,FE,20,00,46,
2186060,000001A0,false,Rx,0,8,00,80,00,00,80,00,18,BA,
2186296,000002B2,false,Rx,0,8,00,00,00,00,0F,80,00,04,
2187798,000000A8,false,Rx,0,8,BB,19,FA,10,FA,F0,03,00,
2188022,000000A9,false,Rx,0,8,FD,59,A1,0F,32,A1,6F,07,
2188432,000000AA,false,Rx,0,8,43,19,FA,00,00,00,84,00,
2195267,000000C4,false,Rx,0,7,30,0A,FC,00,00,FF,F1,00,
2198005,000000A8,false,Rx,0,8,BC,1A,FA,10,FA,F0,03,00,
2198234,000000A9,false,Rx,0,8,FE,5A,A1,0F,32,A1,6F,07,
2198466,000000AA,false,Rx,0,8,44,1A,FA,00,00,00,84,00,
2205181,000000B6,false,Rx,0,5,02,02,80,00,C8,00,00,00,
2205411,000000C4,false,Rx,0,7,30,0A,FC,00,00,FF,F1,00,
2205634,000000CE,false,Rx,0,8,00,00,00,00,00,00,00,00,
2205862,0000019E,false,Rx,0,8,00,EA,9F,FC,FE,20,00,46,
2206086,000001A0,false,Rx,0,8,00,80,00,00,80,00,28,CA,
2206322,000002B2,false,Rx,0,8,00,00,00,00,0F,80,00,04,
2207824,000000A8,false,Rx,0,8,BD,1B,FA,10,FA,F0,03,00,
2208047,000000A9,false,Rx,0,8,FF,5B,A1,0F,32,A1,6F,07,
2208276,000000AA,false,Rx,0,8,45,1B,FA,00,00,00,84,00,
2208683,000001D0,false,Rx,0,8,3B,FF,4C,C3,00,00,CD,A6,
2215135,000000C4,false,Rx,0,7,30,0A,FC,00,00,FF,F1,00,
2218179,000000A8,false,Rx,0,8,BE,1C,FA,10,FA,F0,03,00,
2218592,000000A9,false,Rx,0,8,00,5C,A1,0F,32,A1,6F,07,
2218816,000000AA,false,Rx,0,8,46,1C,FA,00,00,00,84,00,
2224997,000000B6,false,Rx,0,5,03,03,80,00,C8,00,00,00,
2225225,000000C4,false,Rx,0,7,30,0A,FC,00,00,FF,F1,00,
2225641,000000CE,false,Rx,0,8,00,00,00,00,00,00,00,00,
2225865,0000019E,false,Rx,0,8,00,EA,9F,FC,FE,20,00,46,
2226089,000001A0,false,Rx,0,8,00,80,00,00,80,00,38,DA,
2226324,000002B2,false,Rx,0,8,00,00,00,00,0F,80,00,04,
2228009,000000A8,false,Rx,0,8,9F,0D,FA,00,FA,F0,03,00,
2228245,000000A9,false,Rx,0,8,FF,5D,A0,0F,32,A0,6F,07,
2228468,000000AA,false,Rx,0,8,37,0D,FA,00,00,00,84,00,
2235104,000000C4,false,Rx,0,7,30,0A,FC,00,00,FF,F1,00,
2238002,000000A8,false,Rx,0,8,A0,0E,FA,00,FA,F0,03,00,
2238455,000000A9,false,Rx,0,8,00,5E,A0,0F,32,A0,6F,07,
2238460,00000130,false,Rx,0,5,41,43,21,0F,63,00,00,00,
2238684,000000AA,false,Rx,0,8,38,0E,FA,00,00,00,84,00,
2245190,000000B6,false,Rx,0,5,04,04,80,00,C8,00,00,00,
2245420,000000C4,false,Rx,0,7,30,0A,FC,00,00,FF,F1,00,
2245647,000000CE,false,Rx,0,8,00,00,00,00,00,00,00,00,
2245875,0000019E,false,Rx,0,8,00,EA,9F,FC,FE,20,00,46,
2246104,000001A0,false,Rx,0,8,00,80,00,00,80,00,48,EA,
2246335,000002B2,false,Rx,0,8,00,00,00,00,0F,80,00,04,
2247839,000000A8,false,Rx,0,8,92,00,FA,00,FA,F0,03,00,
2248063,000000A9,false,Rx,0,8,F2,50,A0,0F,32,A0,6F,07,
2248298,00000480,false,Rx,0,8,12,42,FD,FF,FF,FF,FF,FF,
2248523,000000AA,false,Rx,0,8,2A,00,FA,00,00,00,84,00,
2255165,000000C4,false,Rx,0,7,30,0A,FC,00,00,FF,F1,00,
2257894,000000A8,false,Rx,0,8,93,01,FA,00,FA,F0,03,00,
2258119,000000A9,false,Rx,0,8,F3,51,A0,0F,32,A0,6F,07,
2258349,000000AA,false,Rx,0,8,2B,01,FA,00,00,00,84,00,
2265057,000000B6,false,Rx,0,5,05,05,80,00,C8,00,00,00,
2265293,000000C4,false,Rx,0,7,30,0A,FC,00,00,FF,F1,00,
2265516,000000CE,false,Rx,0,8,00,00,00,00,00,00,00,00,
2265741,0000019E,false,Rx,0,8,00,EA,9F,FC,FE,20,00,46,
2265964,000001A0,false,Rx,0,8,00,80,00,00,80,00,58,FA,
2266380,000002B2,false,Rx,0,8,00,00,00,00,0F,80,00,04,
2266604,000001A6,false,Rx,0,8,00,00,00,00,00,00,50,F2,
2266829,000000C8,false,Rx,0,6,24,0A,CC,00,00,2C,00,00,
2267974,000000A8,false,Rx,0,8,94,02,FA,00,FA,F0,03,00,
2268201,000000A9,false,Rx,0,8,F4,52,A0,0F,32,A0,6F,07,
2268615,000000AA,false,Rx,0,8,2C,02,FA,00,00,00,84,00,
2275320,000000C4,false,Rx,0,7,30,0A,FC,00,00,FF,F1,00,
2275325,000001D6,false,Rx,0,2,FF,F3,00,00,00,00,00,00,
2278168,000000A8,false,Rx,0,8,95,03,FA,00,FA,F0,03,00,
2278397,000000A9,false,Rx,0,8,F5,53,A0,0F,32,A0,6F,07,
2278621,000000AA,false,Rx,0,8,2D,03,FA,00,00,00,84,00,
2285111,000000B6,false,Rx,0,5,06,06,80,00,C8,00,00,00,
2285337,000000C4,false,Rx,0,7,30,0A,FC,00,00,FF,F1,00,
2285562,000000CE,false,Rx,0,8,00,00,00,00,00,00,00,00,
2285786,0000019E,false,Rx,0,8,00,EA,9F,FC,FE,20,00,46,
2286010,000001A0,false,Rx,0,8,00,80,00,00,80,00,68,0B,
2286243,000002B2,false,Rx,0,8,00,00,00,00,0F,80,00,04,
2287929,000000A8,false,Rx,0,8,96,04,FA,00,FA,F0,03,00,
2288154,000000A9,false,Rx,0,8,F6,54,A0,0F,32,A0,6F,07,
2288388,000000AA,false,Rx,0,8,2E,04,FA,00,00,00,84,00,
2295204,000000C4,false,Rx,0,7,30,0A,FC,00,00,FF,F1,00,
2297761,000000A8,false,Rx,0,8,97,05,FA,00,FA,F0,03,00,
2297999,000000A9,false,Rx,0,8,F7,55,A0,0F,32,A0,6F,07,
2298415,000000AA,false,Rx,0,8,2F,05,FA,00,00,00,84,00,
2305086,000000B6,false,Rx,0,5,07,07,80,00,C8,00,00,00,
2305313,000000C4,false,Rx,0,7,30,0A,FC,00,00,FF,F1,00,
2305544,000000CE,false,Rx,0,8,00,00,00,00,00,00,00,00,
2305768,0000019E,false,Rx,0,8,00,EA,AF,FC,FE,20,00,56,
2305992,000001A0,false,Rx,0,8,00,80,00,00,80,00,78,1B,
2306409,000002B2,false,Rx,0,8,00,00,00,00,0F,80,00,04,
2307912,000000A8,false,Rx,0,8,98,06,FA,00,FA,F0,03,00,
2308136,000000A9,false,Rx,0,8,F8,56,A0,0F,32,A0,6F,07,
2308367,000000AA,false,Rx,0,8,30,06,FA,00,00,00,84,00,
2308591,000001D0,false,Rx,0,8,3B,FF,4D,C3,00,00,CD,A6,
2315223,000000C4,false,Rx,0,7,30,0A,FC,00,00,FF,F1,00,
2318139,000000A8,false,Rx,0,8,99,07,FA,00,FA,F0,03,00,
2318366,000000A9,false,Rx,0,8,F9,57,A0,0F,32,A0,6F,07,
2318599,000000AA,false,Rx,0,8,31,07,FA,00,00,00,84,00,
2325100,000000B6,false,Rx,0,5,08,08,80,00,C8,00,00,00,
2325330,000000C4,false,Rx,0,7,30,0A,FC,00,00,FF,F1,00,
2325555,000000CE,false,Rx,0,8,00,00,00,00,00,00,00,00,
2325779,0000019E,false,Rx,0,8,00,EA,AF,FC,FE,20,00,56,
2326004,000001A0,false,Rx,0,8,00,80,00,00,80,00,88,2B,
2326229,000002B2,false,Rx,0,8,00,00,00,00,0F,80,00,04,
2327921,000000A8,false,Rx,0,8,9A,08,FA,00,FA,F0,03,00,
2328151,000000A9,false,Rx,0,8,FA,58,A0,0F,32,A0,6F,07,
2328382,000000AA,false,Rx,0,8,32,08,FA,00,00,00,84,00,
2335197,000000C4,false,Rx,0,7,30,0A,FC,00,00,FF,F1,00,
2337706,000001B5,false,Rx,0,6,00,FF,02,00,88,FF,00,00,
2337950,000000A8,false,Rx,0,8,9B,09,FA,00,FA,F0,03,00,
2338184,000000A9,false,Rx,0,8,FB,59,A0,0F,32,A0,6F,07,
2338414,000000AA,false,Rx,0,8,33,09,FA,00,00,00,84,00,
2338823,00000492,false,Rx,0,8,17,52,FF,FF,FF,FF,FF,FF,
2339443,00000130,false,Rx,0,5,41,43,21,0F,74,00,00,00,
2345203,000000B6,false,Rx,0,5,09,09,80,00,C8,00,00,00,
2345428,000000C4,false,Rx,0,7,30,0A,FC,00,00,FF,F1,00,
2345656,000000CE,false,Rx,0,8,00,00,00,00,00,00,00,00,
2345884,0000019E,false,Rx,0,8,00,EA,AF,FC,FE,20,00,56,
2346112,000001A0,false,Rx,0,8,00,80,00,00,80,00,98,3B,
2346343,000002B2,false,Rx,0,8,00,00,00,00,0F,80,00,04,
2348034,000000A8,false,Rx,0,8,9C,0A,FA,00,FA,F0,03,00,
2348269,000000A9,false,Rx,0,8,FC,5A,A0,0F,32,A0,6F,07,
2348493,000000AA,false,Rx,0,8,34,0A,FA,00,00,00,84,00,
2355124,000000C4,false,Rx,0,7,30,0A,FC,00,00,FF,F1,00,
2357788,000000A8,false,Rx,0,8,9D,0B,FA,00,FA,F0,03,00,
2358030,000000A9,false,Rx,0,8,FD,5B,A0,0F,32,A0,6F,07,
2358270,000000AA,false,Rx,0,8,35,0B,FA,00,00,00,84,00,
2364992,00000310,false,Rx,0,7,67,2C,35,4F,00,FC,21,00,
2365219,000000B6,false,Rx,0,5,0A,0A,80,00,C8,00,00,00,
2365451,000000C4,false,Rx,0,7,30,0A,FC,00,00,FF,F1,00,
2365675,000000CE,false,Rx,0,8,00,00,00,00,00,00,00,00,
2365902,0000019E,false,Rx,0,8,00,EA,AF,FC,FE,20,00,56,
2366130,000001A0,false,Rx,0,8,00,80,00,00,80,00,A8,4B,
2366356,000002B2,false,Rx,0,8,00,00,00,00,0F,80,00,04,
2366580,000001A6,false,Rx,0,8,00,00,00,00,00,00,E0,F3,
2367903,000000A8,false,Rx,0,8,9E,0C,FA,00,FA,F0,03,00,
2368130,000000A9,false,Rx,0,8,FE,5C,A0,0F,32,A0,6F,07,
2368543,000000AA,false,Rx,0,8,36,0C,FA,00,00,00,84,00,
2375202,000000C4,false,Rx,0,7,30,0A,FC,00,00,FF,F1,00,
2375437,000001D6,false,Rx,0,2,FF,F3,00,00,00,00,00,00,
2378024,000000A8,false,Rx,0,8,9F,0D,FA,00,FA,F0,03,00,
2378277,000000A9,false,Rx,0,8,FF,5D,A0,0F,32,A0,6F,07,
2378510,000000AA,false,Rx,0,8,37,0D,FA,00,00,00,84,00,
2385068,000000B6,false,Rx,0,5,0B,0B,80,00,C8,00,00,00,
2385303,000000C4,false,Rx,0,7,30,0A,FC,00,00,FF,F1,00,
2385712,000000CE,false,Rx,0,8,00,00,00,00,00,00,00,00,
2385934,0000019E,false,Rx,0,8,00,EA,AF,FC,FE,20,00,56,
2386160,000001A0,false,Rx,0,8,00,80,00,00,80,00,B8,5B,
2386389,000002B2,false,Rx,0,8,00,00,00,00,0F,80,00,04,
2387713,000000A8,false,Rx,0,8,A0,0E,FA,00,FA,F0,03,00,
2387936,000000A9,false,Rx,0,8,00,5E,A0,0F,32,A0,6F,07,
2388354,000000AA,false,Rx,0,8,38,0E,FA,00,00,00,84,00,
2395177,000000C4,false,Rx,0,7,30,0A,FC,00,00,FF,F1,00,
2398324,000000A8,false,Rx,0,8,92,00,FA,00,FA,F0,03,00,
2398329,000000A9,false,Rx,0,8,F2,50,A0,0F,32,A0,6F,07,
2398574,000000AA,false,Rx,0,8,2A,00,FA,00,00,00,84,00,
2405124,000000B6,false,Rx,0,5,0C,0C,80,00,C8,00,00,00,
2405355,000000C4,false,Rx,0,7,30,0A,FC,00,00,FF,F1,00,
2405577,000000CE,false,Rx,0,8,00,00,00,00,00,00,00,00,
2405802,0000019E,false,Rx,0,8,00,EA,AF,FC,FE,20,00,56,
2406026,000001A0,false,Rx,0,8,00,80,00,00,80,00,C8,6B,
2406440,000002B2,false,Rx,0,8,00,00,00,00,0F,80,00,04,
2407763,000000A8,false,Rx,0,8,93,01,FA,00,FA,F0,03,00,
2407987,000000A9,false,Rx,0,8,F3,51,A0,0F,32,A0,6F,07,
2408405,000000AA,false,Rx,0,8,2B,01,FA,00,00,00,84,00,
2408628,000001D0,false,Rx,0,8,3B,FF,4D,C3,00,00,CD,A6,
2415274,000000C4,false,Rx,0,7,30,0A,FC,00,00,FF,F1,00,
2418319,000000A8,false,Rx,0,8,94,02,FA,00,FA,F0,03,00,
2418324,000000A9,false,Rx,0,8,F4,52,A0,0F,32,A0,6F,07,
2418568,000000AA,false,Rx,0,8,2C,02,FA,00,00,00,84,00,
2424353,00000497,false,Rx,0,8,29,52,FF,FF,FF,FF,FF,FF,
2425126,000000B6,false,Rx,0,5,0D,0D,80,00,C8,00,00,00,
2425358,000000C4,false,Rx,0,7,30,0A,FC,00,00,FF,F1,00,
2425581,000000CE,false,Rx,0,8,00,00,00,00,00,00,00,00,
2425806,0000019E,false,Rx,0,8,00,EA,AF,FC,FE,20,00,56,
2426030,000001A0,false,Rx,0,8,00,80,00,00,80,00,D8,7B,
2426443,000002B2,false,Rx,0,8,00,00,00,00,0F,80,00,04,
2427766,000000A8,false,Rx,0,8,B5,13,FA,10,FA,F0,03,00,
2428176,000000A9,false,Rx,0,8,F7,53,A1,0F,32,A1,6F,07,
2428406,000000AA,false,Rx,0,8,3D,13,FA,00,00,00,84,00,
2435227,000000C4,false,Rx,0,7,30,0A,FC,00,00,FF,F1,00,
2438438,000000A8,false,Rx,0,8,B6,14,FA,10,FA,F0,03,00,
2438443,000000A9,false,Rx,0,8,F8,54,A1,0F,32,A1,6F,07,
2438448,00000130,false,Rx,0,5,41,43,21,0F,85,00,00,00,
2438693,000000AA,false,Rx,0,8,3E,14,FA,00,00,00,84,00,
2445216,000000B6,false,Rx,0,5,0E,0E,80,00,C8,00,00,00,
2445447,000000C4,false,Rx,0,7,30,0A,FC,00,00,FF,F1,00,
2445674,000000CE,false,Rx,0,8,00,00,00,00,00,00,00,00,
2445902,0000019E,false,Rx,0,8,00,EA,AF,FC,FE,20,00,56,
2446130,000001A0,false,Rx,0,8,00,80,00,00,80,00,E8,8B,
2446356,000002B2,false,Rx,0,8,00,00,00,00,0F,80,00,04,
2447859,000000A8,false,Rx,0,8,B7,15,FA,10,FA,F0,03,00,
2448083,000000A9,false,Rx,0,8,F9,55,A1,0F,32,A1,6F,07,
2448502,000000AA,false,Rx,0,8,3F,15,FA,00,00,00,84,00,
2455134,000000C4,false,Rx,0,7,30,0A,FC,00,00,FF,F1,00,
2458568,000000A8,false,Rx,0,8,B8,16,FA,10,FA,F0,03,00,
2458573,000000A9,false,Rx,0,8,FA,56,A1,0F,32,A1,6F,07,
2458579,000000AA,false,Rx,0,8,40,16,FA,00,00,00,84,00,
2465072,000000B6,false,Rx,0,5,FF,00,80,00,C8,00,00,00,
2465307,000000C4,false,Rx,0,7,30,0A,FC,00,00,FF,F1,00,
2465530,000000CE,false,Rx,0,8,00,00,00,00,00,00,00,00,
2465755,0000019E,false,Rx,0,8,00,EA,AF,FC,FE,20,00,56,
2465979,000001A0,false,Rx,0,8,00,80,00,00,80,00,08,AA,
2466413,000002B2,false,Rx,0,8,00,00,00,00,0F,80,00,04,
2466673,000001A6,false,Rx,0,8,00,00,00,00,00,00,70,F5,
2466678,000000C8,false,Rx,0,6,24,0A,2C,00,00,6C,00,00,
2466903,00000374,false,Rx,0,5,00,00,00,00,FC,00,00,00,
2468046,000000A8,false,Rx,0,8,B9,17,FA,10,FA,F0,03,00,
2468280,000000A9,false,Rx,0,8,FB,57,A1,0F,32,A1,6F,07,
2468504,000000AA,false,Rx,0,8,41,17,FA,00,00,00,84,00,
2475184,000000C4,false,Rx,0,7,30,0A,FC,00,00,FF,F1,00,
2475416,000001D6,false,Rx,0,2,FF,F3,00,00,00,00,00,00,
2478634,000000A8,false,Rx,0,8,BA,18,FA,10,FA,F0,03,00,
2478639,000000A9,false,Rx,0,8,FC,58,A1,0F,32,A1,6F,07,
2478644,000000AA,false,Rx,0,8,42,18,FA,00,00,00,84,00,
2485179,000000B6,false,Rx,0,5,00,01,80,00,C8,00,00,00,
2485402,000000C4,false,Rx,0,7,30,0A,FC,00,00,FF,F1,00,
2485638,000000CE,false,Rx,0,8,00,00,00,00,00,00,00,00,
2485866,0000019E,false,Rx,0,8,00,EA,AF,FC,FE,20,00,56,
2486091,000001A0,false,Rx,0,8,00,80,00,00,80,00,18,BA,
2486323,000002B2,false,Rx,0,8,00,00,00,00,0F,80,00,04,
2488009,000000A8,false,Rx,0,8,BB,19,FA,10,FA,F0,03,00,
2488252,000000A9,false,Rx,0,8,FD,59,A1,0F,32,A1,6F,07,
2488476,000000AA,false,Rx,0,8,43,19,FA,00,00,00,84,00,
2495303,000000C4,false,Rx,0,7,30,0A,FC,00,00,FF,F1,00,
2498764,000000A8,false,Rx,0,8,BC,1A,FA,10,FA,F0,03,00,
2498769,000000A9,false,Rx,0,8,FE,5A,A1,0F,32,A1,6F,07,
2498774,000000AA,false,Rx,0,8,44,1A,FA,00,00,00,84,00,
2505119,000000B6,false,Rx,0,5,02,02,80,00,C8,00,00,00,
2505349,000000C4,false,Rx,0,7,30,0A,FC,00,00,FF,F1,00,
2505574,000000CE,false,Rx,0,8,00,00,00,00,00,00,00,00,
2505798,0000019E,false,Rx,0,8,00,EA,AF,FC,FE,20,00,56,
2506022,000001A0,false,Rx,0,8,00,80,00,00,80,00,28,CA,
2506254,000002B2,false,Rx,0,8,00,00,00,00,0F,80,00,04,
2506662,000004A9,false,Rx,0,8,00,52,FF,FF,FF,FF,FF,FF,
2507800,000000A8,false,Rx,0,8,BD,1B,FA,10,FA,F0,03,00,
2508028,000000A9,false,Rx,0,8,FF,5B,A1,0F,32,A1,6F,07,
2508263,000000AA,false,Rx,0,8,45,1B,FA,00,00,00,84,00,
2508488,000001D0,false,Rx,0,8,3B,FF,4E,C3,00,00,CD,A6,
2515094,000000C4,false,Rx,0,7,30,0A,FC,00,00,FF,F1,00,
2518856,000000A8,false,Rx,0,8,BE,1C,FA,10,FA,F0,03,00,
2518861,000000A9,false,Rx,0,8,00,5C,A1,0F,32,A1,6F,07,
2518866,000000AA,false,Rx,0,8,46,1C,FA,00,00,00,84,00,
