Time Stamp,ID,Extended,Dir,Bus,LEN,D1,D2,D3,D4,D5,D6,D7,D8
2799643,000000C4,false,Rx,0,7,51,FF,FD,00,00,FF,F1,00,
2799896,000000CE,false,Rx,0,8,00,00,00,00,00,00,00,00,
2800110,000000B6,false,Rx,0,5,4B,0C,80,00,08,00,00,00,
2800366,0000019E,false,Rx,0,8,00,EA,7F,FC,FE,63,00,69,
2800623,000001A0,false,Rx,0,8,00,80,00,A0,FF,12,C0,95,
2800882,000001A6,false,Rx,0,8,00,00,00,00,00,00,F8,F0,
2801151,000002B2,false,Rx,0,8,00,00,00,00,40,00,00,04,
2801352,00000374,false,Rx,0,5,00,00,FF,FF,FC,00,00,00,
2803768,000000A8,false,Rx,0,8,A4,02,FA,00,00,0D,CF,22,
2803999,000000A9,false,Rx,0,8,A0,02,A0,5F,11,D9,0F,FA,
2804245,000000AA,false,Rx,0,8,91,E2,0F,00,00,00,F4,00,
2809632,000000C4,false,Rx,0,7,51,FF,FD,00,00,FF,F1,00,
2813847,000000A8,false,Rx,0,8,A5,03,FA,00,00,0D,CF,22,
2814067,000000A9,false,Rx,0,8,A1,03,A0,5F,11,D9,0F,FA,
2814302,000000AA,false,Rx,0,8,92,E3,0F,00,00,00,F4,00,
2816906,00000130,false,Rx,0,5,00,0D,D0,0F,DD,00,00,00,
2819662,000000C4,false,Rx,0,7,51,FF,FD,00,00,FF,F1,00,
2819926,000000CE,false,Rx,0,8,00,00,00,00,00,00,00,00,
2820108,000000B6,false,Rx,0,5,4C,0D,80,00,08,00,00,00,
2820375,0000019E,false,Rx,0,8,00,EA,7F,FC,FE,63,00,69,
2820633,000001A0,false,Rx,0,8,00,80,00,C0,FF,0F,D0,C2,
2820901,000002B2,false,Rx,0,8,00,00,00,00,30,00,00,04,
2823801,000000A8,false,Rx,0,8,A6,04,FA,00,00,0D,CF,22,
2824032,000000A9,false,Rx,0,8,A2,04,A0,5F,11,D9,0F,FA,
2824267,000000AA,false,Rx,0,8,93,E4,0F,00,00,00,F4,00,
2829641,000000C4,false,Rx,0,7,51,FF,FD,00,00,FF,F1,00,
2833789,000000A8,false,Rx,0,8,A7,05,FA,00,00,0D,CF,22,
2834020,000000A9,false,Rx,0,8,A3,05,A0,5F,11,D9,0F,FA,
2834255,000000AA,false,Rx,0,8,94,E5,0F,00,00,00,F4,00,
2839686,000000C4,false,Rx,0,7,51,FF,FD,00,00,FF,F1,00,
2839939,000000CE,false,Rx,0,8,00,00,00,00,00,00,00,00,
2840120,000000B6,false,Rx,0,5,4D,0E,80,00,08,00,00,00,
2840387,0000019E,false,Rx,0,8,00,EA,7F,FC,FE,63,00,69,
2840646,000001A0,false,Rx,0,8,00,80,00,C0,FF,12,E0,D5,
2840913,000002B2,false,Rx,0,8,00,00,00,00,40,00,00,04,
2843780,000000A8,false,Rx,0,8,A8,06,FA,00,00,0D,CF,22,
2844011,000000A9,false,Rx,0,8,A4,06,A0,5F,11,D9,0F,FA,
2844257,000000AA,false,Rx,0,8,95,E6,0F,00,00,00,F4,00,
2844482,000001D0,false,Rx,0,8,4B,3C,03,C6,FA,DA,8D,A0,
2849637,000000C4,false,Rx,0,7,51,FF,FD,00,00,FF,F1,00,
2853806,000000A8,false,Rx,0,8,A9,07,FA,00,00,0D,CF,22,
2854038,000000A9,false,Rx,0,8,A5,07,A0,5F,11,D9,0F,FA,
2854273,000000AA,false,Rx,0,8,96,E7,0F,00,00,00,F4,00,
2859691,000000C4,false,Rx,0,7,51,FF,FD,00,00,FF,F1,00,
2859945,000000CE,false,Rx,0,8,00,00,00,00,00,00,00,00,
2860125,000000B6,false,Rx,0,5,3F,00,80,00,08,00,00,00,
2860415,0000019E,false,Rx,0,8,00,EA,7F,FC,FE,63,00,69,
2860673,000001A0,false,Rx,0,8,00,80,00,C0,FF,12,00,F4,
2860941,000002B2,false,Rx,0,8,00,00,00,00,40,00,00,04,
2861199,000004A9,false,Rx,0,8,30,52,FF,FF,FF,FF,FF,FF,
2863790,000000A8,false,Rx,0,8,AA,08,FA,00,00,0D,CF,22,
2864021,000000A9,false,Rx,0,8,A6,08,A0,5F,11,D9,0F,FA,
2864256,000000AA,false,Rx,0,8,97,E8,0F,00,00,00,F4,00,
2869653,000000C4,false,Rx,0,7,51,FF,FD,00,00,FF,F1,00,
2873791,000000A8,false,Rx,0,8,AB,09,FA,00,00,0D,CF,22,
2874022,000000A9,false,Rx,0,8,A7,09,A0,5F,11,D9,0F,FA,
2874257,000000AA,false,Rx,0,8,98,E9,0F,00,00,00,F4,00,
2879621,000000C4,false,Rx,0,7,51,FF,FD,00,00,FF,F1,00,
2879874,000000CE,false,Rx,0,8,00,00,00,00,00,00,00,00,
2880055,000000B6,false,Rx,0,5,40,01,80,00,08,00,00,00,
2880333,0000019E,false,Rx,0,8,00,EA,7F,FC,FE,63,00,69,
2880591,000001A0,false,Rx,0,8,00,80,00,C0,FF,0F,10,01,
2880859,000002B2,false,Rx,0,8,00,00,00,00,30,00,00,04,
2883771,000000A8,false,Rx,0,8,AC,0A,FA,00,00,0D,CF,22,
2884002,000000A9,false,Rx,0,8,A8,0A,A0,5F,11,D9,0F,FA,
2884248,000000AA,false,Rx,0,8,99,EA,0F,00,00,00,F4,00,
2889613,000000C4,false,Rx,0,7,51,FF,FD,00,00,FF,F1,00,
2891897,000001FB,false,Rx,0,2,F9,FF,00,00,00,00,00,00,
2893811,000000A8,false,Rx,0,8,AD,0B,FA,00,00,0D,CF,22,
2894031,000000A9,false,Rx,0,8,A9,0B,A0,5F,11,D9,0F,FA,
2894266,000000AA,false,Rx,0,8,9A,EB,0F,00,00,00,F4,00,
2899618,000000C4,false,Rx,0,7,51,FF,FD,00,00,FF,F1,00,
2899872,000000CE,false,Rx,0,8,00,00,00,00,00,00,00,00,
2900063,000000B6,false,Rx,0,5,41,02,80,00,08,00,00,00,
2900364,0000019E,false,Rx,0,8,00,EA,7F,FC,FE,63,00,69,
2900622,000001A0,false,Rx,0,8,00,80,00,C0,FF,12,20,15,
2900890,000001A6,false,Rx,0,8,00,00,00,00,00,00,88,F2,
2901148,000002B2,false,Rx,0,8,00,00,00,00,40,00,00,04,
2903784,000000A8,false,Rx,0,8,AE,0C,FA,00,00,0D,CF,22,
2904015,000000A9,false,Rx,0,8,AA,0C,A0,5F,11,D9,0F,FA,
2904250,000000AA,false,Rx,0,8,9B,EC,0F,00,00,00,F4,00,
2909614,000000C4,false,Rx,0,7,51,FF,FD,00,00,FF,F1,00,
2913795,000000A8,false,Rx,0,8,AF,0D,FA,00,00,0D,CF,22,
2914027,000000A9,false,Rx,0,8,AB,0D,A0,5F,11,D9,0F,FA,
2914261,000000AA,false,Rx,0,8,9C,ED,0F,00,00,00,F4,00,
2917343,00000130,false,Rx,0,5,00,0D,D0,0F,EE,00,00,00,
2919667,000000C4,false,Rx,0,7,51,FF,FD,00,00,FF,F1,00,
2919920,000000CE,false,Rx,0,8,00,00,00,00,00,00,00,00,
2920101,000000B6,false,Rx,0,5,42,03,80,00,08,00,00,00,
2920379,0000019E,false,Rx,0,8,00,EA,7F,FC,FE,63,00,69,
2920637,000001A0,false,Rx,0,8,00,80,00,A0,FF,0F,30,01,
2920905,000002B2,false,Rx,0,8,00,00,00,00,30,00,00,04,
2923783,000000A8,false,Rx,0,8,B0,0E,FA,00,00,0D,CF,22,
2924015,000000A9,false,Rx,0,8,AC,0E,A0,5F,11,D9,0F,FA,
2924250,000000AA,false,Rx,0,8,9D,EE,0F,00,00,00,F4,00,
2929635,000000C4,false,Rx,0,7,51,FF,FD,00,00,FF,F1,00,
2933816,000000A8,false,Rx,0,8,A2,00,FA,00,00,0D,CF,22,
2934048,000000A9,false,Rx,0,8,9E,00,A0,5F,11,D9,0F,FA,
2934282,000000AA,false,Rx,0,8,8F,E0,0F,00,00,00,F4,00,
2939692,000000C4,false,Rx,0,7,51,FF,FD,00,00,FF,F1,00,
2939944,000000CE,false,Rx,0,8,00,00,00,00,00,00,00,00,
2940136,000000B6,false,Rx,0,5,43,04,80,00,08,00,00,00,
2940403,0000019E,false,Rx,0,8,00,EA,7F,FC,FE,63,00,69,
2940661,000001A0,false,Rx,0,8,00,80,00,D0,FF,0F,40,42,
2940929,000002B2,false,Rx,0,8,00,00,00,00,30,00,00,04,
2943784,000000A8,false,Rx,0,8,A3,01,FA,00,00,0D,CF,22,
2944016,000000A9,false,Rx,0,8,9F,01,A0,5F,11,D9,0F,FA,
2944250,000000AA,false,Rx,0,8,90,E1,0F,00,00,00,F4,00,
2944487,000001D0,false,Rx,0,8,4B,3C,04,C6,FA,DA,8D,A0,
2949631,000000C4,false,Rx,0,7,51,FF,FD,00,00,FF,F1,00,
2953801,000000A8,false,Rx,0,8,A4,02,FA,00,00,0D,CF,22,
2954032,000000A9,false,Rx,0,8,A0,02,A0,5F,11,D9,0F,FA,
2954279,000000AA,false,Rx,0,8,91,E2,0F,00,00,00,F4,00,
2959699,000000C4,false,Rx,0,7,51,FF,FD,00,00,FF,F1,00,
2959951,000000CE,false,Rx,0,8,00,00,00,00,00,00,00,00,
2960143,000000B6,false,Rx,0,5,44,05,80,00,08,00,00,00,
2960299,00000194,false,Rx,0,4,F4,F7,00,FC,00,00,00,00,
2960535,0000019E,false,Rx,0,8,00,EA,7F,FC,FE,63,00,69,
2960803,000001A0,false,Rx,0,8,00,80,00,C0,FF,12,50,45,
2961061,000002B2,false,Rx,0,8,00,00,00,00,40,00,00,04,
2961308,000004B0,false,Rx,0,8,00,52,FE,01,FF,FF,FF,FF,
2963789,000000A8,false,Rx,0,8,A5,03,FA,00,00,0D,CF,22,
2964021,000000A9,false,Rx,0,8,A1,03,A0,5F,11,D9,0F,FA,
2964257,000000AA,false,Rx,0,8,92,E3,0F,00,00,00,F4,00,
2969654,000000C4,false,Rx,0,7,51,FF,FD,00,00,FF,F1,00,
2973812,000000A8,false,Rx,0,8,A6,04,FA,00,00,0D,CF,22,
2974043,000000A9,false,Rx,0,8,A2,04,A0,5F,11,D9,0F,FA,
2974279,000000AA,false,Rx,0,8,93,E4,0F,00,00,00,F4,00,
2979621,000000C4,false,Rx,0,7,51,FF,FD,00,00,FF,F1,00,
2979873,000000CE,false,Rx,0,8,00,00,00,00,00,00,00,00,
2980064,000000B6,false,Rx,0,5,45,06,80,00,08,00,00,00,
2980320,0000019E,false,Rx,0,8,00,EA,7F,FC,FE,63,00,69,
2980579,000001A0,false,Rx,0,8,00,80,00,A0,FF,0F,60,32,
2980847,000002B2,false,Rx,0,8,00,00,00,00,30,00,00,04,
2983782,000000A8,false,Rx,0,8,A7,05,FA,00,00,0D,CF,22,
2984013,000000A9,false,Rx,0,8,A3,05,A0,5F,11,D9,0F,FA,
2984249,000000AA,false,Rx,0,8,94,E5,0F,00,00,00,F4,00,
2989614,000000C4,false,Rx,0,7,51,FF,FD,00,00,FF,F1,00,
2989822,000000C8,false,Rx,0,6,51,FF,81,00,00,6C,00,00,
2993799,000000A8,false,Rx,0,8,A8,06,FA,00,00,0D,CF,22,
2994030,000000A9,false,Rx,0,8,A4,06,A0,5F,11,D9,0F,FA,
2994278,000000AA,false,Rx,0,8,95,E6,0F,00,00,00,F4,00,
2999609,000000C4,false,Rx,0,7,51,FF,FD,00,00,FF,F1,00,
2999861,000000CE,false,Rx,0,8,00,00,00,00,00,00,00,00,
3000052,000000B6,false,Rx,0,5,46,07,80,00,08,00,00,00,
3000354,0000019E,false,Rx,0,8,00,EA,7F,FC,FE,63,00,69,
3000611,000001A0,false,Rx,0,8,00,80,00,D0,FF,0F,70,72,
3000868,000001A6,false,Rx,0,8,00,00,00,00,00,00,18,F4,
3001138,000002B2,false,Rx,0,8,00,00,00,00,30,00,00,04,
3003785,000000A8,false,Rx,0,8,A9,07,FA,00,00,0D,CF,22,
3004016,000000A9,false,Rx,0,8,A5,07,A0,5F,11,D9,0F,FA,
3004252,000000AA,false,Rx,0,8,96,E7,0F,00,00,00,F4,00,
3009627,000000C4,false,Rx,0,7,51,FF,FD,00,00,FF,F1,00,
3013818,000000A8,false,Rx,0,8,AA,08,FA,00,00,0D,CF,22,
3014050,000000A9,false,Rx,0,8,A6,08,A0,5F,11,D9,0F,FA,
3014286,000000AA,false,Rx,0,8,97,E8,0F,00,00,00,F4,00,
3016922,00000130,false,Rx,0,5,00,0D,D0,0F,F0,00,00,00,
3019713,000000C4,false,Rx,0,7,51,FF,FD,00,00,FF,F1,00,
3019965,000000CE,false,Rx,0,8,00,00,00,00,00,00,00,00,
3020146,000000B6,false,Rx,0,5,47,08,80,00,08,00,00,00,
3020425,0000019E,false,Rx,0,8,00,EA,8F,FC,FE,63,00,79,
3020682,000001A0,false,Rx,0,8,00,80,00,D0,FF,0F,80,82,
3020950,000002B2,false,Rx,0,8,00,00,00,00,30,00,00,04,
3023783,000000A8,false,Rx,0,8,AB,09,FA,00,00,0D,CF,22,
3024004,000000A9,false,Rx,0,8,A7,09,A0,5F,11,D9,0F,FA,
3024240,000000AA,false,Rx,0,8,98,E9,0F,00,00,00,F4,00,
3029682,000000C4,false,Rx,0,7,51,FF,FD,00,00,FF,F1,00,
3033794,000000A8,false,Rx,0,8,AC,0A,FA,00,00,0D,CF,22,
3034026,000000A9,false,Rx,0,8,A8,0A,A0,5F,11,D9,0F,FA,
3034262,000000AA,false,Rx,0,8,99,EA,0F,00,00,00,F4,00,
3039728,000000C4,false,Rx,0,7,51,FF,FD,00,00,FF,F1,00,
3039980,000000CE,false,Rx,0,8,00,00,00,00,00,00,00,00,
3040160,000000B6,false,Rx,0,5,48,09,80,00,08,00,00,00,
3040440,0000019E,false,Rx,0,8,00,EA,8F,FC,FE,63,00,79,
3040697,000001A0,false,Rx,0,8,00,80,00,D0,FF,12,90,95,
3040954,000002B2,false,Rx,0,8,00,00,00,00,40,00,00,04,
3043809,000000A8,false,Rx,0,8,AD,0B,FA,00,00,0D,CF,22,
3044042,000000A9,false,Rx,0,8,A9,0B,A0,5F,11,D9,0F,FA,
3044267,000000AA,false,Rx,0,8,9A,EB,0F,00,00,00,F4,00,
3044501,000001D0,false,Rx,0,8,4B,3C,04,C6,FA,DA,8D,A0,
3048501,00000480,false,Rx,0,8,12,42,FD,01,FF,FF,FF,FF,
3049707,000000C4,false,Rx,0,7,51,FF,FD,00,00,FF,F1,00,
3053820,000000A8,false,Rx,0,8,AE,0C,FA,00,00,0D,CF,22,
3054042,000000A9,false,Rx,0,8,AA,0C,A0,5F,11,D9,0F,FA,
3054278,000000AA,false,Rx,0,8,9B,EC,0F,00,00,00,F4,00,
3059721,000000C4,false,Rx,0,7,51,FF,FD,00,00,FF,F1,00,
3059972,000000CE,false,Rx,0,8,00,00,00,00,00,00,00,00,
3060153,000000B6,false,Rx,0,5,49,0A,80,00,08,00,00,00,
3060433,0000019E,false,Rx,0,8,00,EA,8F,FC,FE,63,00,79,
3060701,000001A0,false,Rx,0,8,00,80,00,C0,FF,12,A0,95,
3060958,000002B2,false,Rx,0,8,00,00,00,00,40,00,00,04,
3063792,000000A8,false,Rx,0,8,AF,0D,FA,00,00,0D,CF,22,
3064023,000000A9,false,Rx,0,8,AB,0D,A0,5F,11,D9,0F,FA,
3064259,000000AA,false,Rx,0,8,9C,ED,0F,00,00,00,F4,00,
3069680,000000C4,false,Rx,0,7,51,FF,FD,00,00,FF,F1,00,
3073827,000000A8,false,Rx,0,8,B0,0E,FA,00,00,0D,CF,22,
3074059,000000A9,false,Rx,0,8,AC,0E,A0,5F,11,D9,0F,FA,
3074306,000000AA,false,Rx,0,8,9D,EE,0F,00,00,00,F4,00,
3079636,000000C4,false,Rx,0,7,51,FF,FD,00,00,FF,F1,00,
3079888,000000CE,false,Rx,0,8,00,00,00,00,00,00,00,00,
3080081,000000B6,false,Rx,0,5,4A,0B,80,00,08,00,00,00,
3080338,0000019E,false,Rx,0,8,00,EA,8F,FC,FE,63,00,79,
3080595,000001A0,false,Rx,0,8,00,80,00,C0,FF,12,B0,A5,
3080863,000002B2,false,Rx,0,8,00,00,00,00,40,00,00,04,
3081912,000001FB,false,Rx,0,2,FA,FF,00,00,00,00,00,00,
3083792,000000A8,false,Rx,0,8,A2,00,FA,00,00,0D,CF,22,
3084017,000000A9,false,Rx,0,8,9E,00,A0,5F,11,D9,0F,FA,
3084264,000000AA,false,Rx,0,8,8F,E0,0F,00,00,00,F4,00,
3089620,000000C4,false,Rx,0,7,51,FF,FD,00,00,FF,F1,00,
3093822,000000A8,false,Rx,0,8,A3,01,FA,00,00,0D,CF,22,
3094055,000000A9,false,Rx,0,8,9F,01,A0,5F,11,D9,0F,FA,
3094290,000000AA,false,Rx,0,8,90,E1,0F,00,00,00,F4,00,
3099621,000000C4,false,Rx,0,7,51,FF,FD,00,00,FF,F1,00,
3099873,000000CE,false,Rx,0,8,00,00,00,00,00,00,00,00,
3100053,000000B6,false,Rx,0,5,4B,0C,80,00,08,00,00,00,
3100377,0000019E,false,Rx,0,8,00,EA,8F,FC,FE,63,00,79,
3100634,000001A0,false,Rx,0,8,00,80,00,D0,FF,12,C0,C5,
3100891,000001A6,false,Rx,0,8,00,00,00,00,00,00,A8,F5,
3101161,000002B2,false,Rx,0,8,00,00,00,00,40,00,00,04,
3102211,00000310,false,Rx,0,7,6E,2A,06,00,00,42,20,00,
3103804,000000A8,false,Rx,0,8,A4,02,FA,00,00,0D,CF,22,
3104030,000000A9,false,Rx,0,8,A0,02,A0,5F,11,D9,0F,FA,
3104276,000000AA,false,Rx,0,8,91,E2,0F,00,00,00,F4,00,
3109631,000000C4,false,Rx,0,7,51,FF,FD,00,00,FF,F1,00,
3113788,000000A8,false,Rx,0,8,A5,03,FA,00,00,0D,CF,22,
3114021,000000A9,false,Rx,0,8,A1,03,A0,5F,11,D9,0F,FA,
3114256,000000AA,false,Rx,0,8,92,E3,0F,00,00,00,F4,00,
3116837,00000130,false,Rx,0,5,00,0D,D0,0F,01,00,00,00,
3119660,000000C4,false,Rx,0,7,51,FF,FD,00,00,FF,F1,00,
3119912,000000CE,false,Rx,0,8,00,00,00,00,00,00,00,00,
3120104,000000B6,false,Rx,0,5,4C,0D,80,00,08,00,00,00,
3120373,0000019E,false,Rx,0,8,00,EA,8F,FC,FE,63,00,79,
3120630,000001A0,false,Rx,0,8,00,80,00,A0,FF,0F,D0,A2,
3120897,000002B2,false,Rx,0,8,00,00,00,00,30,00,00,04,
3123798,000000A8,false,Rx,0,8,A6,04,FA,00,00,0D,CF,22,
3124019,000000A9,false,Rx,0,8,A2,04,A0,5F,11,D9,0F,FA,
3124265,000000AA,false,Rx,0,8,93,E4,0F,00,00,00,F4,00,
3129643,000000C4,false,Rx,0,7,51,FF,FD,00,00,FF,F1,00,
3133833,000000A8,false,Rx,0,8,A7,05,FA,00,00,0D,CF,22,
3134066,000000A9,false,Rx,0,8,A3,05,A0,5F,11,D9,0F,FA,
3134301,000000AA,false,Rx,0,8,94,E5,0F,00,00,00,F4,00,
3139699,000000C4,false,Rx,0,7,51,FF,FD,00,00,FF,F1,00,
3139950,000000CE,false,Rx,0,8,00,00,00,00,00,00,00,00,
3140132,000000B6,false,Rx,0,5,4D,0E,80,00,08,00,00,00,
3140411,0000019E,false,Rx,0,8,00,EA,8F,FC,FE,63,00,79,
3140668,000001A0,false,Rx,0,8,00,80,00,C0,FF,0F,E0,D2,
3140937,000002B2,false,Rx,0,8,00,00,00,00,30,00,00,04,
3143781,000000A8,false,Rx,0,8,A8,06,FA,00,00,0D,CF,22,
3144014,000000A9,false,Rx,0,8,A4,06,A0,5F,11,D9,0F,FA,
3144260,000000AA,false,Rx,0,8,95,E6,0F,00,00,00,F4,00,
3144484,000001D0,false,Rx,0,8,4B,3C,05,C6,FA,DA,8D,A0,
3149652,000000C4,false,Rx,0,7,51,FF,FD,00,00,FF,F1,00,
3153799,00000492,false,Rx,0,8,17,52,FF,FF,FF,FF,FF,FF,
3154032,000000A8,false,Rx,0,8,A9,07,FA,00,00,0D,CF,22,
3154267,000000A9,false,Rx,0,8,A5,07,A0,5F,11,D9,0F,FA,
3154502,000000AA,false,Rx,0,8,96,E7,0F,00,00,00,F4,00,
3159715,000000C4,false,Rx,0,7,51,FF,FD,00,00,FF,F1,00,
3159967,000000CE,false,Rx,0,8,00,00,00,00,00,00,00,00,
3160160,000000B6,false,Rx,0,5,3F,00,80,00,08,00,00,00,
3160328,00000194,false,Rx,0,4,F5,F8,00,FC,00,00,00,00,
3160572,0000019E,false,Rx,0,8,00,EA,8F,FC,FE,63,00,79,
3160829,000001A0,false,Rx,0,8,00,80,00,A0,FF,0F,00,D1,
3161089,000002B2,false,Rx,0,8,00,00,00,00,30,00,00,04,
3163767,000000A8,false,Rx,0,8,AA,08,FA,00,00,0D,CF,22,
3164000,000000A9,false,Rx,0,8,A6,08,A0,5F,11,D9,0F,FA,
3164246,000000AA,false,Rx,0,8,97,E8,0F,00,00,00,F4,00,
3169655,000000C4,false,Rx,0,7,51,FF,FD,00,00,FF,F1,00,
3173803,000000A8,false,Rx,0,8,AB,09,FA,00,00,0D,CF,22,
3174025,000000A9,false,Rx,0,8,A7,09,A0,5F,11,D9,0F,FA,
3174260,000000AA,false,Rx,0,8,98,E9,0F,00,00,00,F4,00,
3179624,000000C4,false,Rx,0,7,51,FF,FD,00,00,FF,F1,00,
3179876,000000CE,false,Rx,0,8,00,00,00,00,00,00,00,00,
3180069,000000B6,false,Rx,0,5,40,01,80,00,08,00,00,00,
3180336,0000019E,false,Rx,0,8,00,EA,8F,FC,FE,63,00,79,
3180593,000001A0,false,Rx,0,8,00,80,00,C0,FF,0F,10,01,
3180851,000002B2,false,Rx,0,8,00,00,00,00,30,00,00,04,
3183750,000000A8,false,Rx,0,8,AC,0A,FA,00,00,0D,CF,22,
3183993,000000A9,false,Rx,0,8,A8,0A,A0,5F,11,D9,0F,FA,
3184228,000000AA,false,Rx,0,8,99,EA,0F,00,00,00,F4,00,
3189625,000000C4,false,Rx,0,7,51,FF,FD,00,00,FF,F1,00,
3189822,000000C8,false,Rx,0,6,51,FF,D1,00,00,8C,00,00,
3193778,000000A8,false,Rx,0,8,AD,0B,FA,00,00,0D,CF,22,
3194000,000000A9,false,Rx,0,8,A9,0B,A0,5F,11,D9,0F,FA,
3194235,000000AA,false,Rx,0,8,9A,EB,0F,00,00,00,F4,00,
3199623,000000C4,false,Rx,0,7,51,FF,FD,00,00,FF,F1,00,
3199875,000000CE,false,Rx,0,8,00,00,00,00,00,00,00,00,
3200057,000000B6,false,Rx,0,5,41,02,80,00,08,00,00,00,
3200369,0000019E,false,Rx,0,8,00,EA,8F,FC,FE,63,00,79,
3200626,000001A0,false,Rx,0,8,00,80,00,C0,FF,12,20,15,
3200884,000001A6,false,Rx,0,8,00,00,00,00,00,00,38,F7,
3201153,000002B2,false,Rx,0,8,00,00,00,00,40,00,00,04,
3203777,000000A8,false,Rx,0,8,AE,0C,FA,00,00,0D,CF,22,
3204009,000000A9,false,Rx,0,8,AA,0C,A0,5F,11,D9,0F,FA,
3204244,000000AA,false,Rx,0,8,9B,EC,0F,00,00,00,F4,00,
3209620,000000C4,false,Rx,0,7,51,FF,FD,00,00,FF,F1,00,
3213811,000000A8,false,Rx,0,8,AF,0D,FA,00,00,0D,CF,22,
3214033,000000A9,false,Rx,0,8,AB,0D,A0,5F,11,D9,0F,FA,
3214268,000000AA,false,Rx,0,8,9C,ED,0F,00,00,00,F4,00,
3217527,00000130,false,Rx,0,5,00,0D,D0,0F,22,00,00,00,
3219673,000000C4,false,Rx,0,7,51,FF,FD,00,00,FF,F1,00,
3219925,000000CE,false,Rx,0,8,00,00,00,00,00,00,00,00,
3220107,000000B6,false,Rx,0,5,42,03,80,00,08,00,00,00,
3220386,0000019E,false,Rx,0,8,00,EA,9F,FC,FE,63,00,89,
3220642,000001A0,false,Rx,0,8,00,80,00,C0,FF,0F,30,22,
3220912,000002B2,false,Rx,0,8,00,00,00,00,30,00,00,04,
3223787,000000A8,false,Rx,0,8,B0,0E,FA,00,00,0D,CF,22,
3224009,000000A9,false,Rx,0,8,AC,0E,A0,5F,11,D9,0F,FA,
3224255,000000AA,false,Rx,0,8,9D,EE,0F,00,00,00,F4,00,
3229662,000000C4,false,Rx,0,7,51,FF,FD,00,00,FF,F1,00,
3233799,000000A8,false,Rx,0,8,A2,00,FA,00,00,0D,CF,22,
3234032,000000A9,false,Rx,0,8,9E,00,A0,5F,11,D9,0F,FA,
3234267,000000AA,false,Rx,0,8,8F,E0,0F,00,00,00,F4,00,
3239688,000000C4,false,Rx,0,7,51,FF,FD,00,00,FF,F1,00,
3239939,000000CE,false,Rx,0,8,00,00,00,00,00,00,00,00,
3240133,000000B6,false,Rx,0,5,43,04,80,00,08,00,00,00,
3240400,0000019E,false,Rx,0,8,00,EA,9F,FC,FE,63,00,89,
3240657,000001A0,false,Rx,0,8,00,80,00,C0,FF,12,40,35,
3240926,000002B2,false,Rx,0,8,00,00,00,00,40,00,00,04,
3243782,000000A8,false,Rx,0,8,A3,01,FA,00,00,0D,CF,22,
3244014,000000A9,false,Rx,0,8,9F,01,A0,5F,11,D9,0F,FA,
3244249,000000AA,false,Rx,0,8,90,E1,0F,00,00,00,F4,00,
3244473,000001D0,false,Rx,0,8,4B,3C,05,C6,FA,DA,8D,A0,
3249641,000000C4,false,Rx,0,7,51,FF,FD,00,00,FF,F1,00,
3251246,00000497,false,Rx,0,8,29,52,FF,FF,FF,FF,FF,FF,
3252441,00000330,false,Rx,0,8,85,2D,02,1B,03,34,CC,15,
3253802,000000A8,false,Rx,0,8,A4,02,FA,00,00,0D,CF,22,
3254038,000000A9,false,Rx,0,8,A0,02,A0,5F,11,D9,0F,FA,
3254284,000000AA,false,Rx,0,8,91,E2,0F,00,00,00,F4,00,
3259721,000000C4,false,Rx,0,7,51,FF,FD,00,00,FF,F1,00,
3259974,000000CE,false,Rx,0,8,00,00,00,00,00,00,00,00,
3260155,000000B6,false,Rx,0,5,44,05,80,00,08,00,00,00,
3260433,0000019E,false,Rx,0,8,00,EA,9F,FC,FE,63,00,89,
3260690,000001A0,false,Rx,0,8,00,80,00,C0,FF,0F,50,42,
3260949,000002B2,false,Rx,0,8,00,00,00,00,30,00,00,04,
3263793,000000A8,false,Rx,0,8,A5,03,FA,00,00,0D,CF,22,
3264025,000000A9,false,Rx,0,8,A1,03,A0,5F,11,D9,0F,FA,
3264249,000000AA,false,Rx,0,8,92,E3,0F,00,00,00,F4,00,
3269646,000000C4,false,Rx,0,7,51,FF,FD,00,00,FF,F1,00,
3271130,000001FB,false,Rx,0,2,FB,FF,00,00,00,00,00,00,
3273798,000000A8,false,Rx,0,8,A6,04,FA,00,00,0D,CF,22,
3274029,000000A9,false,Rx,0,8,A2,04,A0,5F,11,D9,0F,FA,
3274264,000000AA,false,Rx,0,8,93,E4,0F,00,00,00,F4,00,
3278227,000003AC,false,Rx,0,2,FE,CF,00,00,00,00,00,00,
3279630,000000C4,false,Rx,0,7,51,FF,FD,00,00,FF,F1,00,
3279887,000000CE,false,Rx,0,8,00,00,00,00,00,00,00,00,
3280080,000000B6,false,Rx,0,5,45,06,80,00,08,00,00,00,
3280336,0000019E,false,Rx,0,8,00,EA,9F,FC,FE,63,00,89,
3280593,000001A0,false,Rx,0,8,00,80,00,C0,FF,0F,60,52,
3280851,000002B2,false,Rx,0,8,00,00,00,00,30,00,00,04,
3283779,000000A8,false,Rx,0,8,A7,05,FA,00,00,0D,CF,22,
3284015,000000A9,false,Rx,0,8,A3,05,A0,5F,11,D9,0F,FA,
3284250,000000AA,false,Rx,0,8,94,E5,0F,00,00,00,F4,00,
3289659,000000C4,false,Rx,0,7,51,FF,FD,00,00,FF,F1,00,
3293818,000000A8,false,Rx,0,8,A8,06,FA,00,00,0D,CF,22,
3294049,000000A9,false,Rx,0,8,A4,06,A0,5F,11,D9,0F,FA,
3294284,000000AA,false,Rx,0,8,95,E6,0F,00,00,00,F4,00,
3299670,000000C4,false,Rx,0,7,51,FF,FD,00,00,FF,F1,00,
3299923,000000CE,false,Rx,0,8,00,00,00,00,00,00,00,00,
3300114,000000B6,false,Rx,0,5,46,07,80,00,08,00,00,00,
3300415,0000019E,false,Rx,0,8,00,EA,9F,FC,FE,63,00,89,
3300673,000001A0,false,Rx,0,8,00,80,00,C0,FF,0F,70,62,
3300941,000001A6,false,Rx,0,8,00,00,00,00,00,00,C8,F8,
3301199,000002B2,false,Rx,0,8,00,00,00,00,30,00,00,04,
3303790,000000A8,false,Rx,0,8,A9,07,FA,00,00,0D,CF,22,
3304022,000000A9,false,Rx,0,8,A5,07,A0,5F,11,D9,0F,FA,
3304256,000000AA,false,Rx,0,8,96,E7,0F,00,00,00,F4,00,
3309657,000000C4,false,Rx,0,7,51,FF,FD,00,00,FF,F1,00,
3313805,000000A8,false,Rx,0,8,AA,08,FA,00,00,0D,CF,22,
3314025,000000A9,false,Rx,0,8,A6,08,A0,5F,11,D9,0F,FA,
3314271,000000AA,false,Rx,0,8,97,E8,0F,00,00,00,F4,00,
3316222,00000130,false,Rx,0,5,00,0D,D0,0F,33,00,00,00,
3319720,000000C4,false,Rx,0,7,51,FF,FD,00,00,FF,F1,00,
3319973,000000CE,false,Rx,0,8,00,00,00,00,00,00,00,00,
3320154,000000B6,false,Rx,0,5,47,08,80,00,08,00,00,00,
3320443,0000019E,false,Rx,0,8,00,EA,9F,FC,FE,63,00,89,
3320701,000001A0,false,Rx,0,8,00,80,00,A0,FF,0F,80,52,
3320969,000002B2,false,Rx,0,8,00,00,00,00,30,00,00,04,
3323780,000000A8,false,Rx,0,8,AB,09,FA,00,00,0D,CF,22,
3324011,000000A9,false,Rx,0,8,A7,09,A0,5F,11,D9,0F,FA,
3324246,000000AA,false,Rx,0,8,98,E9,0F,00,00,00,F4,00,
3329689,000000C4,false,Rx,0,7,51,FF,FD,00,00,FF,F1,00,
3333813,000000A8,false,Rx,0,8,AC,0A,FA,00,00,0D,CF,22,
3334045,000000A9,false,Rx,0,8,A8,0A,A0,5F,11,D9,0F,FA,
3334291,000000AA,false,Rx,0,8,99,EA,0F,00,00,00,F4,00,
3339755,000000C4,false,Rx,0,7,51,FF,FD,00,00,FF,F1,00,
3340009,000000CE,false,Rx,0,8,00,00,00,00,00,00,00,00,
3340200,000000B6,false,Rx,0,5,48,09,80,00,08,00,00,00,
3340478,0000019E,false,Rx,0,8,00,EA,9F,FC,FE,63,00,89,
3340747,000001A0,false,Rx,0,8,00,80,00,C0,FF,0F,90,82,
3341005,000002B2,false,Rx,0,8,00,00,00,00,30,00,00,04,
3341273,000004A9,false,Rx,0,8,30,52,FF,FF,FF,FF,FF,FF,
3343832,000000A8,false,Rx,0,8,AD,0B,FA,00,00,0D,CF,22,
3344063,000000A9,false,Rx,0,8,A9,0B,A0,5F,11,D9,0F,FA,
3344298,000000AA,false,Rx,0,8,9A,EB,0F,00,00,00,F4,00,
3344523,000001B6,false,Rx,0,7,FF,00,00,00,00,AC,53,00,
3344758,000001D0,false,Rx,0,8,4B,3C,06,C6,FA,DA,8D,A0,
3344893,00000381,false,Rx,0,2,7C,F0,00,00,00,00,00,00,
3345039,000002F3,false,Rx,0,3,0B,FC,FD,00,00,00,00,00,
3349690,000000C4,false,Rx,0,7,51,FF,FD,00,00,FF,F1,00,
3353804,000000A8,false,Rx,0,8,AE,0C,FA,00,00,0D,CF,22,
3354035,000000A9,false,Rx,0,8,AA,0C,A0,5F,11,D9,0F,FA,
3354270,000000AA,false,Rx,0,8,9B,EC,0F,00,00,00,F4,00,
3359713,000000C4,false,Rx,0,7,51,FF,FD,00,00,FF,F1,00,
3359966,000000CE,false,Rx,0,8,00,00,00,00,00,00,00,00,
3360147,000000B6,false,Rx,0,5,49,0A,80,00,08,00,00,00,
3360314,00000194,false,Rx,0,4,F6,F9,00,FC,00,00,00,00,
3360550,0000019E,false,Rx,0,8,00,EA,9F,FC,FE,63,00,89,
3360806,000001A0,false,Rx,0,8,00,80,00,C0,FF,12,A0,95,
3361076,000002B2,false,Rx,0,8,00,00,00,00,40,00,00,04,
3363788,000000A8,false,Rx,0,8,AF,0D,FA,00,00,0D,CF,22,
3364019,000000A9,false,Rx,0,8,AB,0D,A0,5F,11,D9,0F,FA,
3364254,000000AA,false,Rx,0,8,9C,ED,0F,00,00,00,F4,00,
3369652,000000C4,false,Rx,0,7,51,FF,FD,00,00,FF,F1,00,
3373833,000000A8,false,Rx,0,8,B0,0E,FA,00,00,0D,CF,22,
3374065,000000A9,false,Rx,0,8,AC,0E,A0,5F,11,D9,0F,FA,
3374300,000000AA,false,Rx,0,8,9D,EE,0F,00,00,00,F4,00,
3379630,000000C4,false,Rx,0,7,51,FF,FD,00,00,FF,F1,00,
3379883,000000CE,false,Rx,0,8,00,00,00,00,00,00,00,00,
3380075,000000B6,false,Rx,0,5,4A,0B,80,00,08,00,00,00,
3380331,0000019E,false,Rx,0,8,00,EA,9F,FC,FE,63,00,89,
3380589,000001A0,false,Rx,0,8,00,80,00,C0,FF,0F,B0,A2,
3380857,000002B2,false,Rx,0,8,00,00,00,00,30,00,00,04,
3383802,000000A8,false,Rx,0,8,A2,00,FA,00,00,0D,CF,22,
3384033,000000A9,false,Rx,0,8,9E,00,A0,5F,11,D9,0F,FA,
3384268,000000AA,false,Rx,0,8,8F,E0,0F,00,00,00,F4,00,
3389632,000000C4,false,Rx,0,7,51,FF,FD,00,00,FF,F1,00,
3389841,000000C8,false,Rx,0,6,51,FF,31,00,00,9C,00,00,
3393831,000000A8,false,Rx,0,8,A3,01,FA,00,00,0D,CF,22,
3394073,000000A9,false,Rx,0,8,9F,01,A0,5F,11,D9,0F,FA,
3394297,000000AA,false,Rx,0,8,90,E1,0F,00,00,00,F4,00,
3399638,000000C4,false,Rx,0,7,51,FF,FD,00,00,FF,F1,00,
3399880,000000CE,false,Rx,0,8,00,00,00,00,00,00,00,00,
3400061,000000B6,false,Rx,0,5,4B,0C,80,00,08,00,00,00,
3400372,0000019E,false,Rx,0,8,00,EA,9F,FC,FE,63,00,89,
3400642,000001A0,false,Rx,0,8,00,80,00,C0,FF,0F,C0,B2,
3400899,000001A6,false,Rx,0,8,00,00,00,00,00,00,58,FA,
3401168,000002B2,false,Rx,0,8,00,00,00,00,30,00,00,04,
3403784,000000A8,false,Rx,0,8,A4,02,FA,00,00,0D,CF,22,
3404016,000000A9,false,Rx,0,8,A0,02,A0,5F,11,D9,0F,FA,
3404261,000000AA,false,Rx,0,8,91,E2,0F,00,00,00,F4,00,
3409626,000000C4,false,Rx,0,7,51,FF,FD,00,00,FF,F1,00,
3413818,000000A8,false,Rx,0,8,A5,03,FA,00,00,0D,CF,22,
3414049,000000A9,false,Rx,0,8,A1,03,A0,5F,11,D9,0F,FA,
3414284,000000AA,false,Rx,0,8,92,E3,0F,00,00,00,F4,00,
3416879,00000130,false,Rx,0,5,00,0D,D0,0F,44,00,00,00,
3419680,000000C4,false,Rx,0,7,51,FF,FD,00,00,FF,F1,00,
3419932,000000CE,false,Rx,0,8,00,00,00,00,00,00,00,00,
3420125,000000B6,false,Rx,0,5,4C,0D,80,00,08,00,00,00,
3420392,0000019E,false,Rx,0,8,00,EA,9F,FC,FE,63,00,89,
3420650,000001A0,false,Rx,0,8,00,80,00,D0,FF,0F,D0,D2,
3420918,000002B2,false,Rx,0,8,00,00,00,00,30,00,00,04,
3423795,000000A8,false,Rx,0,8,A6,04,FA,00,00,0D,CF,22,
3424027,000000A9,false,Rx,0,8,A2,04,A0,5F,11,D9,0F,FA,
3424262,000000AA,false,Rx,0,8,93,E4,0F,00,00,00,F4,00,
3429624,000000C4,false,Rx,0,7,51,FF,FD,00,00,FF,F1,00,
3433838,000000A8,false,Rx,0,8,A7,05,FA,00,00,0D,CF,22,
3434070,000000A9,false,Rx,0,8,A3,05,A0,5F,11,D9,0F,FA,
3434306,000000AA,false,Rx,0,8,94,E5,0F,00,00,00,F4,00,
3436976,000001B5,false,Rx,0,7,00,FF,00,00,C8,FF,FF,00,
3439690,000000C4,false,Rx,0,7,51,FF,FD,00,00,FF,F1,00,
3439942,000000CE,false,Rx,0,8,00,00,00,00,00,00,00,00,
3440122,000000B6,false,Rx,0,5,4D,0E,80,00,08,00,00,00,
3440400,0000019E,false,Rx,0,8,00,EA,AF,FC,FE,63,00,99,
3440659,000001A0,false,Rx,0,8,00,80,00,C0,FF,0F,E0,D2,
3440927,000002B2,false,Rx,0,8,00,00,00,00,30,00,00,04,
3441174,000004B0,false,Rx,0,8,00,52,FE,01,FF,FF,FF,FF,
3443786,000000A8,false,Rx,0,8,A8,06,FA,00,00,0D,CF,22,
3444018,000000A9,false,Rx,0,8,A4,06,A0,5F,11,D9,0F,FA,
3444254,000000AA,false,Rx,0,8,95,E6,0F,00,00,00,F4,00,
3444488,000001D0,false,Rx,0,8,4B,3C,06,C6,FA,DA,8D,A0,
3449665,000000C4,false,Rx,0,7,51,FF,FD,00,00,FF,F1,00,
3453812,000000A8,false,Rx,0,8,A9,07,FA,00,00,0D,CF,22,
3454043,000000A9,false,Rx,0,8,A5,07,A0,5F,11,D9,0F,FA,
3454279,000000AA,false,Rx,0,8,96,E7,0F,00,00,00,F4,00,
3459699,000000C4,false,Rx,0,7,51,FF,FD,00,00,FF,F1,00,
3459951,000000CE,false,Rx,0,8,00,00,00,00,00,00,00,00,
3460132,000000B6,false,Rx,0,5,3F,00,80,00,08,00,00,00,
3460400,0000019E,false,Rx,0,8,00,EA,AF,FC,FE,63,00,99,
3460669,000001A0,false,Rx,0,8,00,80,00,D0,FF,0F,00,01,
3460925,000002B2,false,Rx,0,8,00,00,00,00,30,00,00,04,
3461930,000001FB,false,Rx,0,2,FC,FF,00,00,00,00,00,00,
3463776,000000A8,false,Rx,0,8,AA,08,FA,00,00,0D,CF,22,
3464001,000000A9,false,Rx,0,8,A6,08,A0,5F,11,D9,0F,FA,
3464237,000000AA,false,Rx,0,8,97,E8,0F,00,00,00,F4,00,
3469660,000000C4,false,Rx,0,7,51,FF,FD,00,00,FF,F1,00,
3473794,000000A8,false,Rx,0,8,AB,09,FA,00,00,0D,CF,22,
3474015,000000A9,false,Rx,0,8,A7,09,A0,5F,11,D9,0F,FA,
3474251,000000AA,false,Rx,0,8,98,E9,0F,00,00,00,F4,00,
3479627,000000C4,false,Rx,0,7,51,FF,FD,00,00,FF,F1,00,
3479879,000000CE,false,Rx,0,8,00,00,00,00,00,00,00,00,
3480071,000000B6,false,Rx,0,5,40,01,80,00,08,00,00,00,
3480327,0000019E,false,Rx,0,8,00,EA,AF,FC,FE,63,00,99,
3480585,000001A0,false,Rx,0,8,00,80,00,C0,FF,0F,10,01,
3480853,000002B2,false,Rx,0,8,00,00,00,00,30,00,00,04,
3483754,000000A8,false,Rx,0,8,AC,0A,FA,00,00,0D,CF,22,
3483984,000000A9,false,Rx,0,8,A8,0A,A0,5F,11,D9,0F,FA,
3484232,000000AA,false,Rx,0,8,99,EA,0F,00,00,00,F4,00,
3489642,000000C4,false,Rx,0,7,51,FF,FD,00,00,FF,F1,00,
3493789,000000A8,false,Rx,0,8,AD,0B,FA,00,00,0D,CF,22,
3494020,000000A9,false,Rx,0,8,A9,0B,A0,5F,11,D9,0F,FA,
3494256,000000AA,false,Rx,0,8,9A,EB,0F,00,00,00,F4,00,
3499644,000000C4,false,Rx,0,7,51,FF,FD,00,00,FF,F1,00,
3499896,000000CE,false,Rx,0,8,00,00,00,00,00,00,00,00,
3500088,000000B6,false,Rx,0,5,41,02,80,00,08,00,00,00,
3500389,0000019E,false,Rx,0,8,00,EA,AF,FC,FE,63,00,99,
3500646,000001A0,false,Rx,0,8,00,80,00,C0,FF,12,20,15,
3500914,000001A6,false,Rx,0,8,00,00,00,00,00,00,E8,FB,
3501174,000002B2,false,Rx,0,8,00,00,00,00,40,00,00,04,
3503765,000000A8,false,Rx,0,8,AE,0C,FA,00,00,0D,CF,22,
3503996,000000A9,false,Rx,0,8,AA,0C,A0,5F,11,D9,0F,FA,
3504232,000000AA,false,Rx,0,8,9B,EC,0F,00,00,00,F4,00,
3509631,000000C4,false,Rx,0,7,51,FF,FD,00,00,FF,F1,00,
3513789,000000A8,false,Rx,0,8,AF,0D,FA,00,00,0D,CF,22,
3514009,000000A9,false,Rx,0,8,AB,0D,A0,5F,11,D9,0F,FA,
3514245,000000AA,false,Rx,0,8,9C,ED,0F,00,00,00,F4,00,
3516228,00000130,false,Rx,0,5,00,0D,D0,0F,55,00,00,00,
3519683,000000C4,false,Rx,0,7,51,FF,FD,00,00,FF,F1,00,
3519935,000000CE,false,Rx,0,8,00,00,00,00,00,00,00,00,
3520115,000000B6,false,Rx,0,5,42,03,80,00,08,00,00,00,
3520395,0000019E,false,Rx,0,8,00,EA,AF,FC,FE,63,00,99,
3520652,000001A0,false,Rx,0,8,00,80,00,C0,FF,0F,30,22,
3520909,000002B2,false,Rx,0,8,00,00,00,00,30,00,00,04,
3523775,000000A8,false,Rx,0,8,B0,0E,FA,00,00,0D,CF,22,
3524006,000000A9,false,Rx,0,8,AC,0E,A0,5F,11,D9,0F,FA,
3524242,000000AA,false,Rx,0,8,9D,EE,0F,00,00,00,F4,00,
3528527,00000480,false,Rx,0,8,12,42,FD,01,FF,FF,FF,FF,
3529689,000000C4,false,Rx,0,7,51,FF,FD,00,00,FF,F1,00,
3533805,000000A8,false,Rx,0,8,A2,00,FA,00,00,0D,CF,22,
3534037,000000A9,false,Rx,0,8,9E,00,A0,5F,11,D9,0F,FA,
3534273,000000AA,false,Rx,0,8,8F,E0,0F,00,00,00,F4,00,
3539705,000000C4,false,Rx,0,7,51,FF,FD,00,00,FF,F1,00,
3539957,000000CE,false,Rx,0,8,00,00,00,00,00,00,00,00,
3540149,000000B6,false,Rx,0,5,43,04,80,00,08,00,00,00,
3540428,0000019E,false,Rx,0,8,00,EA,AF,FC,FE,63,00,99,
3540685,000001A0,false,Rx,0,8,00,80,00,D0,FF,0F,40,42,
3540953,000002B2,false,Rx,0,8,00,00,00,00,30,00,00,04,
3543764,000000A8,false,Rx,0,8,A3,01,FA,00,00,0D,CF,22,
3543995,000000A9,false,Rx,0,8,9F,01,A0,5F,11,D9,0F,FA,
3544231,000000AA,false,Rx,0,8,90,E1,0F,00,00,00,F4,00,
3544466,000001D0,false,Rx,0,8,4B,3C,07,C6,FA,DA,8D,A0,
3549667,000000C4,false,Rx,0,7,51,FF,FD,00,00,FF,F1,00,
3553769,000000A8,false,Rx,0,8,A4,02,FA,00,00,0D,CF,22,
3554011,000000A9,false,Rx,0,8,A0,02,A0,5F,11,D9,0F,FA,
3554247,000000AA,false,Rx,0,8,91,E2,0F,00,00,00,F4,00,
3559745,000000C4,false,Rx,0,7,51,FF,FD,00,00,FF,F1,00,
3559998,000000CE,false,Rx,0,8,00,00,00,00,00,00,00,00,
3560189,000000B6,false,Rx,0,5,44,05,80,00,08,00,00,00,
3560347,00000194,false,Rx,0,4,F7,FA,00,FC,00,00,00,00,
3560581,0000019E,false,Rx,0,8,00,EA,AF,FC,FE,63,00,99,
3560849,000001A0,false,Rx,0,8,00,80,00,A0,FF,12,50,25,
3561108,000002B2,false,Rx,0,8,00,00,00,00,40,00,00,04,
3563775,000000A8,false,Rx,0,8,A5,03,FA,00,00,0D,CF,22,
3564006,000000A9,false,Rx,0,8,A1,03,A0,5F,11,D9,0F,FA,
3564242,000000AA,false,Rx,0,8,92,E3,0F,00,00,00,F4,00,
3569706,000000C4,false,Rx,0,7,51,FF,FD,00,00,FF,F1,00,
3573808,000000A8,false,Rx,0,8,A6,04,FA,00,00,0D,CF,22,
3574039,000000A9,false,Rx,0,8,A2,04,A0,5F,11,D9,0F,FA,
3574275,000000AA,false,Rx,0,8,93,E4,0F,00,00,00,F4,00,
3579683,000000C4,false,Rx,0,7,51,FF,FD,00,00,FF,F1,00,
3579935,000000CE,false,Rx,0,8,00,00,00,00,00,00,00,00,
3580127,000000B6,false,Rx,0,5,45,06,80,00,08,00,00,00,
3580395,0000019E,false,Rx,0,8,00,EA,AF,FC,FE,63,00,99,
3580652,000001A0,false,Rx,0,8,00,80,00,A0,FF,12,60,35,
3580920,000002B2,false,Rx,0,8,00,00,00,00,40,00,00,04,
3583787,000000A8,false,Rx,0,8,A7,05,FA,00,00,0D,CF,22,
3584008,000000A9,false,Rx,0,8,A3,05,A0,5F,11,D9,0F,FA,
3584244,000000AA,false,Rx,0,8,94,E5,0F,00,00,00,F4,00,
3589676,000000C4,false,Rx,0,7,51,FF,FD,00,00,FF,F1,00,
3589884,000000C8,false,Rx,0,6,51,FF,81,00,00,AC,00,00,
3593796,000000A8,false,Rx,0,8,A8,06,FA,00,00,0D,CF,22,
3594028,000000A9,false,Rx,0,8,A4,06,A0,5F,11,D9,0F,FA,
3594274,000000AA,false,Rx,0,8,95,E6,0F,00,00,00,F4,00,
3599671,000000C4,false,Rx,0,7,51,FF,FD,00,00,FF,F1,00,
3599923,000000CE,false,Rx,0,8,00,00,00,00,00,00,00,00,
3600115,000000B6,false,Rx,0,5,46,07,80,00,08,00,00,00,
3600417,0000019E,false,Rx,0,8,00,EA,AF,FC,FE,63,00,99,
3600674,000001A0,false,Rx,0,8,00,80,00,C0,FF,12,70,65,
3600943,000001A6,false,Rx,0,8,00,00,00,00,00,00,78,FD,
3601202,000002B2,false,Rx,0,8,00,00,00,00,40,00,00,04,
3603726,000000A8,false,Rx,0,8,A9,07,FA,00,00,0D,CF,22,
3603956,000000A9,false,Rx,0,8,A5,07,A0,5F,11,D9,0F,FA,
3604193,000000AA,false,Rx,0,8,96,E7,0F,00,00,00,F4,00,
3609680,000000C4,false,Rx,0,7,51,FF,FD,00,00,FF,F1,00,
3613804,000000A8,false,Rx,0,8,AA,08,FA,00,00,0D,CF,22,
3614026,000000A9,false,Rx,0,8,A6,08,A0,5F,11,D9,0F,FA,
3614271,000000AA,false,Rx,0,8,97,E8,0F,00,00,00,F4,00,
3616941,00000130,false,Rx,0,5,00,0D,D0,0F,66,00,00,00,
3619721,000000C4,false,Rx,0,7,51,FF,FD,00,00,FF,F1,00,
3619973,000000CE,false,Rx,0,8,00,00,00,00,00,00,00,00,
3620166,000000B6,false,Rx,0,5,47,08,80,00,08,00,00,00,
3620433,0000019E,false,Rx,0,8,00,EA,AF,FC,FE,63,00,99,
3620690,000001A0,false,Rx,0,8,00,80,00,C0,FF,12,80,75,
3620959,000002B2,false,Rx,0,8,00,00,00,00,40,00,00,04,
3623781,000000A8,false,Rx,0,8,AB,09,FA,00,00,0D,CF,22,
3624014,000000A9,false,Rx,0,8,A7,09,A0,5F,11,D9,0F,FA,
3624249,000000AA,false,Rx,0,8,98,E9,0F,00,00,00,F4,00,
3629668,000000C4,false,Rx,0,7,51,FF,FD,00,00,FF,F1,00,
3633793,00000492,false,Rx,0,8,17,52,FF,FF,FF,FF,FF,FF,
3634026,000000A8,false,Rx,0,8,AC,0A,FA,00,00,0D,CF,22,
3634261,000000A9,false,Rx,0,8,A8,0A,A0,5F,11,D9,0F,FA,
3634507,000000AA,false,Rx,0,8,99,EA,0F,00,00,00,F4,00,
3639719,000000C4,false,Rx,0,7,51,FF,FD,00,00,FF,F1,00,
3639971,000000CE,false,Rx,0,8,00,00,00,00,00,00,00,00,
3640153,000000B6,false,Rx,0,5,48,09,80,00,08,00,00,00,
3640432,0000019E,false,Rx,0,8,00,EA,BF,FC,FE,63,00,A9,
3640689,000001A0,false,Rx,0,8,00,80,00,C0,FF,0F,90,82,
3640958,000002B2,false,Rx,0,8,00,00,00,00,30,00,00,04,
3643801,000000A8,false,Rx,0,8,AD,0B,FA,00,00,0D,CF,22,
3644034,000000A9,false,Rx,0,8,A9,0B,A0,5F,11,D9,0F,FA,
3644269,000000AA,false,Rx,0,8,9A,EB,0F,00,00,00,F4,00,
3644503,000001D0,false,Rx,0,8,4B,3C,07,C6,FA,DA,8D,A0,
3649660,000000C4,false,Rx,0,7,51,FF,FD,00,00,FF,F1,00,
3651921,000001FB,false,Rx,0,2,FD,FF,00,00,00,00,00,00,
3653823,000000A8,false,Rx,0,8,AE,0C,FA,00,00,0D,CF,22,
3654055,000000A9,false,Rx,0,8,AA,0C,A0,5F,11,D9,0F,FA,
3654290,000000AA,false,Rx,0,8,9B,EC,0F,00,00,00,F4,00,
3659698,000000C4,false,Rx,0,7,51,FF,FD,00,00,FF,F1,00,
3659950,000000CE,false,Rx,0,8,00,00,00,00,00,00,00,00,
3660132,000000B6,false,Rx,0,5,49,0A,80,00,08,00,00,00,
3660410,0000019E,false,Rx,0,8,00,EA,BF,FC,FE,63,00,A9,
3660667,000001A0,false,Rx,0,8,00,80,00,A0,FF,0F,A0,72,
3660937,000002B2,false,Rx,0,8,00,00,00,00,30,00,00,04,
3663780,000000A8,false,Rx,0,8,AF,0D,FA,00,00,0D,CF,22,
3664013,000000A9,false,Rx,0,8,AB,0D,A0,5F,11,D9,0F,FA,
3664247,000000AA,false,Rx,0,8,9C,ED,0F,00,00,00,F4,00,
3669657,000000C4,false,Rx,0,7,51,FF,FD,00,00,FF,F1,00,
3673804,000000A8,false,Rx,0,8,B0,0E,FA,00,00,0D,CF,22,
3674037,000000A9,false,Rx,0,8,AC,0E,A0,5F,11,D9,0F,FA,
3674283,000000AA,false,Rx,0,8,9D,EE,0F,00,00,00,F4,00,
3679637,000000C4,false,Rx,0,7,51,FF,FD,00,00,FF,F1,00,
3679888,000000CE,false,Rx,0,8,00,00,00,00,00,00,00,00,
3680071,000000B6,false,Rx,0,5,4A,0B,80,00,08,00,00,00,
3680327,0000019E,false,Rx,0,8,00,EA,BF,FC,FE,63,00,A9,
3680595,000001A0,false,Rx,0,8,00,80,00,C0,FF,0F,B0,A2,
3680853,000002B2,false,Rx,0,8,00,00,00,00,30,00,00,04,
3683796,000000A8,false,Rx,0,8,A2,00,FA,00,00,0D,CF,22,
3684018,000000A9,false,Rx,0,8,9E,00,A0,5F,11,D9,0F,FA,
3684264,000000AA,false,Rx,0,8,8F,E0,0F,00,00,00,F4,00,
3689640,000000C4,false,Rx,0,7,51,FF,FD,00,00,FF,F1,00,
3693820,000000A8,false,Rx,0,8,A3,01,FA,00,00,0D,CF,22,
3694052,000000A9,false,Rx,0,8,9F,01,A0,5F,11,D9,0F,FA,
3694287,000000AA,false,Rx,0,8,90,E1,0F,00,00,00,F4,00,
3699640,000000C4,false,Rx,0,7,51,FF,FD,00,00,FF,F1,00,
3699892,000000CE,false,Rx,0,8,00,00,00,00,00,00,00,00,
3700074,000000B6,false,Rx,0,5,4B,0C,80,00,08,00,00,00,
3700385,0000019E,false,Rx,0,8,00,EA,BF,FC,FE,63,00,A9,
3700642,000001A0,false,Rx,0,8,00,80,00,C0,FF,0F,C0,B2,
3700911,000001A6,false,Rx,0,8,00,00,00,00,00,00,08,FF,
3701169,000002B2,false,Rx,0,8,00,00,00,00,30,00,00,04,
3703793,000000A8,false,Rx,0,8,A4,02,FA,00,00,0D,CF,22,
3704026,000000A9,false,Rx,0,8,A0,02,A0,5F,11,D9,0F,FA,
3704272,000000AA,false,Rx,0,8,91,E2,0F,00,00,00,F4,00,
3709637,000000C4,false,Rx,0,7,51,FF,FD,00,00,FF,F1,00,
3713818,000000A8,false,Rx,0,8,A5,03,FA,00,00,0D,CF,22,
3714038,000000A9,false,Rx,0,8,A1,03,A0,5F,11,D9,0F,FA,
3714273,000000AA,false,Rx,0,8,92,E3,0F,00,00,00,F4,00,
3716236,00000130,false,Rx,0,5,00,0D,D0,0F,77,00,00,00,
3719689,000000C4,false,Rx,0,7,51,FF,FD,00,00,FF,F1,00,
3719941,000000CE,false,Rx,0,8,00,00,00,00,00,00,00,00,
3720123,000000B6,false,Rx,0,5,4C,0D,80,00,08,00,00,00,
3720391,0000019E,false,Rx,0,8,00,EA,BF,FC,FE,63,00,A9,
3720659,000001A0,false,Rx,0,8,00,80,00,C0,FF,0F,D0,C2,
3720917,000002B2,false,Rx,0,8,00,00,00,00,30,00,00,04,
3723782,000000A8,false,Rx,0,8,A6,04,FA,00,00,0D,CF,22,
3724014,000000A9,false,Rx,0,8,A2,04,A0,5F,11,D9,0F,FA,
3724249,000000AA,false,Rx,0,8,93,E4,0F,00,00,00,F4,00,
3729659,000000C4,false,Rx,0,7,51,FF,FD,00,00,FF,F1,00,
3731253,00000497,false,Rx,0,8,29,52,FF,FF,FF,FF,FF,FF,
3733846,000000A8,false,Rx,0,8,A7,05,FA,00,00,0D,CF,22,
3734077,000000A9,false,Rx,0,8,A3,05,A0,5F,11,D9,0F,FA,
3734312,000000AA,false,Rx,0,8,94,E5,0F,00,00,00,F4,00,
3739722,000000C4,false,Rx,0,7,51,FF,FD,00,00,FF,F1,00,
3739975,000000CE,false,Rx,0,8,00,00,00,00,00,00,00,00,
3740166,000000B6,false,Rx,0,5,4D,0E,80,00,08,00,00,00,
3740434,0000019E,false,Rx,0,8,00,EA,BF,FC,FE,63,00,A9,
3740690,000001A0,false,Rx,0,8,00,80,00,C0,FF,12,E0,D5,
3740960,000002B2,false,Rx,0,8,00,00,00,00,40,00,00,04,
3743782,000000A8,false,Rx,0,8,A8,06,FA,00,00,0D,CF,22,
3744013,000000A9,false,Rx,0,8,A4,06,A0,5F,11,D9,0F,FA,
3744259,000000AA,false,Rx,0,8,95,E6,0F,00,00,00,F4,00,
3744483,000001D0,false,Rx,0,8,4B,3C,08,C6,FA,DA,8D,A0,
3749663,000000C4,false,Rx,0,7,51,FF,FD,00,00,FF,F1,00,
3753800,000000A8,false,Rx,0,8,A9,07,FA,00,00,0D,CF,22,
3754031,000000A9,false,Rx,0,8,A4,07,A0,5F,11,D8,0F,FA,
3754266,000000AA,false,Rx,0,8,96,E7,0F,00,00,00,F4,00,
3759808,000000C4,false,Rx,0,7,51,FF,FD,00,00,FF,F1,00,
3760063,000000CE,false,Rx,0,8,00,00,00,00,00,00,00,00,
3760254,000000B6,false,Rx,0,5,3F,00,80,00,08,00,00,00,
3760422,00000194,false,Rx,0,4,F8,FB,00,FC,00,00,00,00,
3760655,0000019E,false,Rx,0,8,00,EA,BF,FC,FE,63,00,A9,
3760792,000001D6,false,Rx,0,2,C0,0C,00,00,00,00,00,00,
3761027,000001A0,false,Rx,0,8,00,80,00,C0,FF,12,00,F4,
3761162,000002A6,false,Rx,0,2,00,F8,00,00,00,00,00,00,
3761406,000002B2,false,Rx,0,8,00,00,00,00,40,00,00,04,
3763778,000000A8,false,Rx,0,8,AA,08,FA,00,00,0D,CF,22,
3764009,000000A9,false,Rx,0,8,A5,08,A0,5F,11,D8,0F,FA,
3764255,000000AA,false,Rx,0,8,97,E8,0F,00,00,00,F4,00,
3769674,000000C4,false,Rx,0,7,51,FF,FD,00,00,FF,F1,00,
3773811,000000A8,false,Rx,0,8,AB,09,FA,00,00,0D,CF,22,
3774042,000000A9,false,Rx,0,8,A6,09,A0,5F,11,D8,0F,FA,
3774277,000000AA,false,Rx,0,8,98,E9,0F,00,00,00,F4,00,
3779641,000000C4,false,Rx,0,7,51,FF,FD,00,00,FF,F1,00,
3779894,000000CE,false,Rx,0,8,00,00,00,00,00,00,00,00,
3780086,000000B6,false,Rx,0,5,40,01,80,00,08,00,00,00,
3780342,0000019E,false,Rx,0,8,00,EA,BF,FC,FE,63,00,A9,
3780599,000001A0,false,Rx,0,8,00,80,00,A0,FF,0F,10,E1,
3780868,000002B2,false,Rx,0,8,00,00,00,00,30,00,00,04,
3783779,000000A8,false,Rx,0,8,AC,0A,FA,00,00,0D,CF,22,
3784011,000000A9,false,Rx,0,8,A7,0A,A0,5F,11,D8,0F,FA,
3784257,000000AA,false,Rx,0,8,99,EA,0F,00,00,00,F4,00,
3789646,000000C4,false,Rx,0,7,51,FF,FD,00,00,FF,F1,00,
3789855,000000C8,false,Rx,0,6,51,FF,D1,00,00,CC,00,00,
3793800,000000A8,false,Rx,0,8,AD,0B,FA,00,00,0D,CF,22,
3794031,000000A9,false,Rx,0,8,A8,0B,A0,5F,11,D8,0F,FA,
3794266,000000AA,false,Rx,0,8,9A,EB,0F,00,00,00,F4,00,
3799272,000002FC,false,Rx,0,7,80,00,00,FF,FF,FF,FF,00,
3799645,000000C4,false,Rx,0,7,51,FF,FD,00,00,FF,F1,00,
3799892,000000CE,false,Rx,0,8,00,00,00,00,00,00,00,00,
3800117,000000B6,false,Rx,0,5,41,02,80,00,08,00,00,00,
3800428,0000019E,false,Rx,0,8,00,EA,BF,FC,FE,63,00,A9,
3800686,000001A0,false,Rx,0,8,00,80,00,D0,FF,12,20,25,
3800954,000001A6,false,Rx,0,8,00,00,00,00,00,00,98,F0,
3801213,000002B2,false,Rx,0,8,00,00,00,00,40,00,00,04,
3801424,00000374,false,Rx,0,5,00,00,FF,FF,FC,00,00,00,
3803781,000000A8,false,Rx,0,8,AE,0C,FA,00,00,0D,CF,22,
3804016,000000A9,false,Rx,0,8,A9,0C,A0,5F,11,D8,0F,FA,
3804251,000000AA,false,Rx,0,8,9B,EC,0F,00,00,00,F4,00,
3809646,000000C4,false,Rx,0,7,51,FF,FD,00,00,FF,F1,00,
3813805,000000A8,false,Rx,0,8,AF,0D,FA,00,00,0D,CF,22,
3814047,000000A9,false,Rx,0,8,AA,0D,A0,5F,11,D8,0F,FA,
3814282,000000AA,false,Rx,0,8,9C,ED,0F,00,00,00,F4,00,
3816322,00000130,false,Rx,0,5,00,0D,D0,0F,88,00,00,00,
3819742,000000C4,false,Rx,0,7,51,FF,FD,00,00,FF,F1,00,
3819984,000000CE,false,Rx,0,8,00,00,00,00,00,00,00,00,
3820176,000000B6,false,Rx,0,5,42,03,80,00,08,00,00,00,
3820454,0000019E,false,Rx,0,8,00,EA,BF,FC,FE,63,00,A9,
3820713,000001A0,false,Rx,0,8,00,80,00,C0,FF,0F,30,22,
3820980,000002B2,false,Rx,0,8,00,00,00,00,30,00,00,04,
3821239,000004A9,false,Rx,0,8,30,52,FF,FF,FF,FF,FF,FF,
3823774,000000A8,false,Rx,0,8,B0,0E,FA,00,00,0D,CF,22,
3824005,000000A9,false,Rx,0,8,AB,0E,A0,5F,11,D8,0F,FA,
3824251,000000AA,false,Rx,0,8,9D,EE,0F,00,00,00,F4,00,
3829704,000000C4,false,Rx,0,7,51,FF,FD,00,00,FF,F1,00,
3833786,000000A8,false,Rx,0,8,A2,00,FA,00,00,0D,CF,22,
3834017,000000A9,false,Rx,0,8,9D,00,A0,5F,11,D8,0F,FA,
3834263,000000AA,false,Rx,0,8,8F,E0,0F,00,00,00,F4,00,
3839749,000000C4,false,Rx,0,7,51,FF,FD,00,00,FF,F1,00,
3840004,000000CE,false,Rx,0,8,00,00,00,00,00,00,00,00,
3840194,000000B6,false,Rx,0,5,43,04,80,00,08,00,00,00,
3840461,0000019E,false,Rx,0,8,00,EA,BF,FC,FE,63,00,A9,
3840720,000001A0,false,Rx,0,8,00,80,00,C0,FF,12,40,35,
3840989,000002B2,false,Rx,0,8,00,00,00,00,40,00,00,04,
3841936,000001FB,false,Rx,0,2,FE,FF,00,00,00,00,00,00,
3843767,000000A8,false,Rx,0,8,A3,01,FA,00,00,0D,CF,22,
3843999,000000A9,false,Rx,0,8,9E,01,A0,5F,11,D8,0F,FA,
3844234,000000AA,false,Rx,0,8,90,E1,0F,00,00,00,F4,00,
3844470,000001D0,false,Rx,0,8,4B,3C,08,C6,FA,DA,8D,A0,
3849704,000000C4,false,Rx,0,7,51,FF,FD,00,00,FF,F1,00,
3853785,000000A8,false,Rx,0,8,A4,02,FA,00,00,0D,CF,22,
3854016,000000A9,false,Rx,0,8,A0,02,A0,5F,11,D9,0F,FA,
3854262,000000AA,false,Rx,0,8,91,E2,0F,00,00,00,F4,00,
3859750,000000C4,false,Rx,0,7,51,FF,FD,00,00,FF,F1,00,
3860003,000000CE,false,Rx,0,8,00,00,00,00,00,00,00,00,
3860194,000000B6,false,Rx,0,5,44,05,80,00,08,00,00,00,
3860461,0000019E,false,Rx,0,8,00,EA,CF,FC,FE,63,00,B9,
3860720,000001A0,false,Rx,0,8,00,80,00,C0,FF,0F,50,42,
3860989,000002B2,false,Rx,0,8,00,00,00,00,30,00,00,04,
3863787,000000A8,false,Rx,0,8,A5,03,FA,00,00,0D,CF,22,
3864009,000000A9,false,Rx,0,8,A1,03,A0,5F,11,D9,0F,FA,
3864244,000000AA,false,Rx,0,8,92,E3,0F,00,00,00,F4,00,
3869708,000000C4,false,Rx,0,7,51,FF,FD,00,00,FF,F1,00,
3873788,000000A8,false,Rx,0,8,A6,04,FA,00,00,0D,CF,22,
3874020,000000A9,false,Rx,0,8,A2,04,A0,5F,11,D9,0F,FA,
3874265,000000AA,false,Rx,0,8,93,E4,0F,00,00,00,F4,00,
3879675,000000C4,false,Rx,0,7,51,FF,FD,00,00,FF,F1,00,
3879917,000000CE,false,Rx,0,8,00,00,00,00,00,00,00,00,
3880109,000000B6,false,Rx,0,5,45,06,80,00,08,00,00,00,
3880376,0000019E,false,Rx,0,8,00,EA,CF,FC,FE,63,00,B9,
3880634,000001A0,false,Rx,0,8,00,80,00,C0,FF,0F,60,52,
3880902,000002B2,false,Rx,0,8,00,00,00,00,30,00,00,04,
3883757,000000A8,false,Rx,0,8,A7,05,FA,00,00,0D,CF,22,
3883989,000000A9,false,Rx,0,8,A3,05,A0,5F,11,D9,0F,FA,
3884223,000000AA,false,Rx,0,8,94,E5,0F,00,00,00,F4,00,
3889644,000000C4,false,Rx,0,7,51,FF,FD,00,00,FF,F1,00,
3893791,000000A8,false,Rx,0,8,A8,06,FA,00,00,0D,CF,22,
3894023,000000A9,false,Rx,0,8,A4,06,A0,5F,11,D9,0F,FA,
3894269,000000AA,false,Rx,0,8,95,E6,0F,00,00,00,F4,00,
3899655,000000C4,false,Rx,0,7,51,FF,FD,00,00,FF,F1,00,
3899897,000000CE,false,Rx,0,8,00,00,00,00,00,00,00,00,
3900089,000000B6,false,Rx,0,5,46,07,80,00,08,00,00,00,
3900389,0000019E,false,Rx,0,8,00,EA,CF,FC,FE,63,00,B9,
3900648,000001A0,false,Rx,0,8,00,80,00,A0,FF,12,70,45,
3900916,000001A6,false,Rx,0,8,00,00,00,00,00,00,28,F2,
3901174,000002B2,false,Rx,0,8,00,00,00,00,40,00,00,04,
3903754,000000A8,false,Rx,0,8,A9,07,FA,00,00,0D,CF,22,
3903996,000000A9,false,Rx,0,8,A5,07,A0,5F,11,D9,0F,FA,
3904220,000000AA,false,Rx,0,8,96,E7,0F,00,00,00,F4,00,
3909641,000000C4,false,Rx,0,7,51,FF,FD,00,00,FF,F1,00,
3913800,000000A8,false,Rx,0,8,AA,08,FA,00,00,0D,CF,22,
3914031,000000A9,false,Rx,0,8,A6,08,A0,5F,11,D9,0F,FA,
3914267,000000AA,false,Rx,0,8,97,E8,0F,00,00,00,F4,00,
3916230,00000130,false,Rx,0,5,00,0D,D0,0F,99,00,00,00,
3919685,000000C4,false,Rx,0,7,51,FF,FD,00,00,FF,F1,00,
3919937,000000CE,false,Rx,0,8,00,00,00,00,00,00,00,00,
3920129,000000B6,false,Rx,0,5,47,08,80,00,08,00,00,00,
3920396,0000019E,false,Rx,0,8,00,EA,CF,FC,FE,63,00,B9,
3920654,000001A0,false,Rx,0,8,00,80,00,C0,FF,12,80,75,
3920922,000002B2,false,Rx,0,8,00,00,00,00,40,00,00,04,
3921169,000004B0,false,Rx,0,8,00,52,FE,01,FF,FF,FF,FF,
3923771,000000A8,false,Rx,0,8,AB,09,FA,00,00,0D,CF,22,
3924002,000000A9,false,Rx,0,8,A7,09,A0,5F,11,D9,0F,FA,
3924237,000000AA,false,Rx,0,8,98,E9,0F,00,00,00,F4,00,
3929668,000000C4,false,Rx,0,7,51,FF,FD,00,00,FF,F1,00,
3933825,000000A8,false,Rx,0,8,AC,0A,FA,00,00,0D,CF,22,
3934056,000000A9,false,Rx,0,8,A8,0A,A0,5F,11,D9,0F,FA,
3934292,000000AA,false,Rx,0,8,99,EA,0F,00,00,00,F4,00,
3939715,000000C4,false,Rx,0,7,51,FF,FD,00,00,FF,F1,00,
3939966,000000CE,false,Rx,0,8,00,00,00,00,00,00,00,00,
3940158,000000B6,false,Rx,0,5,48,09,80,00,08,00,00,00,
3940427,0000019E,false,Rx,0,8,00,EA,CF,FC,FE,63,00,B9,
3940683,000001A0,false,Rx,0,8,00,80,00,C0,FF,12,90,85,
3940940,000002B2,false,Rx,0,8,00,00,00,00,40,00,00,04,
3943795,000000A8,false,Rx,0,8,AD,0B,FA,00,00,0D,CF,22,
3944026,000000A9,false,Rx,0,8,A9,0B,A0,5F,11,D9,0F,FA,
3944263,000000AA,false,Rx,0,8,9A,EB,0F,00,00,00,F4,00,
3944497,000001D0,false,Rx,0,8,4B,3C,09,C6,FA,DA,8D,A0,
3949665,000000C4,false,Rx,0,7,51,FF,FD,00,00,FF,F1,00,
3953845,000000A8,false,Rx,0,8,AE,0C,FA,00,00,0D,CF,22,
3954065,000000A9,false,Rx,0,8,AA,0C,A0,5F,11,D9,0F,FA,
3954313,000000AA,false,Rx,0,8,9B,EC,0F,00,00,00,F4,00,
3959733,000000C4,false,Rx,0,7,51,FF,FD,00,00,FF,F1,00,
3959984,000000CE,false,Rx,0,8,00,00,00,00,00,00,00,00,
3960165,000000B6,false,Rx,0,5,49,0A,80,00,08,00,00,00,
3960333,00000194,false,Rx,0,4,F9,FC,00,FC,00,00,00,00,
3960568,0000019E,false,Rx,0,8,00,EA,CF,FC,FE,63,00,B9,
3960825,000001A0,false,Rx,0,8,00,80,00,A0,FF,0F,A0,72,
3961094,000002B2,false,Rx,0,8,00,00,00,00,30,00,00,04,
3963806,000000A8,false,Rx,0,8,AF,0D,FA,00,00,0D,CF,22,
3964026,000000A9,false,Rx,0,8,AB,0D,A0,5F,11,D9,0F,FA,
3964262,000000AA,false,Rx,0,8,9C,ED,0F,00,00,00,F4,00,
3969671,000000C4,false,Rx,0,7,51,FF,FD,00,00,FF,F1,00,
3973817,000000A8,false,Rx,0,8,B0,0E,FA,00,00,0D,CF,22,
3974038,000000A9,false,Rx,0,8,AC,0E,A0,5F,11,D9,0F,FA,
3974285,000000AA,false,Rx,0,8,9D,EE,0F,00,00,00,F4,00,
3979649,000000C4,false,Rx,0,7,51,FF,FD,00,00,FF,F1,00,
3979900,000000CE,false,Rx,0,8,00,00,00,00,00,00,00,00,
3980092,000000B6,false,Rx,0,5,4A,0B,80,00,08,00,00,00,
3980361,0000019E,false,Rx,0,8,00,EA,CF,FC,FE,63,00,B9,
3980618,000001A0,false,Rx,0,8,00,80,00,D0,FF,12,B0,B5,
3980886,000002B2,false,Rx,0,8,00,00,00,00,40,00,00,04,
3983797,000000A8,false,Rx,0,8,A2,00,FA,00,00,0D,CF,22,
3984028,000000A9,false,Rx,0,8,9E,00,A0,5F,11,D9,0F,FA,
3984275,000000AA,false,Rx,0,8,8F,E0,0F,00,00,00,F4,00,
3989650,000000C4,false,Rx,0,7,51,FF,FD,00,00,FF,F1,00,
3989847,000000C8,false,Rx,0,6,51,FF,31,00,00,EC,00,00,
3993835,000000A8,false,Rx,0,8,A3,01,FA,00,00,0D,CF,22,
3994066,000000A9,false,Rx,0,8,9F,01,A0,5F,11,D9,0F,FA,
3994291,000000AA,false,Rx,0,8,90,E1,0F,00,00,00,F4,00,
3999644,000000C4,false,Rx,0,7,51,FF,FD,00,00,FF,F1,00,
3999896,000000CE,false,Rx,0,8,00,00,00,00,00,00,00,00,
4000087,000000B6,false,Rx,0,5,4B,0C,80,00,08,00,00,00,
4000389,0000019E,false,Rx,0,8,00,EA,CF,FC,FE,63,00,B9,
4000646,000001A0,false,Rx,0,8,00,80,00,D0,FF,0F,C0,C2,
4000914,000001A6,false,Rx,0,8,00,00,00,00,00,00,B8,F3,
4001174,000002B2,false,Rx,0,8,00,00,00,00,30,00,00,04,
4003799,000000A8,false,Rx,0,8,A4,02,FA,00,00,0D,CF,22,
4004030,000000A9,false,Rx,0,8,A0,02,A0,5F,11,D9,0F,FA,
4004266,000000AA,false,Rx,0,8,91,E2,0F,00,00,00,F4,00,
4008563,00000480,false,Rx,0,8,12,42,FD,01,FF,FF,FF,FF,
4009681,000000C4,false,Rx,0,7,51,FF,FD,00,00,FF,F1,00,
4013838,000000A8,false,Rx,0,8,A5,03,FA,00,00,0D,CF,22,
4014069,000000A9,false,Rx,0,8,A1,03,A0,5F,11,D9,0F,FA,
4014294,000000AA,false,Rx,0,8,92,E3,0F,00,00,00,F4,00,
4016333,00000130,false,Rx,0,5,00,0D,D0,0F,AA,00,00,00,
4019710,000000C4,false,Rx,0,7,51,FF,FD,00,00,FF,F1,00,
4019962,000000CE,false,Rx,0,8,00,00,00,00,00,00,00,00,
4020143,000000B6,false,Rx,0,5,4C,0D,80,00,08,00,00,00,
4020411,0000019E,false,Rx,0,8,00,EA,CF,FC,FE,63,00,B9,
4020668,000001A0,false,Rx,0,8,00,80,00,D0,FF,12,D0,D5,
4020936,000002B2,false,Rx,0,8,00,00,00,00,40,00,00,04,
4023813,000000A8,false,Rx,0,8,A6,04,FA,00,00,0D,CF,22,
4024045,000000A9,false,Rx,0,8,A2,04,A0,5F,11,D9,0F,FA,
4024281,000000AA,false,Rx,0,8,93,E4,0F,00,00,00,F4,00,
4029688,000000C4,false,Rx,0,7,51,FF,FD,00,00,FF,F1,00,
4031128,000001FB,false,Rx,0,2,F0,FF,00,00,00,00,00,00,
4033827,000000A8,false,Rx,0,8,A7,05,FA,00,00,0D,CF,22,
4034059,000000A9,false,Rx,0,8,A3,05,A0,5F,11,D9,0F,FA,
4034295,000000AA,false,Rx,0,8,94,E5,0F,00,00,00,F4,00,
4039737,000000C4,false,Rx,0,7,51,FF,FD,00,00,FF,F1,00,
4039990,000000CE,false,Rx,0,8,00,00,00,00,00,00,00,00,
4040169,000000B6,false,Rx,0,5,4D,0E,80,00,08,00,00,00,
4040449,0000019E,false,Rx,0,8,00,EA,CF,FC,FE,63,00,B9,
4040706,000001A0,false,Rx,0,8,00,80,00,C0,FF,12,E0,D5,
4040963,000002B2,false,Rx,0,8,00,00,00,00,40,00,00,04,
4043785,000000A8,false,Rx,0,8,A8,06,FA,00,00,0D,CF,22,
4044016,000000A9,false,Rx,0,8,A4,06,A0,5F,11,D9,0F,FA,
4044263,000000AA,false,Rx,0,8,95,E6,0F,00,00,00,F4,00,
4044487,000001D0,false,Rx,0,8,4B,3C,09,C6,FA,DA,8D,A0,
4049688,000000C4,false,Rx,0,7,51,FF,FD,00,00,FF,F1,00,
4053815,000000A8,false,Rx,0,8,A9,07,FA,00,00,0D,CF,22,
4054049,000000A9,false,Rx,0,8,A5,07,A0,5F,11,D9,0F,FA,
4054284,000000AA,false,Rx,0,8,96,E7,0F,00,00,00,F4,00,
4059726,000000C4,false,Rx,0,7,51,FF,FD,00,00,FF,F1,00,
4059978,000000CE,false,Rx,0,8,00,00,00,00,00,00,00,00,
4060158,000000B6,false,Rx,0,5,3F,00,80,00,08,00,00,00,
4060438,0000019E,false,Rx,0,8,00,EA,DF,FC,FE,63,00,C9,
4060695,000001A0,false,Rx,0,8,00,80,00,C0,FF,0F,00,F1,
4060953,000002B2,false,Rx,0,8,00,00,00,00,30,00,00,04,
4063785,000000A8,false,Rx,0,8,AA,08,FA,00,00,0D,CF,22,
4064016,000000A9,false,Rx,0,8,A6,08,A0,5F,11,D9,0F,FA,
4064252,000000AA,false,Rx,0,8,97,E8,0F,00,00,00,F4,00,
4069683,000000C4,false,Rx,0,7,51,FF,FD,00,00,FF,F1,00,
4073819,000000A8,false,Rx,0,8,AB,09,FA,00,00,0D,CF,22,
4074051,000000A9,false,Rx,0,8,A7,09,A0,5F,11,D9,0F,FA,
4074286,000000AA,false,Rx,0,8,98,E9,0F,00,00,00,F4,00,
4079661,000000C4,false,Rx,0,7,51,FF,FD,00,00,FF,F1,00,
4079913,000000CE,false,Rx,0,8,00,00,00,00,00,00,00,00,
4080105,000000B6,false,Rx,0,5,40,01,80,00,08,00,00,00,
4080362,0000019E,false,Rx,0,8,00,EA,DF,FC,FE,63,00,C9,
4080619,000001A0,false,Rx,0,8,00,80,00,C0,FF,12,10,05,
4080887,000002B2,false,Rx,0,8,00,00,00,00,40,00,00,04,
4083776,000000A8,false,Rx,0,8,AC,0A,FA,00,00,0D,CF,22,
4084010,000000A9,false,Rx,0,8,A8,0A,A0,5F,11,D9,0F,FA,
4084256,000000AA,false,Rx,0,8,99,EA,0F,00,00,00,F4,00,
4089687,000000C4,false,Rx,0,7,51,FF,FD,00,00,FF,F1,00,
4093777,000000A8,false,Rx,0,8,AD,0B,FA,00,00,0D,CF,22,
4094009,000000A9,false,Rx,0,8,A9,0B,A0,5F,11,D9,0F,FA,
4094244,000000AA,false,Rx,0,8,9A,EB,0F,00,00,00,F4,00,
4099687,000000C4,false,Rx,0,7,51,FF,FD,00,00,FF,F1,00,
4099939,000000CE,false,Rx,0,8,00,00,00,00,00,00,00,00,
4100132,000000B6,false,Rx,0,5,41,02,80,00,08,00,00,00,
4100432,0000019E,false,Rx,0,8,00,EA,DF,FC,FE,63,00,C9,
4100689,000001A0,false,Rx,0,8,00,80,00,C0,FF,0F,20,12,
4100948,000001A6,false,Rx,0,8,00,00,00,00,00,00,48,F5,
4101206,000002B2,false,Rx,0,8,00,00,00,00,30,00,00,04,
4102289,00000310,false,Rx,0,7,6E,2B,06,00,00,42,20,00,
4103782,000000A8,false,Rx,0,8,AE,0C,FA,00,00,0D,CF,22,
4104008,000000A9,false,Rx,0,8,AA,0C,A0,5F,11,D9,0F,FA,
4104254,000000AA,false,Rx,0,8,9B,EC,0F,00,00,00,F4,00,
4109709,000000C4,false,Rx,0,7,51,FF,FD,00,00,FF,F1,00,
4113811,00000492,false,Rx,0,8,17,52,FF,FF,FF,FF,FF,FF,
4114043,000000A8,false,Rx,0,8,AF,0D,FA,00,00,0D,CF,22,
4114267,000000A9,false,Rx,0,8,AB,0D,A0,5F,11,D9,0F,FA,
4114502,000000AA,false,Rx,0,8,9C,ED,0F,00,00,00,F4,00,
4116233,00000130,false,Rx,0,5,00,0D,D0,0F,BB,00,00,00,
4119743,000000C4,false,Rx,0,7,51,FF,FD,00,00,FF,F1,00,
4119996,000000CE,false,Rx,0,8,00,00,00,00,00,00,00,00,
4120177,000000B6,false,Rx,0,5,42,03,80,00,08,00,00,00,
4120455,0000019E,false,Rx,0,8,00,EA,DF,FC,FE,63,00,C9,
4120712,000001A0,false,Rx,0,8,00,80,00,C0,FF,12,30,25,
4120981,000002B2,false,Rx,0,8,00,00,00,00,40,00,00,04,
4123780,000000A8,false,Rx,0,8,B0,0E,FA,00,00,0D,CF,22,
4124013,000000A9,false,Rx,0,8,AC,0E,A0,5F,11,D9,0F,FA,
4124248,000000AA,false,Rx,0,8,9D,EE,0F,00,00,00,F4,00,
4129711,000000C4,false,Rx,0,7,51,FF,FD,00,00,FF,F1,00,
4133823,000000A8,false,Rx,0,8,A2,00,FA,00,00,0D,CF,22,
4134056,000000A9,false,Rx,0,8,9E,00,A0,5F,11,D9,0F,FA,
4134291,000000AA,false,Rx,0,8,8F,E0,0F,00,00,00,F4,00,
4139767,000000C4,false,Rx,0,7,51,FF,FD,00,00,FF,F1,00,
4140020,000000CE,false,Rx,0,8,00,00,00,00,00,00,00,00,
4140201,000000B6,false,Rx,0,5,43,04,80,00,08,00,00,00,
4140479,0000019E,false,Rx,0,8,00,EA,DF,FC,FE,63,00,C9,
4140736,000001A0,false,Rx,0,8,00,80,00,A0,FF,12,40,15,
4140995,000002B2,false,Rx,0,8,00,00,00,00,40,00,00,04,
4143781,000000A8,false,Rx,0,8,A3,01,FA,00,00,0D,CF,22,
4144014,000000A9,false,Rx,0,8,9F,01,A0,5F,11,D9,0F,FA,
4144249,000000AA,false,Rx,0,8,90,E1,0F,00,00,00,F4,00,
4144484,000001D0,false,Rx,0,8,4B,3C,0A,C6,FA,DA,8D,A0,
4149708,000000C4,false,Rx,0,7,51,FF,FD,00,00,FF,F1,00,
4153822,000000A8,false,Rx,0,8,A4,02,FA,00,00,0D,CF,22,
4154054,000000A9,false,Rx,0,8,A0,02,A0,5F,11,D9,0F,FA,
4154289,000000AA,false,Rx,0,8,91,E2,0F,00,00,00,F4,00,
4159732,000000C4,false,Rx,0,7,51,FF,FD,00,00,FF,F1,00,
4159984,000000CE,false,Rx,0,8,00,00,00,00,00,00,00,00,
4160166,000000B6,false,Rx,0,5,44,05,80,00,08,00,00,00,
4160333,00000194,false,Rx,0,4,FA,FD,00,FC,00,00,00,00,
4160567,0000019E,false,Rx,0,8,00,EA,DF,FC,FE,63,00,C9,
4160825,000001A0,false,Rx,0,8,00,80,00,C0,FF,12,50,45,
4161094,000002B2,false,Rx,0,8,00,00,00,00,40,00,00,04,
4163783,000000A8,false,Rx,0,8,A5,03,FA,00,00,0D,CF,22,
4164016,000000A9,false,Rx,0,8,A1,03,A0,5F,11,D9,0F,FA,
4164250,000000AA,false,Rx,0,8,92,E3,0F,00,00,00,F4,00,
4169670,000000C4,false,Rx,0,7,51,FF,FD,00,00,FF,F1,00,
4173815,000000A8,false,Rx,0,8,A6,04,FA,00,00,0D,CF,22,
4174048,000000A9,false,Rx,0,8,A2,04,A0,5F,11,D9,0F,FA,
4174283,000000AA,false,Rx,0,8,93,E4,0F,00,00,00,F4,00,
4179659,000000C4,false,Rx,0,7,51,FF,FD,00,00,FF,F1,00,
4179911,000000CE,false,Rx,0,8,00,00,00,00,00,00,00,00,
4180093,000000B6,false,Rx,0,5,45,06,80,00,08,00,00,00,
4180361,0000019E,false,Rx,0,8,00,EA,DF,FC,FE,63,00,C9,
4180618,000001A0,false,Rx,0,8,00,80,00,C0,FF,12,60,55,
4180876,000002B2,false,Rx,0,8,00,00,00,00,40,00,00,04,
4183774,000000A8,false,Rx,0,8,A7,05,FA,00,00,0D,CF,22,
4184007,000000A9,false,Rx,0,8,A3,05,A0,5F,11,D9,0F,FA,
4184242,000000AA,false,Rx,0,8,94,E5,0F,00,00,00,F4,00,
4189652,000000C4,false,Rx,0,7,51,FF,FD,00,00,FF,F1,00,
4189860,000000C8,false,Rx,0,6,51,FF,81,00,00,0C,00,00,
4193816,000000A8,false,Rx,0,8,A8,06,FA,00,00,0D,CF,22,
4194048,000000A9,false,Rx,0,8,A4,06,A0,5F,11,D9,0F,FA,
4194282,000000AA,false,Rx,0,8,95,E6,0F,00,00,00,F4,00,
4199646,000000C4,false,Rx,0,7,51,FF,FD,00,00,FF,F1,00,
4199898,000000CE,false,Rx,0,8,00,00,00,00,00,00,00,00,
4200091,000000B6,false,Rx,0,5,46,07,80,00,08,00,00,00,
4200403,0000019E,false,Rx,0,8,00,EA,DF,FC,FE,63,00,C9,
4200660,000001A0,false,Rx,0,8,00,80,00,C0,FF,12,70,65,
4200929,000001A6,false,Rx,0,8,00,00,00,00,00,00,D8,F6,
4201187,000002B2,false,Rx,0,8,00,00,00,00,40,00,00,04,
4203755,000000A8,false,Rx,0,8,A9,07,FA,00,00,0D,CF,22,
4203988,000000A9,false,Rx,0,8,A5,07,A0,5F,11,D9,0F,FA,
4204223,000000AA,false,Rx,0,8,96,E7,0F,00,00,00,F4,00,
4209653,000000C4,false,Rx,0,7,51,FF,FD,00,00,FF,F1,00,
4211271,00000497,false,Rx,0,8,29,52,FF,FF,FF,FF,FF,FF,
4213797,000000A8,false,Rx,0,8,AA,08,FA,00,00,0D,CF,22,
4214028,000000A9,false,Rx,0,8,A6,08,A0,5F,11,D9,0F,FA,
4214263,000000AA,false,Rx,0,8,97,E8,0F,00,00,00,F4,00,
4216325,00000130,false,Rx,0,5,00,0D,D0,0F,CC,00,00,00,
4219724,000000C4,false,Rx,0,7,51,FF,FD,00,00,FF,F1,00,
4219977,000000CE,false,Rx,0,8,00,00,00,00,00,00,00,00,
4220158,000000B6,false,Rx,0,5,47,08,80,00,08,00,00,00,
4220436,0000019E,false,Rx,0,8,00,EA,DF,FC,FE,63,00,C9,
4220693,000001A0,false,Rx,0,8,00,80,00,C0,FF,12,80,75,
4220951,000002B2,false,Rx,0,8,00,00,00,00,40,00,00,04,
4221910,000001FB,false,Rx,0,2,F1,FF,00,00,00,00,00,00,
4223774,000000A8,false,Rx,0,8,AB,09,FA,00,00,0D,CF,22,
4224007,000000A9,false,Rx,0,8,A7,09,A0,5F,11,D9,0F,FA,
4224241,000000AA,false,Rx,0,8,98,E9,0F,00,00,00,F4,00,
4229682,000000C4,false,Rx,0,7,51,FF,FD,00,00,FF,F1,00,
4233819,000000A8,false,Rx,0,8,AC,0A,FA,00,00,0D,CF,22,
4234050,000000A9,false,Rx,0,8,A8,0A,A0,5F,11,D9,0F,FA,
4234296,000000AA,false,Rx,0,8,99,EA,0F,00,00,00,F4,00,
4239727,000000C4,false,Rx,0,7,51,FF,FD,00,00,FF,F1,00,
4239980,000000CE,false,Rx,0,8,00,00,00,00,00,00,00,00,
4240172,000000B6,false,Rx,0,5,48,09,80,00,08,00,00,00,
4240439,0000019E,false,Rx,0,8,00,EA,DF,FC,FE,63,00,C9,
4240697,000001A0,false,Rx,0,8,00,80,00,C0,FF,12,90,85,
4240965,000002B2,false,Rx,0,8,00,00,00,00,40,00,00,04,
4243799,000000A8,false,Rx,0,8,AD,0B,FA,00,00,0D,CF,22,
4244031,000000A9,false,Rx,0,8,A9,0B,A0,5F,11,D9,0F,FA,
4244265,000000AA,false,Rx,0,8,9A,EB,0F,00,00,00,F4,00,
4244489,000001D0,false,Rx,0,8,4B,3C,0A,C6,FA,DA,8D,A0,
4249690,000000C4,false,Rx,0,7,51,FF,FD,00,00,FF,F1,00,
4253849,000000A8,false,Rx,0,8,AE,0C,FA,00,00,0D,CF,22,
4254080,000000A9,false,Rx,0,8,AA,0C,A0,5F,11,D9,0F,FA,
4254326,000000AA,false,Rx,0,8,9B,EC,0F,00,00,00,F4,00,
4259724,000000C4,false,Rx,0,7,51,FF,FD,00,00,FF,F1,00,
4259977,000000CE,false,Rx,0,8,00,00,00,00,00,00,00,00,
4260158,000000B6,false,Rx,0,5,49,0A,80,00,08,00,00,00,
4260436,0000019E,false,Rx,0,8,00,EA,DF,FC,FE,63,00,C9,
4260694,000001A0,false,Rx,0,8,00,80,00,C0,FF,12,A0,95,
4260951,000002B2,false,Rx,0,8,00,00,00,00,40,00,00,04,
4263795,000000A8,false,Rx,0,8,AF,0D,FA,00,00,0D,CF,22,
4264027,000000A9,false,Rx,0,8,AB,0D,A0,5F,11,D9,0F,FA,
4264262,000000AA,false,Rx,0,8,9C,ED,0F,00,00,00,F4,00,
4269692,000000C4,false,Rx,0,7,51,FF,FD,00,00,FF,F1,00,
4273829,000000A8,false,Rx,0,8,B0,0E,FA,00,00,0D,CF,22,
4274049,000000A9,false,Rx,0,8,AC,0E,A0,5F,11,D9,0F,FA,
4274295,000000AA,false,Rx,0,8,9D,EE,0F,00,00,00,F4,00,
4279660,000000C4,false,Rx,0,7,51,FF,FD,00,00,FF,F1,00,
4279913,000000CE,false,Rx,0,8,00,00,00,00,00,00,00,00,
4280105,000000B6,false,Rx,0,5,4A,0B,80,00,08,00,00,00,
4280361,0000019E,false,Rx,0,8,00,EA,EF,FC,FE,63,00,D9,
4280619,000001A0,false,Rx,0,8,00,80,00,C0,FF,0F,B0,A2,
4280887,000002B2,false,Rx,0,8,00,00,00,00,30,00,00,04,
4283779,000000A8,false,Rx,0,8,A2,00,FA,00,00,0D,CF,22,
4284010,000000A9,false,Rx,0,8,9E,00,A0,5F,11,D9,0F,FA,
4284245,000000AA,false,Rx,0,8,8F,E0,0F,00,00,00,F4,00,
4289653,000000C4,false,Rx,0,7,51,FF,FD,00,00,FF,F1,00,
4293825,000000A8,false,Rx,0,8,A3,01,FA,00,00,0D,CF,22,
4294056,000000A9,false,Rx,0,8,9F,01,A0,5F,11,D9,0F,FA,
4294291,000000AA,false,Rx,0,8,90,E1,0F,00,00,00,F4,00,
4299687,000000C4,false,Rx,0,7,51,FF,FD,00,00,FF,F1,00,
4299941,000000CE,false,Rx,0,8,00,00,00,00,00,00,00,00,
4300122,000000B6,false,Rx,0,5,4B,0C,80,00,08,00,00,00,
4300433,0000019E,false,Rx,0,8,00,EA,EF,FC,FE,63,00,D9,
4300691,000001A0,false,Rx,0,8,00,80,00,C0,FF,12,C0,B5,
4300959,000001A6,false,Rx,0,8,00,00,00,00,00,00,68,F8,
4301230,000002B2,false,Rx,0,8,00,00,00,00,40,00,00,04,
4301488,000004A9,false,Rx,0,8,30,52,FF,FF,FF,FF,FF,FF,
4303793,000000A8,false,Rx,0,8,A4,02,FA,00,00,0D,CF,22,
4304024,000000A9,false,Rx,0,8,A0,02,A0,5F,11,D9,0F,FA,
4304259,000000AA,false,Rx,0,8,91,E2,0F,00,00,00,F4,00,
4309668,000000C4,false,Rx,0,7,51,FF,FD,00,00,FF,F1,00,
4313860,000000A8,false,Rx,0,8,A5,03,FA,00,00,0D,CF,22,
4314092,000000A9,false,Rx,0,8,A1,03,A0,5F,11,D9,0F,FA,
4314326,000000AA,false,Rx,0,8,92,E3,0F,00,00,00,F4,00,
4316223,00000130,false,Rx,0,5,00,0D,D0,0F,DD,00,00,00,
4319721,000000C4,false,Rx,0,7,51,FF,FD,00,00,FF,F1,00,
4319963,000000CE,false,Rx,0,8,00,00,00,00,00,00,00,00,
4320154,000000B6,false,Rx,0,5,4C,0D,80,00,08,00,00,00,
4320422,0000019E,false,Rx,0,8,00,EA,EF,FC,FE,63,00,D9,
4320680,000001A0,false,Rx,0,8,00,80,00,A0,FF,12,D0,A5,
4320948,000002B2,false,Rx,0,8,00,00,00,00,40,00,00,04,
4323804,000000A8,false,Rx,0,8,A6,04,FA,00,00,0D,CF,22,
4324035,000000A9,false,Rx,0,8,A2,04,A0,5F,11,D9,0F,FA,
4324270,000000AA,false,Rx,0,8,93,E4,0F,00,00,00,F4,00,
4329676,000000C4,false,Rx,0,7,51,FF,FD,00,00,FF,F1,00,
4333813,000000A8,false,Rx,0,8,A7,05,FA,00,00,0D,CF,22,
4334044,000000A9,false,Rx,0,8,A3,05,A0,5F,11,D9,0F,FA,
4334279,000000AA,false,Rx,0,8,94,E5,0F,00,00,00,F4,00,
4337073,000002F6,false,Rx,0,2,00,F5,00,00,00,00,00,00,
4339727,000000C4,false,Rx,0,7,51,FF,FD,00,00,FF,F1,00,
4339980,000000CE,false,Rx,0,8,00,00,00,00,00,00,00,00,
4340172,000000B6,false,Rx,0,5,4D,0E,80,00,08,00,00,00,
4340439,0000019E,false,Rx,0,8,00,EA,EF,FC,FE,63,00,D9,
4340698,000001A0,false,Rx,0,8,00,80,00,A0,FF,12,E0,B5,
4340966,000002B2,false,Rx,0,8,00,00,00,00,40,00,00,04,
4343790,000000A8,false,Rx,0,8,A8,06,FA,00,00,0D,CF,22,
4344021,000000A9,false,Rx,0,8,A4,06,A0,5F,11,D9,0F,FA,
4344256,000000AA,false,Rx,0,8,95,E6,0F,00,00,00,F4,00,
4344481,000001B6,false,Rx,0,7,FF,00,00,00,00,AC,53,00,
4344715,000001D0,false,Rx,0,8,4B,3C,0B,C6,FA,DA,8D,A0,
4344862,000002F3,false,Rx,0,3,0C,FC,FE,00,00,00,00,00,
4349697,000000C4,false,Rx,0,7,51,FF,FD,00,00,FF,F1,00,
4353822,000000A8,false,Rx,0,8,A9,07,FA,00,00,0D,CF,22,
4354054,000000A9,false,Rx,0,8,A5,07,A0,5F,11,D9,0F,FA,
4354289,000000AA,false,Rx,0,8,96,E7,0F,00,00,00,F4,00,
4359776,000000C4,false,Rx,0,7,51,FF,FD,00,00,FF,F1,00,
4360031,000000CE,false,Rx,0,8,00,00,00,00,00,00,00,00,
4360211,000000B6,false,Rx,0,5,3F,00,80,00,08,00,00,00,
4360378,00000194,false,Rx,0,4,FB,FE,00,FC,00,00,00,00,
4360613,0000019E,false,Rx,0,8,00,EA,EF,FC,FE,63,00,D9,
4360870,000001A0,false,Rx,0,8,00,80,00,C0,FF,12,00,F4,
4361139,000002B2,false,Rx,0,8,00,00,00,00,40,00,00,04,
4363785,000000A8,false,Rx,0,8,AA,08,FA,00,00,0D,CF,22,
4364016,000000A9,false,Rx,0,8,A6,08,A0,5F,11,D9,0F,FA,
4364251,000000AA,false,Rx,0,8,97,E8,0F,00,00,00,F4,00,
4369728,000000C4,false,Rx,0,7,51,FF,FD,00,00,FF,F1,00,
4373818,000000A8,false,Rx,0,8,AB,09,FA,00,00,0D,CF,22,
4374049,000000A9,false,Rx,0,8,A7,09,A0,5F,11,D9,0F,FA,
4374284,000000AA,false,Rx,0,8,98,E9,0F,00,00,00,F4,00,
4379706,000000C4,false,Rx,0,7,51,FF,FD,00,00,FF,F1,00,
4379958,000000CE,false,Rx,0,8,00,00,00,00,00,00,00,00,
4380138,000000B6,false,Rx,0,5,40,01,80,00,08,00,00,00,
4380417,0000019E,false,Rx,0,8,00,EA,EF,FC,FE,63,00,D9,
4380675,000001A0,false,Rx,0,8,00,80,00,C0,FF,12,10,05,
4380943,000002B2,false,Rx,0,8,00,00,00,00,40,00,00,04,
4383787,000000A8,false,Rx,0,8,AC,0A,FA,00,00,0D,CF,22,
4384020,000000A9,false,Rx,0,8,A8,0A,A0,5F,11,D9,0F,FA,
4384254,000000AA,false,Rx,0,8,99,EA,0F,00,00,00,F4,00,
4389698,000000C4,false,Rx,0,7,51,FF,FD,00,00,FF,F1,00,
4389906,000000C8,false,Rx,0,6,51,FF,D1,00,00,1C,00,00,
4393829,000000A8,false,Rx,0,8,AD,0B,FA,00,00,0D,CF,22,
4394049,000000A9,false,Rx,0,8,A9,0B,A0,5F,11,D9,0F,FA,
4394285,000000AA,false,Rx,0,8,9A,EB,0F,00,00,00,F4,00,
4399695,000000C4,false,Rx,0,7,51,FF,FD,00,00,FF,F1,00,
4399947,000000CE,false,Rx,0,8,00,00,00,00,00,00,00,00,
4400138,000000B6,false,Rx,0,5,41,02,80,00,08,00,00,00,
4400440,0000019E,false,Rx,0,8,00,EA,EF,FC,FE,63,00,D9,
4400697,000001A0,false,Rx,0,8,00,80,00,A0,FF,12,20,F4,
4400965,000001A6,false,Rx,0,8,00,00,00,00,00,00,F8,F9,
4401215,000004B0,false,Rx,0,8,00,52,FE,01,FF,FF,FF,FF,
4401461,000002B2,false,Rx,0,8,00,00,00,00,40,00,00,04,
4403788,000000A8,false,Rx,0,8,AE,0C,FA,00,00,0D,CF,22,
4404008,000000A9,false,Rx,0,8,AA,0C,A0,5F,11,D9,0F,FA,
4404256,000000AA,false,Rx,0,8,9B,EC,0F,00,00,00,F4,00,
4409710,000000C4,false,Rx,0,7,51,FF,FD,00,00,FF,F1,00,
4411937,000001FB,false,Rx,0,2,F2,FF,00,00,00,00,00,00,
4413817,000000A8,false,Rx,0,8,AF,0D,FA,00,00,0D,CF,22,
4414048,000000A9,false,Rx,0,8,AB,0D,A0,5F,11,D9,0F,FA,
4414284,000000AA,false,Rx,0,8,9C,ED,0F,00,00,00,F4,00,
4416301,00000130,false,Rx,0,5,00,0D,D0,0F,EE,00,00,00,
4419745,000000C4,false,Rx,0,7,51,FF,FD,00,00,FF,F1,00,
4419992,000000CE,false,Rx,0,8,00,00,00,00,00,00,00,00,
4420180,000000B6,false,Rx,0,5,42,03,80,00,08,00,00,00,
4420471,0000019E,false,Rx,0,8,00,EA,EF,FC,FE,63,00,D9,
4420728,000001A0,false,Rx,0,8,00,80,00,C0,FF,12,30,25,
4420997,000002B2,false,Rx,0,8,00,00,00,00,40,00,00,04,
4423782,000000A8,false,Rx,0,8,B0,0E,FA,00,00,0D,CF,22,
4424018,000000A9,false,Rx,0,8,AC,0E,A0,5F,11,D9,0F,FA,
4424252,000000AA,false,Rx,0,8,9D,EE,0F,00,00,00,F4,00,
4429689,000000C4,false,Rx,0,7,51,FF,FD,00,00,FF,F1,00,
4433823,000000A8,false,Rx,0,8,A2,00,FA,00,00,0D,CF,22,
4434055,000000A9,false,Rx,0,8,9E,00,A0,5F,11,D9,0F,FA,
4434291,000000AA,false,Rx,0,8,8F,E0,0F,00,00,00,F4,00,
4437560,000001B5,false,Rx,0,7,00,FF,00,00,C8,FF,FF,00,
4439729,000000C4,false,Rx,0,7,51,FF,FD,00,00,FF,F1,00,
4439981,000000CE,false,Rx,0,8,00,00,00,00,00,00,00,00,
4440162,000000B6,false,Rx,0,5,43,04,80,00,08,00,00,00,
4440441,0000019E,false,Rx,0,8,00,EA,EF,FC,FE,63,00,D9,
4440698,000001A0,false,Rx,0,8,00,80,00,A0,FF,12,40,15,
4440955,000002B2,false,Rx,0,8,00,00,00,00,40,00,00,04,
4443789,000000A8,false,Rx,0,8,A3,01,FA,00,00,0D,CF,22,
4444021,000000A9,false,Rx,0,8,9F,01,A0,5F,11,D9,0F,FA,
4444257,000000AA,false,Rx,0,8,90,E1,0F,00,00,00,F4,00,
4444481,000001D0,false,Rx,0,8,4B,3C,0B,C6,FA,DA,8D,A0,
4449681,000000C4,false,Rx,0,7,51,FF,FD,00,00,FF,F1,00,
4453816,000000A8,false,Rx,0,8,A4,02,FA,00,00,0D,CF,22,
4454047,000000A9,false,Rx,0,8,A0,02,A0,5F,11,D9,0F,FA,
4454295,000000AA,false,Rx,0,8,91,E2,0F,00,00,00,F4,00,
4459726,000000C4,false,Rx,0,7,51,FF,FD,00,00,FF,F1,00,
4459978,000000CE,false,Rx,0,8,00,00,00,00,00,00,00,00,
4460158,000000B6,false,Rx,0,5,44,05,80,00,08,00,00,00,
4460438,0000019E,false,Rx,0,8,00,EA,EF,FC,FE,63,00,D9,
4460695,000001A0,false,Rx,0,8,00,80,00,C0,FF,12,50,45,
4460963,000002B2,false,Rx,0,8,00,00,00,00,40,00,00,04,
4463785,000000A8,false,Rx,0,8,A5,03,FA,00,00,0D,CF,22,
4464016,000000A9,false,Rx,0,8,A1,03,A0,5F,11,D9,0F,FA,
4464252,000000AA,false,Rx,0,8,92,E3,0F,00,00,00,F4,00,
4469694,000000C4,false,Rx,0,7,51,FF,FD,00,00,FF,F1,00,
4473820,000000A8,false,Rx,0,8,A6,04,FA,00,00,0D,CF,22,
4474041,000000A9,false,Rx,0,8,A2,04,A0,5F,11,D9,0F,FA,
4474288,000000AA,false,Rx,0,8,93,E4,0F,00,00,00,F4,00,
4479664,000000C4,false,Rx,0,7,51,FF,FD,00,00,FF,F1,00,
4479915,000000CE,false,Rx,0,8,00,00,00,00,00,00,00,00,
4480107,000000B6,false,Rx,0,5,45,06,80,00,08,00,00,00,
4480376,0000019E,false,Rx,0,8,00,EA,0F,FC,FE,63,00,F8,
4480633,000001A0,false,Rx,0,8,00,80,00,C0,FF,0F,60,52,
4480890,000002B2,false,Rx,0,8,00,00,00,00,30,00,00,04,
4483779,000000A8,false,Rx,0,8,A7,05,FA,00,00,0D,CF,22,
4484010,000000A9,false,Rx,0,8,A3,05,A0,5F,11,D9,0F,FA,
4484246,000000AA,false,Rx,0,8,94,E5,0F,00,00,00,F4,00,
4488600,00000480,false,Rx,0,8,12,42,FD,01,FF,FF,FF,FF,
4489695,000000C4,false,Rx,0,7,51,FF,FD,00,00,FF,F1,00,
4493818,000000A8,false,Rx,0,8,A8,06,FA,00,00,0D,CF,22,
4494050,000000A9,false,Rx,0,8,A4,06,A0,5F,11,D9,0F,FA,
4494297,000000AA,false,Rx,0,8,95,E6,0F,00,00,00,F4,00,
4499672,000000C4,false,Rx,0,7,51,FF,FD,00,00,FF,F1,00,
4499924,000000CE,false,Rx,0,8,00,00,00,00,00,00,00,00,
4500115,000000B6,false,Rx,0,5,46,07,80,00,08,00,00,00,
4500417,0000019E,false,Rx,0,8,00,EA,0F,FC,FE,63,00,F8,
4500674,000001A0,false,Rx,0,8,00,80,00,C0,FF,0F,70,62,
4500942,000001A6,false,Rx,0,8,00,00,00,00,00,00,88,FB,
4501201,000002B2,false,Rx,0,8,00,00,00,00,30,00,00,04,
4503781,000000A8,false,Rx,0,8,A9,07,FA,00,00,0D,CF,22,
4504012,000000A9,false,Rx,0,8,A5,07,A0,5F,11,D9,0F,FA,
4504248,000000AA,false,Rx,0,8,96,E7,0F,00,00,00,F4,00,
4509669,000000C4,false,Rx,0,7,51,FF,FD,00,00,FF,F1,00,
4513815,000000A8,false,Rx,0,8,AA,08,FA,00,00,0D,CF,22,
4514048,000000A9,false,Rx,0,8,A6,08,A0,5F,11,D9,0F,FA,
4514284,000000AA,false,Rx,0,8,97,E8,0F,00,00,00,F4,00,
4516224,00000130,false,Rx,0,5,00,0D,D0,0F,F0,00,00,00,
4519725,000000C4,false,Rx,0,7,51,FF,FD,00,00,FF,F1,00,
4519976,000000CE,false,Rx,0,8,00,00,00,00,00,00,00,00,
4520158,000000B6,false,Rx,0,5,47,08,80,00,08,00,00,00,
4520437,0000019E,false,Rx,0,8,00,EA,0F,FC,FE,63,00,F8,
4520694,000001A0,false,Rx,0,8,00,80,00,C0,FF,0F,80,72,
4520962,000002B2,false,Rx,0,8,00,00,00,00,30,00,00,04,
4523784,000000A8,false,Rx,0,8,AB,09,FA,00,00,0D,CF,22,
4524015,000000A9,false,Rx,0,8,A7,09,A0,5F,11,D9,0F,FA,
4524240,000000AA,false,Rx,0,8,98,E9,0F,00,00,00,F4,00,
4529693,000000C4,false,Rx,0,7,51,FF,FD,00,00,FF,F1,00,
4533816,000000A8,false,Rx,0,8,AC,0A,FA,00,00,0D,CF,22,
4534049,000000A9,false,Rx,0,8,A8,0A,A0,5F,11,D9,0F,FA,
4534295,000000AA,false,Rx,0,8,99,EA,0F,00,00,00,F4,00,
4539750,000000C4,false,Rx,0,7,51,FF,FD,00,00,FF,F1,00,
4540003,000000CE,false,Rx,0,8,00,00,00,00,00,00,00,00,
4540182,000000B6,false,Rx,0,5,48,09,80,00,08,00,00,00,
4540462,0000019E,false,Rx,0,8,00,EA,0F,FC,FE,63,00,F8,
4540730,000001A0,false,Rx,0,8,00,80,00,A0,FF,12,90,65,
4540989,000002B2,false,Rx,0,8,00,00,00,00,40,00,00,04,
4543797,000000A8,false,Rx,0,8,AD,0B,FA,00,00,0D,CF,22,
4544030,000000A9,false,Rx,0,8,A9,0B,A0,5F,11,D9,0F,FA,
4544265,000000AA,false,Rx,0,8,9A,EB,0F,00,00,00,F4,00,
4544489,000001D0,false,Rx,0,8,4B,3C,0C,C6,FA,DA,8D,A0,
4549702,000000C4,false,Rx,0,7,51,FF,FD,00,00,FF,F1,00,
4553837,000000A8,false,Rx,0,8,AE,0C,FA,00,00,0D,CF,22,
4554069,000000A9,false,Rx,0,8,AA,0C,A0,5F,11,D9,0F,FA,
4554304,000000AA,false,Rx,0,8,9B,EC,0F,00,00,00,F4,00,
4559747,000000C4,false,Rx,0,7,51,FF,FD,00,00,FF,F1,00,
4560000,000000CE,false,Rx,0,8,00,00,00,00,00,00,00,00,
4560181,000000B6,false,Rx,0,5,49,0A,80,00,08,00,00,00,
4560349,00000194,false,Rx,0,4,ED,F0,00,FC,00,00,00,00,
4560582,0000019E,false,Rx,0,8,00,EA,0F,FC,FE,63,00,F8,
4560839,000001A0,false,Rx,0,8,00,80,00,D0,FF,12,A0,A5,
4561110,000002B2,false,Rx,0,8,00,00,00,00,40,00,00,04,
4563787,000000A8,false,Rx,0,8,AF,0D,FA,00,00,0D,CF,22,
4564008,000000A9,false,Rx,0,8,AB,0D,A0,5F,11,D9,0F,FA,
4564243,000000AA,false,Rx,0,8,9C,ED,0F,00,00,00,F4,00,
4569697,000000C4,false,Rx,0,7,51,FF,FD,00,00,FF,F1,00,
4573799,000000A8,false,Rx,0,8,B0,0E,FA,00,00,0D,CF,22,
4574032,000000A9,false,Rx,0,8,AC,0E,A0,5F,11,D9,0F,FA,
4574267,000000AA,false,Rx,0,8,9D,EE,0F,00,00,00,F4,00,
4579654,000000C4,false,Rx,0,7,51,FF,FD,00,00,FF,F1,00,
4579906,000000CE,false,Rx,0,8,00,00,00,00,00,00,00,00,
4580086,000000B6,false,Rx,0,5,4A,0B,80,00,08,00,00,00,
4580355,0000019E,false,Rx,0,8,00,EA,0F,FC,FE,63,00,F8,
4580612,000001A0,false,Rx,0,8,00,80,00,F0,FF,12,B0,D5,
4580869,000002B2,false,Rx,0,8,00,00,00,00,40,00,00,04,
4583769,000000A8,false,Rx,0,8,A2,00,FA,00,00,0D,CF,22,
4584001,000000A9,false,Rx,0,8,9E,00,A0,5F,11,D9,0F,FA,
4584247,000000AA,false,Rx,0,8,8F,E0,0F,00,00,00,F4,00,
4589655,000000C4,false,Rx,0,7,51,FF,FD,00,00,FF,F1,00,
4589852,000000C8,false,Rx,0,6,51,FF,31,00,00,2C,00,00,
4593829,00000492,false,Rx,0,8,17,52,FF,FF,FF,FF,FF,FF,
4594062,000000A8,false,Rx,0,8,A3,01,FA,00,00,0D,CF,22,
4594296,000000A9,false,Rx,0,8,9F,01,A0,5F,11,D9,0F,FA,
4594531,000000AA,false,Rx,0,8,90,E1,0F,00,00,00,F4,00,
4599676,000000C4,false,Rx,0,7,51,FF,FD,00,00,FF,F1,00,
4599928,000000CE,false,Rx,0,8,00,00,00,00,00,00,00,00,
4600110,000000B6,false,Rx,0,5,4B,0C,80,00,08,00,00,00,
4600432,0000019E,false,Rx,0,8,00,EA,0F,FC,FE,63,00,F8,
4600689,000001A0,false,Rx,0,8,00,80,00,C0,FF,0F,C0,B2,
4600948,000001A6,false,Rx,0,8,00,00,00,00,00,00,18,FD,
4601217,000002B2,false,Rx,0,8,00,00,00,00,30,00,00,04,
4601978,000001FB,false,Rx,0,2,F3,FF,00,00,00,00,00,00,
4603781,000000A8,false,Rx,0,8,A4,02,FA,00,00,0D,CF,22,
4604018,000000A9,false,Rx,0,8,A0,02,A0,5F,11,D9,0F,FA,
4604264,000000AA,false,Rx,0,8,91,E2,0F,00,00,00,F4,00,
4609664,000000C4,false,Rx,0,7,51,FF,FD,00,00,FF,F1,00,
4613855,000000A8,false,Rx,0,8,A5,03,FA,00,00,0D,CF,22,
4614077,000000A9,false,Rx,0,8,A1,03,A0,5F,11,D9,0F,FA,
4614311,000000AA,false,Rx,0,8,92,E3,0F,00,00,00,F4,00,
4616308,00000130,false,Rx,0,5,00,0D,D0,0F,01,00,00,00,
4619729,000000C4,false,Rx,0,7,51,FF,FD,00,00,FF,F1,00,
4619980,000000CE,false,Rx,0,8,00,00,00,00,00,00,00,00,
4620173,000000B6,false,Rx,0,5,4C,0D,80,00,08,00,00,00,
4620441,0000019E,false,Rx,0,8,00,EA,0F,FC,FE,63,00,F8,
4620698,000001A0,false,Rx,0,8,00,80,00,A0,FF,12,D0,A5,
4620967,000002B2,false,Rx,0,8,00,00,00,00,40,00,00,04,
4623788,000000A8,false,Rx,0,8,A6,04,FA,00,00,0D,CF,22,
4624020,000000A9,false,Rx,0,8,A2,04,A0,5F,11,D9,0F,FA,
4624255,000000AA,false,Rx,0,8,93,E4,0F,00,00,00,F4,00,
4629729,000000C4,false,Rx,0,7,51,FF,FD,00,00,FF,F1,00,
4633819,000000A8,false,Rx,0,8,A7,05,FA,00,00,0D,CF,22,
4634051,000000A9,false,Rx,0,8,A3,05,A0,5F,11,D9,0F,FA,
4634286,000000AA,false,Rx,0,8,94,E5,0F,00,00,00,F4,00,
4639774,000000C4,false,Rx,0,7,51,FF,FD,00,00,FF,F1,00,
4640029,000000CE,false,Rx,0,8,00,00,00,00,00,00,00,00,
4640208,000000B6,false,Rx,0,5,4D,0E,80,00,08,00,00,00,
4640497,0000019E,false,Rx,0,8,00,EA,0F,FC,FE,63,00,F8,
4640765,000001A0,false,Rx,0,8,00,80,00,A0,FF,12,E0,B5,
4641025,000002B2,false,Rx,0,8,00,00,00,00,40,00,00,04,
4643789,000000A8,false,Rx,0,8,A8,06,FA,00,00,0D,CF,22,
4644022,000000A9,false,Rx,0,8,A4,06,A0,5F,11,D9,0F,FA,
4644268,000000AA,false,Rx,0,8,95,E6,0F,00,00,00,F4,00,
4644492,000001D0,false,Rx,0,8,4B,3C,0C,C6,FA,DA,8D,A0,
4649737,000000C4,false,Rx,0,7,51,FF,FD,00,00,FF,F1,00,
4653827,000000A8,false,Rx,0,8,A9,07,FA,00,00,0D,CF,22,
4654059,000000A9,false,Rx,0,8,A5,07,A0,5F,11,D9,0F,FA,
4654283,000000AA,false,Rx,0,8,96,E7,0F,00,00,00,F4,00,
4659771,000000C4,false,Rx,0,7,51,FF,FD,00,00,FF,F1,00,
4660025,000000CE,false,Rx,0,8,00,00,00,00,00,00,00,00,
4660205,000000B6,false,Rx,0,5,3F,00,80,00,08,00,00,00,
4660483,0000019E,false,Rx,0,8,00,EA,0F,FC,FE,63,00,F8,
4660751,000001A0,false,Rx,0,8,00,80,00,C0,FF,12,00,F4,
4661010,000002B2,false,Rx,0,8,00,00,00,00,40,00,00,04,
4663786,000000A8,false,Rx,0,8,AA,08,FA,00,00,0D,CF,22,
4664019,000000A9,false,Rx,0,8,A6,08,A0,5F,11,D9,0F,FA,
4664254,000000AA,false,Rx,0,8,97,E8,0F,00,00,00,F4,00,
4669730,000000C4,false,Rx,0,7,51,FF,FD,00,00,FF,F1,00,
4673821,000000A8,false,Rx,0,8,AB,09,FA,00,00,0D,CF,22,
4674053,000000A9,false,Rx,0,8,A7,09,A0,5F,11,D9,0F,FA,
4674288,000000AA,false,Rx,0,8,98,E9,0F,00,00,00,F4,00,
4679708,000000C4,false,Rx,0,7,51,FF,FD,00,00,FF,F1,00,
4679961,000000CE,false,Rx,0,8,00,00,00,00,00,00,00,00,
4680142,000000B6,false,Rx,0,5,40,01,80,00,08,00,00,00,
4680420,0000019E,false,Rx,0,8,00,EA,0F,FC,FE,63,00,F8,
4680677,000001A0,false,Rx,0,8,00,80,00,C0,FF,0F,10,01,
4680946,000002B2,false,Rx,0,8,00,00,00,00,30,00,00,04,
4683778,000000A8,false,Rx,0,8,AC,0A,FA,00,00,0D,CF,22,
4684011,000000A9,false,Rx,0,8,A8,0A,A0,5F,11,D9,0F,FA,
4684245,000000AA,false,Rx,0,8,99,EA,0F,00,00,00,F4,00,
4689688,000000C4,false,Rx,0,7,51,FF,FD,00,00,FF,F1,00,
4691304,00000497,false,Rx,0,8,29,52,FF,FF,FF,FF,FF,FF,
4693819,000000A8,false,Rx,0,8,AD,0B,FA,00,00,0D,CF,22,
4694039,000000A9,false,Rx,0,8,A9,0B,A0,5F,11,D9,0F,FA,
4694285,000000AA,false,Rx,0,8,9A,EB,0F,00,00,00,F4,00,
4699694,000000C4,false,Rx,0,7,51,FF,FD,00,00,FF,F1,00,
4699947,000000CE,false,Rx,0,8,00,00,00,00,00,00,00,00,
4700139,000000B6,false,Rx,0,5,41,02,80,00,08,00,00,00,
4700439,0000019E,false,Rx,0,8,00,EA,1F,FC,FE,63,00,09,
4700708,000001A0,false,Rx,0,8,00,80,00,C0,FF,0F,20,12,
4700965,000001A6,false,Rx,0,8,00,00,00,00,00,00,A8,FE,
4701224,000002B2,false,Rx,0,8,00,00,00,00,30,00,00,04,
4703793,000000A8,false,Rx,0,8,AE,0C,FA,00,00,0D,CF,22,
4704014,000000A9,false,Rx,0,8,AA,0C,A0,5F,11,D9,0F,FA,
4704260,000000AA,false,Rx,0,8,9B,EC,0F,00,00,00,F4,00,
4709681,000000C4,false,Rx,0,7,51,FF,FD,00,00,FF,F1,00,
4713817,000000A8,false,Rx,0,8,AF,0D,FA,00,00,0D,CF,22,
4714049,000000A9,false,Rx,0,8,AB,0D,A0,5F,11,D9,0F,FA,
4714283,000000AA,false,Rx,0,8,9C,ED,0F,00,00,00,F4,00,
4716190,00000130,false,Rx,0,5,00,0D,D0,0F,22,00,00,00,
4719721,000000C4,false,Rx,0,7,51,FF,FD,00,00,FF,F1,00,
4719974,000000CE,false,Rx,0,8,00,00,00,00,00,00,00,00,
4720166,000000B6,false,Rx,0,5,42,03,80,00,08,00,00,00,
4720444,0000019E,false,Rx,0,8,00,EA,1F,FC,FE,63,00,09,
4720703,000001A0,false,Rx,0,8,00,80,00,C0,FF,12,30,25,
4720959,000002B2,false,Rx,0,8,00,00,00,00,40,00,00,04,
4723783,000000A8,false,Rx,0,8,B0,0E,FA,00,00,0D,CF,22,
4724015,000000A9,false,Rx,0,8,AC,0E,A0,5F,11,D9,0F,FA,
4724260,000000AA,false,Rx,0,8,9D,EE,0F,00,00,00,F4,00,
4729704,000000C4,false,Rx,0,7,51,FF,FD,00,00,FF,F1,00,
4733818,000000A8,false,Rx,0,8,A2,00,FA,00,00,0D,CF,22,
4734050,000000A9,false,Rx,0,8,9E,00,A0,5F,11,D9,0F,FA,
4734285,000000AA,false,Rx,0,8,8F,E0,0F,00,00,00,F4,00,
4739749,000000C4,false,Rx,0,7,51,FF,FD,00,00,FF,F1,00,
4740005,000000CE,false,Rx,0,8,00,00,00,00,00,00,00,00,
4740196,000000B6,false,Rx,0,5,43,04,80,00,08,00,00,00,
4740474,0000019E,false,Rx,0,8,00,EA,1F,FC,FE,63,00,09,
4740732,000001A0,false,Rx,0,8,00,80,00,C0,FF,12,40,35,
4740990,000002B2,false,Rx,0,8,00,00,00,00,40,00,00,04,
4743789,000000A8,false,Rx,0,8,A3,01,FA,00,00,0D,CF,22,
4744031,000000A9,false,Rx,0,8,9F,01,A0,5F,11,D9,0F,FA,
4744255,000000AA,false,Rx,0,8,90,E1,0F,00,00,00,F4,00,
4744491,000001D0,false,Rx,0,8,4B,3C,0D,C6,FA,DA,8D,A0,
4749702,000000C4,false,Rx,0,7,51,FF,FD,00,00,FF,F1,00,
4753816,000000A8,false,Rx,0,8,A4,02,FA,00,00,0D,CF,22,
4754047,000000A9,false,Rx,0,8,A0,02,A0,5F,11,D9,0F,FA,
4754293,000000AA,false,Rx,0,8,91,E2,0F,00,00,00,F4,00,
4759849,000000C4,false,Rx,0,7,51,FF,FD,00,00,FF,F1,00,
4760103,000000CE,false,Rx,0,8,00,00,00,00,00,00,00,00,
4760283,000000B6,false,Rx,0,5,44,05,80,00,08,00,00,00,
4760450,00000194,false,Rx,0,4,EE,F1,00,FC,00,00,00,00,
4760685,0000019E,false,Rx,0,8,00,EA,1F,FC,FE,63,00,09,
4760821,000001D6,false,Rx,0,2,C0,0C,00,00,00,00,00,00,
4761066,000001A0,false,Rx,0,8,00,80,00,C0,FF,0F,50,42,
4761191,000002A6,false,Rx,0,2,00,F8,00,00,00,00,00,00,
4761436,000002B2,false,Rx,0,8,00,00,00,00,30,00,00,04,
4763785,000000A8,false,Rx,0,8,A5,03,FA,00,00,0D,CF,22,
4764016,000000A9,false,Rx,0,8,A1,03,A0,5F,11,D9,0F,FA,
4764251,000000AA,false,Rx,0,8,92,E3,0F,00,00,00,F4,00,
4769703,000000C4,false,Rx,0,7,51,FF,FD,00,00,FF,F1,00,
4773817,000000A8,false,Rx,0,8,A6,04,FA,00,00,0D,CF,22,
4774048,000000A9,false,Rx,0,8,A2,04,A0,5F,11,D9,0F,FA,
4774283,000000AA,false,Rx,0,8,93,E4,0F,00,00,00,F4,00,
4779681,000000C4,false,Rx,0,7,51,FF,FD,00,00,FF,F1,00,
4779934,000000CE,false,Rx,0,8,00,00,00,00,00,00,00,00,
4780126,000000B6,false,Rx,0,5,45,06,80,00,08,00,00,00,
4780415,0000019E,false,Rx,0,8,00,EA,1F,FC,FE,63,00,09,
4780673,000001A0,false,Rx,0,8,00,80,00,C0,FF,12,60,55,
4780941,000002B2,false,Rx,0,8,00,00,00,00,40,00,00,04,
4781199,000004A9,false,Rx,0,8,30,52,FF,FF,FF,FF,FF,FF,
4783791,000000A8,false,Rx,0,8,A7,05,FA,00,00,0D,CF,22,
4784022,000000A9,false,Rx,0,8,A3,05,A0,5F,11,D9,0F,FA,
4784257,000000AA,false,Rx,0,8,94,E5,0F,00,00,00,F4,00,
4789669,000000C4,false,Rx,0,7,51,FF,FD,00,00,FF,F1,00,
4789878,000000C8,false,Rx,0,6,51,FF,81,00,00,6C,00,00,
4791166,000001FB,false,Rx,0,2,F4,FF,00,00,00,00,00,00,
4793825,000000A8,false,Rx,0,8,A8,06,FA,00,00,0D,CF,22,
4794056,000000A9,false,Rx,0,8,A4,06,A0,5F,11,D9,0F,FA,
4794291,000000AA,false,Rx,0,8,95,E6,0F,00,00,00,F4,00,
4799667,000000C4,false,Rx,0,7,51,FF,FD,00,00,FF,F1,00,
4799920,000000CE,false,Rx,0,8,00,00,00,00,00,00,00,00,
4800134,000000B6,false,Rx,0,5,46,07,80,00,08,00,00,00,
4800468,0000019E,false,Rx,0,8,00,EA,1F,FC,FE,63,00,09,
4800726,000001A0,false,Rx,0,8,00,80,00,C0,FF,0F,70,62,
4800983,000001A6,false,Rx,0,8,00,00,00,00,00,00,38,F0,
4801241,000002B2,false,Rx,0,8,00,00,00,00,30,00,00,04,
4801455,00000374,false,Rx,0,5,00,00,FF,FF,FC,00,00,00,
4803781,000000A8,false,Rx,0,8,A9,07,FA,00,00,0D,CF,22,
4804023,000000A9,false,Rx,0,8,A5,07,A0,5F,11,D9,0F,FA,
4804258,000000AA,false,Rx,0,8,96,E7,0F,00,00,00,F4,00,
4809668,000000C4,false,Rx,0,7,51,FF,FD,00,00,FF,F1,00,
4813827,000000A8,false,Rx,0,8,AA,08,FA,00,00,0D,CF,22,
4814058,000000A9,false,Rx,0,8,A6,08,A0,5F,11,D9,0F,FA,
4814293,000000AA,false,Rx,0,8,97,E8,0F,00,00,00,F4,00,
4816266,00000130,false,Rx,0,5,00,0D,D0,0F,33,00,00,00,
4819731,000000C4,false,Rx,0,7,51,FF,FD,00,00,FF,F1,00,
4819973,000000CE,false,Rx,0,8,00,00,00,00,00,00,00,00,
4820165,000000B6,false,Rx,0,5,47,08,80,00,08,00,00,00,
4820443,0000019E,false,Rx,0,8,00,EA,1F,FC,FE,63,00,09,
4820701,000001A0,false,Rx,0,8,00,80,00,C0,FF,12,80,75,
4820969,000002B2,false,Rx,0,8,00,00,00,00,40,00,00,04,
4823779,000000A8,false,Rx,0,8,AB,09,FA,00,00,0D,CF,22,
4824011,000000A9,false,Rx,0,8,A7,09,A0,5F,11,D9,0F,FA,
4824245,000000AA,false,Rx,0,8,98,E9,0F,00,00,00,F4,00,
4829711,000000C4,false,Rx,0,7,51,FF,FD,00,00,FF,F1,00,
4833814,000000A8,false,Rx,0,8,AC,0A,FA,00,00,0D,CF,22,
4834045,000000A9,false,Rx,0,8,A8,0A,A0,5F,11,D9,0F,FA,
4834291,000000AA,false,Rx,0,8,99,EA,0F,00,00,00,F4,00,
4839758,000000C4,false,Rx,0,7,51,FF,FD,00,00,FF,F1,00,
4840011,000000CE,false,Rx,0,8,00,00,00,00,00,00,00,00,
4840190,000000B6,false,Rx,0,5,48,09,80,00,08,00,00,00,
4840468,0000019E,false,Rx,0,8,00,EA,1F,FC,FE,63,00,09,
4840727,000001A0,false,Rx,0,8,00,80,00,C0,FF,12,90,85,
4840984,000002B2,false,Rx,0,8,00,00,00,00,40,00,00,04,
4843783,000000A8,false,Rx,0,8,AD,0B,FA,00,00,0D,CF,22,
4844015,000000A9,false,Rx,0,8,A9,0B,A0,5F,11,D9,0F,FA,
4844249,000000AA,false,Rx,0,8,9A,EB,0F,00,00,00,F4,00,
4844485,000001D0,false,Rx,0,8,4B,3C,0D,C6,FA,DA,8D,A0,
4849710,000000C4,false,Rx,0,7,51,FF,FD,00,00,FF,F1,00,
4853833,000000A8,false,Rx,0,8,AE,0C,FA,00,00,0D,CF,22,
4854065,000000A9,false,Rx,0,8,AA,0C,A0,5F,11,D9,0F,FA,
4854301,000000AA,false,Rx,0,8,9B,EC,0F,00,00,00,F4,00,
4859742,000000C4,false,Rx,0,7,51,FF,FD,00,00,FF,F1,00,
4859995,000000CE,false,Rx,0,8,00,00,00,00,00,00,00,00,
4860175,000000B6,false,Rx,0,5,49,0A,80,00,08,00,00,00,
4860465,0000019E,false,Rx,0,8,00,EA,1F,FC,FE,63,00,09,
4860733,000001A0,false,Rx,0,8,00,80,00,C0,FF,0F,A0,92,
4860991,000002B2,false,Rx,0,8,00,00,00,00,30,00,00,04,
4863812,000000A8,false,Rx,0,8,AF,0D,FA,00,00,0D,CF,22,
4864043,000000A9,false,Rx,0,8,AB,0D,A0,5F,11,D9,0F,FA,
4864278,000000AA,false,Rx,0,8,9C,ED,0F,00,00,00,F4,00,
4869700,000000C4,false,Rx,0,7,51,FF,FD,00,00,FF,F1,00,
4873846,000000A8,false,Rx,0,8,B0,0E,FA,00,00,0D,CF,22,
4874077,000000A9,false,Rx,0,8,AC,0E,A0,5F,11,D9,0F,FA,
4874324,000000AA,false,Rx,0,8,9D,EE,0F,00,00,00,F4,00,
4879667,000000C4,false,Rx,0,7,51,FF,FD,00,00,FF,F1,00,
4879918,000000CE,false,Rx,0,8,00,00,00,00,00,00,00,00,
4880110,000000B6,false,Rx,0,5,4A,0B,80,00,08,00,00,00,
4880377,0000019E,false,Rx,0,8,00,EA,1F,FC,FE,63,00,09,
4880625,000001A0,false,Rx,0,8,00,80,00,A0,FF,12,B0,85,
4880893,000002B2,false,Rx,0,8,00,00,00,00,40,00,00,04,
4881140,000004B0,false,Rx,0,8,00,52,FE,01,FF,FF,FF,FF,
4883787,000000A8,false,Rx,0,8,A2,00,FA,00,00,0D,CF,22,
4884018,000000A9,false,Rx,0,8,9E,00,A0,5F,11,D9,0F,FA,
4884254,000000AA,false,Rx,0,8,8F,E0,0F,00,00,00,F4,00,
4889687,000000C4,false,Rx,0,7,51,FF,FD,00,00,FF,F1,00,
4893822,000000A8,false,Rx,0,8,A3,01,FA,00,00,0D,CF,22,
4894053,000000A9,false,Rx,0,8,9F,01,A0,5F,11,D9,0F,FA,
4894290,000000AA,false,Rx,0,8,90,E1,0F,00,00,00,F4,00,
4899710,000000C4,false,Rx,0,7,51,FF,FD,00,00,FF,F1,00,
4899962,000000CE,false,Rx,0,8,00,00,00,00,00,00,00,00,
4900154,000000B6,false,Rx,0,5,4B,0C,80,00,08,00,00,00,
4900456,0000019E,false,Rx,0,8,00,EA,2F,FC,FE,63,00,19,
4900724,000001A0,false,Rx,0,8,00,80,00,C0,FF,0F,C0,B2,
4900981,000001A6,false,Rx,0,8,00,00,00,00,00,00,C8,F1,
4901240,000002B2,false,Rx,0,8,00,00,00,00,30,00,00,04,
4903786,000000A8,false,Rx,0,8,A4,02,FA,00,00,0D,CF,22,
4904017,000000A9,false,Rx,0,8,A0,02,A0,5F,11,D9,0F,FA,
4904265,000000AA,false,Rx,0,8,91,E2,0F,00,00,00,F4,00,
4909707,000000C4,false,Rx,0,7,51,FF,FD,00,00,FF,F1,00,
4913820,000000A8,false,Rx,0,8,A5,03,FA,00,00,0D,CF,22,
4914051,000000A9,false,Rx,0,8,A1,03,A0,5F,11,D9,0F,FA,
4914276,000000AA,false,Rx,0,8,92,E3,0F,00,00,00,F4,00,
4916182,00000130,false,Rx,0,5,00,0D,D0,0F,44,00,00,00,
4919760,000000C4,false,Rx,0,7,51,FF,FD,00,00,FF,F1,00,
4920013,000000CE,false,Rx,0,8,00,00,00,00,00,00,00,00,
4920192,000000B6,false,Rx,0,5,4C,0D,80,00,08,00,00,00,
4920472,0000019E,false,Rx,0,8,00,EA,2F,FC,FE,63,00,19,
4920729,000001A0,false,Rx,0,8,00,80,00,C0,FF,0F,D0,C2,
4920998,000002B2,false,Rx,0,8,00,00,00,00,30,00,00,04,
4923764,000000A8,false,Rx,0,8,A6,04,FA,00,00,0D,CF,22,
4923995,000000A9,false,Rx,0,8,A2,04,A0,5F,11,D9,0F,FA,
4924231,000000AA,false,Rx,0,8,93,E4,0F,00,00,00,F4,00,
4929739,000000C4,false,Rx,0,7,51,FF,FD,00,00,FF,F1,00,
4933818,000000A8,false,Rx,0,8,A7,05,FA,00,00,0D,CF,22,
4934038,000000A9,false,Rx,0,8,A3,05,A0,5F,11,D9,0F,FA,
4934274,000000AA,false,Rx,0,8,94,E5,0F,00,00,00,F4,00,
4939794,000000C4,false,Rx,0,7,51,FF,FD,00,00,FF,F1,00,
4940047,000000CE,false,Rx,0,8,00,00,00,00,00,00,00,00,
4940227,000000B6,false,Rx,0,5,4D,0E,80,00,08,00,00,00,
4940506,0000019E,false,Rx,0,8,00,EA,2F,FC,FE,63,00,19,
4940763,000001A0,false,Rx,0,8,00,80,00,C0,FF,12,E0,D5,
4941021,000002B2,false,Rx,0,8,00,00,00,00,40,00,00,04,
4943787,000000A8,false,Rx,0,8,A8,06,FA,00,00,0D,CF,22,
4944018,000000A9,false,Rx,0,8,A4,06,A0,5F,11,D9,0F,FA,
4944265,000000AA,false,Rx,0,8,95,E6,0F,00,00,00,F4,00,
4944500,000001D0,false,Rx,0,8,4B,3C,0E,C6,FA,DA,8D,A0,
4949747,000000C4,false,Rx,0,7,51,FF,FD,00,00,FF,F1,00,
4953816,000000A8,false,Rx,0,8,A9,07,FA,00,00,0D,CF,22,
4954047,000000A9,false,Rx,0,8,A5,07,A0,5F,11,D9,0F,FA,
4954283,000000AA,false,Rx,0,8,96,E7,0F,00,00,00,F4,00,
4959793,000000C4,false,Rx,0,7,51,FF,FD,00,00,FF,F1,00,
4960037,000000CE,false,Rx,0,8,00,00,00,00,00,00,00,00,
4960227,000000B6,false,Rx,0,5,3F,00,80,00,08,00,00,00,
4960396,00000194,false,Rx,0,4,EF,F2,00,FC,00,00,00,00,
4960630,0000019E,false,Rx,0,8,00,EA,2F,FC,FE,63,00,19,
4960887,000001A0,false,Rx,0,8,00,80,00,C0,FF,0F,00,F1,
4961146,000002B2,false,Rx,0,8,00,00,00,00,30,00,00,04,
4963791,000000A8,false,Rx,0,8,AA,08,FA,00,00,0D,CF,22,
4964011,000000A9,false,Rx,0,8,A6,08,A0,5F,11,D9,0F,FA,
4964258,000000AA,false,Rx,0,8,97,E8,0F,00,00,00,F4,00,
4968633,00000480,false,Rx,0,8,12,42,FD,01,FF,FF,FF,FF,
4969739,000000C4,false,Rx,0,7,51,FF,FD,00,00,FF,F1,00,
4973829,000000A8,false,Rx,0,8,AB,09,FA,00,00,0D,CF,22,
4974049,000000A9,false,Rx,0,8,A7,09,A0,5F,11,D9,0F,FA,
4974285,000000AA,false,Rx,0,8,98,E9,0F,00,00,00,F4,00,
4979683,000000C4,false,Rx,0,7,51,FF,FD,00,00,FF,F1,00,
4979935,000000CE,false,Rx,0,8,00,00,00,00,00,00,00,00,
4980126,000000B6,false,Rx,0,5,40,01,80,00,08,00,00,00,
4980384,0000019E,false,Rx,0,8,00,EA,2F,FC,FE,63,00,19,
4980641,000001A0,false,Rx,0,8,00,80,00,C0,FF,0F,10,01,
4980909,000002B2,false,Rx,0,8,00,00,00,00,30,00,00,04,
4981969,000001FB,false,Rx,0,2,F5,FF,00,00,00,00,00,00,
4983782,000000A8,false,Rx,0,8,AC,0A,FA,00,00,0D,CF,22,
4984007,000000A9,false,Rx,0,8,A8,0A,A0,5F,11,D9,0F,FA,
4984254,000000AA,false,Rx,0,8,99,EA,0F,00,00,00,F4,00,
4989688,000000C4,false,Rx,0,7,51,FF,FD,00,00,FF,F1,00,
4989884,000000C8,false,Rx,0,6,51,FF,D1,00,00,8C,00,00,
4993817,000000A8,false,Rx,0,8,AD,0B,FA,00,00,0D,CF,22,
4994038,000000A9,false,Rx,0,8,A9,0B,A0,5F,11,D9,0F,FA,
4994274,000000AA,false,Rx,0,8,9A,EB,0F,00,00,00,F4,00,
4999682,000000C4,false,Rx,0,7,51,FF,FD,00,00,FF,F1,00,
4999934,000000CE,false,Rx,0,8,00,00,00,00,00,00,00,00,
5000126,000000B6,false,Rx,0,5,41,02,80,00,08,00,00,00,
5000428,0000019E,false,Rx,0,8,00,EA,2F,FC,FE,63,00,19,
5000685,000001A0,false,Rx,0,8,00,80,00,C0,FF,12,20,15,
5000953,000001A6,false,Rx,0,8,00,00,00,00,00,00,58,F3,
5001213,000002B2,false,Rx,0,8,00,00,00,00,40,00,00,04,
5003793,000000A8,false,Rx,0,8,AE,0C,FA,00,00,0D,CF,22,
5004013,000000A9,false,Rx,0,8,AA,0C,A0,5F,11,D9,0F,FA,
5004260,000000AA,false,Rx,0,8,9B,EC,0F,00,00,00,F4,00,
5009679,000000C4,false,Rx,0,7,51,FF,FD,00,00,FF,F1,00,
5013816,000000A8,false,Rx,0,8,AF,0D,FA,00,00,0D,CF,22,
5014048,000000A9,false,Rx,0,8,AB,0D,A0,5F,11,D9,0F,FA,
5014283,000000AA,false,Rx,0,8,9C,ED,0F,00,00,00,F4,00,
5016277,00000130,false,Rx,0,5,00,0D,D0,0F,55,00,00,00,
5019721,000000C4,false,Rx,0,7,51,FF,FD,00,00,FF,F1,00,
5019973,000000CE,false,Rx,0,8,00,00,00,00,00,00,00,00,
5020165,000000B6,false,Rx,0,5,42,03,80,00,08,00,00,00,
5020433,0000019E,false,Rx,0,8,00,EA,2F,FC,FE,63,00,19,
5020701,000001A0,false,Rx,0,8,00,80,00,D0,FF,12,30,35,
5020959,000002B2,false,Rx,0,8,00,00,00,00,40,00,00,04,
5023781,000000A8,false,Rx,0,8,B0,0E,FA,00,00,0D,CF,22,
5024013,000000A9,false,Rx,0,8,AC,0E,A0,5F,11,D9,0F,FA,
5024249,000000AA,false,Rx,0,8,9D,EE,0F,00,00,00,F4,00,
5025138,000005F8,false,Rx,0,8,08,08,00,00,FF,FF,FF,FF,
5029730,000000C4,false,Rx,0,7,51,FF,FD,00,00,FF,F1,00,
5033811,000000A8,false,Rx,0,8,A2,00,FA,00,00,0D,CF,22,
5034043,000000A9,false,Rx,0,8,9E,00,A0,5F,11,D9,0F,FA,
5034278,000000AA,false,Rx,0,8,8F,E0,0F,00,00,00,F4,00,
5039743,000000C4,false,Rx,0,7,51,FF,FD,00,00,FF,F1,00,
5039996,000000CE,false,Rx,0,8,00,00,00,00,00,00,00,00,
5040177,000000B6,false,Rx,0,5,43,04,80,00,08,00,00,00,
5040455,0000019E,false,Rx,0,8,00,EA,2F,FC,FE,63,00,19,
5040712,000001A0,false,Rx,0,8,00,80,00,C0,FF,12,40,35,
5040970,000002B2,false,Rx,0,8,00,00,00,00,40,00,00,04,
5043781,000000A8,false,Rx,0,8,A3,01,FA,00,00,0D,CF,22,
5044013,000000A9,false,Rx,0,8,9F,01,A0,5F,11,D9,0F,FA,
5044248,000000AA,false,Rx,0,8,90,E1,0F,00,00,00,F4,00,
5044472,000001D0,false,Rx,0,8,4B,3C,0E,C6,FA,DA,8D,A0,
5049698,000000C4,false,Rx,0,7,51,FF,FD,00,00,FF,F1,00,
5053811,000000A8,false,Rx,0,8,A4,02,FA,00,00,0D,CF,22,
5054043,000000A9,false,Rx,0,8,A0,02,A0,5F,11,D9,0F,FA,
5054289,000000AA,false,Rx,0,8,91,E2,0F,00,00,00,F4,00,
5059743,000000C4,false,Rx,0,7,51,FF,FD,00,00,FF,F1,00,
5059996,000000CE,false,Rx,0,8,00,00,00,00,00,00,00,00,
5060177,000000B6,false,Rx,0,5,44,05,80,00,08,00,00,00,
5060455,0000019E,false,Rx,0,8,00,EA,2F,FC,FE,63,00,19,
5060712,000001A0,false,Rx,0,8,00,80,00,C0,FF,12,50,45,
5060982,000002B2,false,Rx,0,8,00,00,00,00,40,00,00,04,
5063791,000000A8,false,Rx,0,8,A5,03,FA,00,00,0D,CF,22,
5064024,000000A9,false,Rx,0,8,A1,03,A0,5F,11,D9,0F,FA,
5064259,000000AA,false,Rx,0,8,92,E3,0F,00,00,00,F4,00,
5069701,000000C4,false,Rx,0,7,51,FF,FD,00,00,FF,F1,00,
5073780,00000492,false,Rx,0,8,17,52,FF,FF,FF,FF,FF,FF,
5074013,000000A8,false,Rx,0,8,A6,04,FA,00,00,0D,CF,22,
5074237,000000A9,false,Rx,0,8,A2,04,A0,5F,11,D9,0F,FA,
5074483,000000AA,false,Rx,0,8,93,E4,0F,00,00,00,F4,00,
5079687,000000C4,false,Rx,0,7,51,FF,FD,00,00,FF,F1,00,
5079939,000000CE,false,Rx,0,8,00,00,00,00,00,00,00,00,
5080132,000000B6,false,Rx,0,5,45,06,80,00,08,00,00,00,
5080410,0000019E,false,Rx,0,8,00,EA,2F,FC,FE,63,00,19,
5080678,000001A0,false,Rx,0,8,00,80,00,C0,FF,12,60,55,
5080937,000002B2,false,Rx,0,8,00,00,00,00,40,00,00,04,
5083780,000000A8,false,Rx,0,8,A7,05,FA,00,00,0D,CF,22,
5084013,000000A9,false,Rx,0,8,A3,05,A0,5F,11,D9,0F,FA,
5084248,000000AA,false,Rx,0,8,94,E5,0F,00,00,00,F4,00,
5089680,000000C4,false,Rx,0,7,51,FF,FD,00,00,FF,F1,00,
5093827,000000A8,false,Rx,0,8,A8,06,FA,00,00,0D,CF,22,
5094048,000000A9,false,Rx,0,8,A4,06,A0,5F,11,D9,0F,FA,
5094294,000000AA,false,Rx,0,8,95,E6,0F,00,00,00,F4,00,
5099692,000000C4,false,Rx,0,7,51,FF,FD,00,00,FF,F1,00,
5099944,000000CE,false,Rx,0,8,00,00,00,00,00,00,00,00,
5100137,000000B6,false,Rx,0,5,46,07,80,00,08,00,00,00,
5100437,0000019E,false,Rx,0,8,00,EA,2F,FC,FE,63,00,19,
5100694,000001A0,false,Rx,0,8,00,80,00,C0,FF,12,70,65,
5100964,000001A6,false,Rx,0,8,00,00,00,00,00,00,E8,F4,
5101222,000002B2,false,Rx,0,8,00,00,00,00,40,00,00,04,
5101445,00000310,false,Rx,0,7,6E,2C,06,00,00,42,20,00,
5103784,000000A8,false,Rx,0,8,A9,07,FA,00,00,0D,CF,22,
5104016,000000A9,false,Rx,0,8,A5,07,A0,5F,11,D9,0F,FA,
5104251,000000AA,false,Rx,0,8,96,E7,0F,00,00,00,F4,00,
5109705,000000C4,false,Rx,0,7,51,FF,FD,00,00,FF,F1,00,
5113817,000000A8,false,Rx,0,8,AA,08,FA,00,00,0D,CF,22,
5114049,000000A9,false,Rx,0,8,A6,08,A0,5F,11,D9,0F,FA,
5114295,000000AA,false,Rx,0,8,97,E8,0F,00,00,00,F4,00,
5116203,00000130,false,Rx,0,5,00,0D,D0,0F,66,00,00,00,
5119723,000000C4,false,Rx,0,7,51,FF,FD,00,00,FF,F1,00,
5119975,000000CE,false,Rx,0,8,00,00,00,00,00,00,00,00,
5120168,000000B6,false,Rx,0,5,47,08,80,00,08,00,00,00,
5120436,0000019E,false,Rx,0,8,00,EA,3F,FC,FE,63,00,29,
5120703,000001A0,false,Rx,0,8,00,80,00,C0,FF,0F,80,72,
5120962,000002B2,false,Rx,0,8,00,00,00,00,30,00,00,04,
5123783,000000A8,false,Rx,0,8,AB,09,FA,00,00,0D,CF,22,
5124016,000000A9,false,Rx,0,8,A7,09,A0,5F,11,D9,0F,FA,
5124251,000000AA,false,Rx,0,8,98,E9,0F,00,00,00,F4,00,
5129693,000000C4,false,Rx,0,7,51,FF,FD,00,00,FF,F1,00,
5133817,000000A8,false,Rx,0,8,AC,0A,FA,00,00,0D,CF,22,
5134050,000000A9,false,Rx,0,8,A8,0A,A0,5F,11,D9,0F,FA,
5134296,000000AA,false,Rx,0,8,99,EA,0F,00,00,00,F4,00,
5139750,000000C4,false,Rx,0,7,51,FF,FD,00,00,FF,F1,00,
5140004,000000CE,false,Rx,0,8,00,00,00,00,00,00,00,00,
5140184,000000B6,false,Rx,0,5,48,09,80,00,08,00,00,00,
5140462,0000019E,false,Rx,0,8,00,EA,3F,FC,FE,63,00,29,
5140719,000001A0,false,Rx,0,8,00,80,00,A0,FF,12,90,65,
5140989,000002B2,false,Rx,0,8,00,00,00,00,40,00,00,04,
5143798,000000A8,false,Rx,0,8,AD,0B,FA,00,00,0D,CF,22,
5144030,000000A9,false,Rx,0,8,A9,0B,A0,5F,11,D9,0F,FA,
5144265,000000AA,false,Rx,0,8,9A,EB,0F,00,00,00,F4,00,
5144500,000001D0,false,Rx,0,8,4B,3C,00,C6,FA,DA,8D,A0,
5149713,000000C4,false,Rx,0,7,51,FF,FD,00,00,FF,F1,00,
5153838,000000A8,false,Rx,0,8,AE,0C,FA,00,00,0D,CF,22,
5154070,000000A9,false,Rx,0,8,AA,0C,A0,5F,11,D9,0F,FA,
5154304,000000AA,false,Rx,0,8,9B,EC,0F,00,00,00,F4,00,
5159803,000000C4,false,Rx,0,7,51,FF,FD,00,00,FF,F1,00,
5160057,000000CE,false,Rx,0,8,00,00,00,00,00,00,00,00,
5160236,000000B6,false,Rx,0,5,49,0A,80,00,08,00,00,00,
5160404,00000194,false,Rx,0,4,F0,F3,00,FC,00,00,00,00,
5160638,0000019E,false,Rx,0,8,00,EA,3F,FC,FE,63,00,29,
5160896,000001A0,false,Rx,0,8,00,80,00,C0,FF,12,A0,95,
5161165,000002B2,false,Rx,0,8,00,00,00,00,40,00,00,04,
5163811,000000A8,false,Rx,0,8,AF,0D,FA,00,00,0D,CF,22,
5164042,000000A9,false,Rx,0,8,AB,0D,A0,5F,11,D9,0F,FA,
5164277,000000AA,false,Rx,0,8,9C,ED,0F,00,00,00,F4,00,
5169753,000000C4,false,Rx,0,7,51,FF,FD,00,00,FF,F1,00,
5171304,00000497,false,Rx,0,8,29,52,FF,FF,FF,FF,FF,FF,
5172001,000001FB,false,Rx,0,2,F6,FF,00,00,00,00,00,00,
5173836,000000A8,false,Rx,0,8,B0,0E,FA,00,00,0D,CF,22,
5174061,000000A9,false,Rx,0,8,AC,0E,A0,5F,11,D9,0F,FA,
5174307,000000AA,false,Rx,0,8,9D,EE,0F,00,00,00,F4,00,
5179752,000000C4,false,Rx,0,7,51,FF,FD,00,00,FF,F1,00,
5180006,000000CE,false,Rx,0,8,00,00,00,00,00,00,00,00,
5180186,000000B6,false,Rx,0,5,4A,0B,80,00,08,00,00,00,
5180453,0000019E,false,Rx,0,8,00,EA,3F,FC,FE,63,00,29,
5180722,000001A0,false,Rx,0,8,00,80,00,C0,FF,12,B0,A5,
5180979,000002B2,false,Rx,0,8,00,00,00,00,40,00,00,04,
5183812,000000A8,false,Rx,0,8,A2,00,FA,00,00,0D,CF,22,
5184044,000000A9,false,Rx,0,8,9E,00,A0,5F,11,D9,0F,FA,
5184279,000000AA,false,Rx,0,8,8F,E0,0F,00,00,00,F4,00,
5189733,000000C4,false,Rx,0,7,51,FF,FD,00,00,FF,F1,00,
5189931,000000C8,false,Rx,0,6,51,FF,31,00,00,9C,00,00,
5193830,000000A8,false,Rx,0,8,A3,01,FA,00,00,0D,CF,22,
5194072,000000A9,false,Rx,0,8,9F,01,A0,5F,11,D9,0F,FA,
5194296,000000AA,false,Rx,0,8,90,E1,0F,00,00,00,F4,00,
5199727,000000C4,false,Rx,0,7,51,FF,FD,00,00,FF,F1,00,
5199981,000000CE,false,Rx,0,8,00,00,00,00,00,00,00,00,
5200161,000000B6,false,Rx,0,5,4B,0C,80,00,08,00,00,00,
5200473,0000019E,false,Rx,0,8,00,EA,3F,FC,FE,63,00,29,
5200731,000001A0,false,Rx,0,8,00,80,00,C0,FF,0F,C0,B2,
5201000,000001A6,false,Rx,0,8,00,00,00,00,00,00,78,F6,
5201257,000002B2,false,Rx,0,8,00,00,00,00,30,00,00,04,
5203793,000000A8,false,Rx,0,8,A4,02,FA,00,00,0D,CF,22,
5204035,000000A9,false,Rx,0,8,A0,02,A0,5F,11,D9,0F,FA,
5204270,000000AA,false,Rx,0,8,91,E2,0F,00,00,00,F4,00,
5209723,000000C4,false,Rx,0,7,51,FF,FD,00,00,FF,F1,00,
5213849,000000A8,false,Rx,0,8,A5,03,FA,00,00,0D,CF,22,
5214080,000000A9,false,Rx,0,8,A1,03,A0,5F,11,D9,0F,FA,
5214315,000000AA,false,Rx,0,8,92,E3,0F,00,00,00,F4,00,
5217551,00000130,false,Rx,0,5,00,0D,D0,0F,77,00,00,00,
5219775,000000C4,false,Rx,0,7,51,FF,FD,00,00,FF,F1,00,
5220031,000000CE,false,Rx,0,8,00,00,00,00,00,00,00,00,
5220210,000000B6,false,Rx,0,5,4C,0D,80,00,08,00,00,00,
5220489,0000019E,false,Rx,0,8,00,EA,3F,FC,FE,63,00,29,
5220736,000001A0,false,Rx,0,8,00,80,00,D0,FF,12,D0,D5,
5221005,000002B2,false,Rx,0,8,00,00,00,00,40,00,00,04,
5223793,000000A8,false,Rx,0,8,A6,04,FA,00,00,0D,CF,22,
5224024,000000A9,false,Rx,0,8,A2,04,A0,5F,11,D9,0F,FA,
5224270,000000AA,false,Rx,0,8,93,E4,0F,00,00,00,F4,00,
5229688,000000C4,false,Rx,0,7,51,FF,FD,00,00,FF,F1,00,
5233824,000000A8,false,Rx,0,8,A7,05,FA,00,00,0D,CF,22,
5234055,000000A9,false,Rx,0,8,A3,05,A0,5F,11,D9,0F,FA,
5234290,000000AA,false,Rx,0,8,94,E5,0F,00,00,00,F4,00,
5239749,000000C4,false,Rx,0,7,51,FF,FD,00,00,FF,F1,00,
5240003,000000CE,false,Rx,0,8,00,00,00,00,00,00,00,00,
5240182,000000B6,false,Rx,0,5,4D,0E,80,00,08,00,00,00,
5240461,0000019E,false,Rx,0,8,00,EA,3F,FC,FE,63,00,29,
5240730,000001A0,false,Rx,0,8,00,80,00,A0,FF,0F,E0,B2,
5240988,000002B2,false,Rx,0,8,00,00,00,00,30,00,00,04,
5243788,000000A8,false,Rx,0,8,A8,06,FA,00,00,0D,CF,22,
5244019,000000A9,false,Rx,0,8,A4,06,A0,5F,11,D9,0F,FA,
5244265,000000AA,false,Rx,0,8,95,E6,0F,00,00,00,F4,00,
5244490,000001D0,false,Rx,0,8,4B,3C,00,C6,FA,DA,8D,A0,
5249715,000000C4,false,Rx,0,7,51,FF,FD,00,00,FF,F1,00,
5253818,000000A8,false,Rx,0,8,A9,07,FA,00,00,0D,CF,22,
5254050,000000A9,false,Rx,0,8,A5,07,A0,5F,11,D9,0F,FA,
5254284,000000AA,false,Rx,0,8,96,E7,0F,00,00,00,F4,00,
5259760,000000C4,false,Rx,0,7,51,FF,FD,00,00,FF,F1,00,
5260015,000000CE,false,Rx,0,8,00,00,00,00,00,00,00,00,
5260194,000000B6,false,Rx,0,5,3F,00,80,00,08,00,00,00,
5260484,0000019E,false,Rx,0,8,00,EA,3F,FC,FE,63,00,29,
5260742,000001A0,false,Rx,0,8,00,80,00,C0,FF,12,00,F4,
5261012,000002B2,false,Rx,0,8,00,00,00,00,40,00,00,04,
5261268,000004A9,false,Rx,0,8,30,52,FF,FF,FF,FF,FF,FF,
5263782,000000A8,false,Rx,0,8,AA,08,FA,00,00,0D,CF,22,
5264013,000000A9,false,Rx,0,8,A6,08,A0,5F,11,D9,0F,FA,
5264248,000000AA,false,Rx,0,8,97,E8,0F,00,00,00,F4,00,
5269713,000000C4,false,Rx,0,7,51,FF,FD,00,00,FF,F1,00,
5273804,000000A8,false,Rx,0,8,AB,09,FA,00,00,0D,CF,22,
5274037,000000A9,false,Rx,0,8,A7,09,A0,5F,11,D9,0F,FA,
5274271,000000AA,false,Rx,0,8,98,E9,0F,00,00,00,F4,00,
5279680,000000C4,false,Rx,0,7,51,FF,FD,00,00,FF,F1,00,
5279933,000000CE,false,Rx,0,8,00,00,00,00,00,00,00,00,
5280114,000000B6,false,Rx,0,5,40,01,80,00,08,00,00,00,
5280370,0000019E,false,Rx,0,8,00,EA,3F,FC,FE,63,00,29,
5280639,000001A0,false,Rx,0,8,00,80,00,C0,FF,12,10,05,
5280896,000002B2,false,Rx,0,8,00,00,00,00,40,00,00,04,
5283762,000000A8,false,Rx,0,8,AC,0A,FA,00,00,0D,CF,22,
5283994,000000A9,false,Rx,0,8,A8,0A,A0,5F,11,D9,0F,FA,
5284228,000000AA,false,Rx,0,8,99,EA,0F,00,00,00,F4,00,
5289672,000000C4,false,Rx,0,7,51,FF,FD,00,00,FF,F1,00,
5293796,000000A8,false,Rx,0,8,AD,0B,FA,00,00,0D,CF,22,
5294017,000000A9,false,Rx,0,8,A9,0B,A0,5F,11,D9,0F,FA,
5294252,000000AA,false,Rx,0,8,9A,EB,0F,00,00,00,F4,00,
5299682,000000C4,false,Rx,0,7,51,FF,FD,00,00,FF,F1,00,
5299935,000000CE,false,Rx,0,8,00,00,00,00,00,00,00,00,
5300127,000000B6,false,Rx,0,5,41,02,80,00,08,00,00,00,
5300438,0000019E,false,Rx,0,8,00,EA,3F,FC,FE,63,00,29,
5300708,000001A0,false,Rx,0,8,00,80,00,C0,FF,12,20,15,
5300965,000001A6,false,Rx,0,8,00,00,00,00,00,00,08,F8,
5301234,000002B2,false,Rx,0,8,00,00,00,00,40,00,00,04,
5303782,000000A8,false,Rx,0,8,AE,0C,FA,00,00,0D,CF,22,
5304014,000000A9,false,Rx,0,8,AA,0C,A0,5F,11,D9,0F,FA,
5304249,000000AA,false,Rx,0,8,9B,EC,0F,00,00,00,F4,00,
5309680,000000C4,false,Rx,0,7,51,FF,FD,00,00,FF,F1,00,
5313816,000000A8,false,Rx,0,8,AF,0D,FA,00,00,0D,CF,22,
5314048,000000A9,false,Rx,0,8,AB,0D,A0,5F,11,D9,0F,FA,
5314283,000000AA,false,Rx,0,8,9C,ED,0F,00,00,00,F4,00,
5316191,00000130,false,Rx,0,5,00,0D,D0,0F,88,00,00,00,
5319735,000000C4,false,Rx,0,7,51,FF,FD,00,00,FF,F1,00,
5319988,000000CE,false,Rx,0,8,00,00,00,00,00,00,00,00,
5320168,000000B6,false,Rx,0,5,42,03,80,00,08,00,00,00,
5320446,0000019E,false,Rx,0,8,00,EA,4F,FC,FE,63,00,39,
5320704,000001A0,false,Rx,0,8,00,80,00,D0,FF,12,30,35,
5320961,000002B2,false,Rx,0,8,00,00,00,00,40,00,00,04,
5323783,000000A8,false,Rx,0,8,B0,0E,FA,00,00,0D,CF,22,
5324014,000000A9,false,Rx,0,8,AC,0E,A0,5F,11,D9,0F,FA,
5324260,000000AA,false,Rx,0,8,9D,EE,0F,00,00,00,F4,00,
5329713,000000C4,false,Rx,0,7,51,FF,FD,00,00,FF,F1,00,
5333827,000000A8,false,Rx,0,8,A2,00,FA,00,00,0D,CF,22,
5334058,000000A9,false,Rx,0,8,9E,00,A0,5F,11,D9,0F,FA,
5334293,000000AA,false,Rx,0,8,8F,E0,0F,00,00,00,F4,00,
5339760,000000C4,false,Rx,0,7,51,FF,FD,00,00,FF,F1,00,
5340012,000000CE,false,Rx,0,8,00,00,00,00,00,00,00,00,
5340203,000000B6,false,Rx,0,5,43,04,80,00,08,00,00,00,
5340472,0000019E,false,Rx,0,8,00,EA,4F,FC,FE,63,00,39,
