Time Stamp,ID,Extended,Dir,Bus,LEN,D1,D2,D3,D4,D5,D6,D7,D8
1602360,000000A8,false,Rx,0,8,75,F7,F8,00,00,0C,CF,00,
1602591,000000A9,false,Rx,0,8,64,07,8F,8F,0C,8F,FF,F8,
1602826,000000AA,false,Rx,0,8,90,F7,F8,00,00,00,F4,00,
1607967,000000C4,false,Rx,0,7,4F,FF,FD,00,00,FF,F1,00,
1611049,000001FB,false,Rx,0,2,F1,FF,00,00,00,00,00,00,
1612351,000000A8,false,Rx,0,8,76,F8,F8,00,00,0C,CF,00,
1612576,000000A9,false,Rx,0,8,65,08,8F,8F,0C,8F,FF,F8,
1612822,000000AA,false,Rx,0,8,91,F8,F8,00,00,00,F4,00,
1616836,00000480,false,Rx,0,8,12,42,FD,01,FF,FF,FF,FF,
1617965,000000C4,false,Rx,0,7,4F,FF,FD,00,00,FF,F1,00,
1618212,000000CE,false,Rx,0,8,00,00,00,00,00,00,00,00,
1618403,000000B6,false,Rx,0,5,4A,0B,80,00,08,00,00,00,
1618693,0000019E,false,Rx,0,8,00,EA,0F,FC,FE,20,00,B5,
1618951,000001A0,false,Rx,0,8,00,80,00,A0,FF,12,B0,85,
1619210,000002B2,false,Rx,0,8,00,00,00,00,4F,00,00,04,
1622357,000000A8,false,Rx,0,8,77,F9,F8,00,00,0C,CF,00,
1622593,000000A9,false,Rx,0,8,66,09,8F,8F,0C,8F,FF,F8,
1622839,000000AA,false,Rx,0,8,92,F9,F8,00,00,00,F4,00,
1627955,000000C4,false,Rx,0,7,4F,FF,FD,00,00,FF,F1,00,
1632360,000000A8,false,Rx,0,8,78,FA,F8,00,00,0C,CF,00,
1632591,000000A9,false,Rx,0,8,67,0A,8F,8F,0C,8F,FF,F8,
1632837,000000AA,false,Rx,0,8,93,FA,F8,00,00,00,F4,00,
1637283,000001B4,false,Rx,0,8,00,D0,FF,F0,FC,FE,FE,72,
1637979,000000C4,false,Rx,0,7,4F,FF,FD,00,00,FF,F1,00,
1638225,000000CE,false,Rx,0,8,00,00,00,00,00,00,00,00,
1638416,000000B6,false,Rx,0,5,4B,0C,80,00,08,00,00,00,
1638718,0000019E,false,Rx,0,8,00,EA,0F,FC,FE,20,00,B5,
1638974,000001A0,false,Rx,0,8,00,80,00,C0,FF,12,C0,B5,
1639244,000002B2,false,Rx,0,8,00,00,00,00,4F,00,00,04,
1642356,000000A8,false,Rx,0,8,79,FB,F8,00,00,0C,CF,00,
1642588,000000A9,false,Rx,0,8,68,0B,8F,8F,0C,8F,FF,F8,
1642834,000000AA,false,Rx,0,8,94,FB,F8,00,00,00,F4,00,
1647908,000000C4,false,Rx,0,7,4F,FF,FD,00,00,FF,F1,00,
1652357,000000A8,false,Rx,0,8,7A,FC,F8,00,00,0C,CF,00,
1652589,000000A9,false,Rx,0,8,69,0C,8F,8F,0C,8F,FF,F8,
1652834,000000AA,false,Rx,0,8,95,FC,F8,00,00,00,F4,00,
1657919,000000C4,false,Rx,0,7,4F,FF,FD,00,00,FF,F1,00,
1658172,000000CE,false,Rx,0,8,00,00,00,00,00,00,00,00,
1658352,000000B6,false,Rx,0,5,4C,0D,80,00,08,00,00,00,
1658631,0000019E,false,Rx,0,8,00,EA,0F,FC,FE,20,00,B5,
1658899,000001A0,false,Rx,0,8,00,80,00,C0,FF,0F,D0,C2,
1659158,000002B2,false,Rx,0,8,00,00,00,00,3F,00,00,04,
1662351,000000A8,false,Rx,0,8,7B,FD,F8,00,00,0C,CF,00,
1662593,000000A9,false,Rx,0,8,6A,0D,8F,8F,0C,8F,FF,F8,
1662828,000000AA,false,Rx,0,8,96,FD,F8,00,00,00,F4,00,
1667946,000000C4,false,Rx,0,7,4F,FF,FD,00,00,FF,F1,00,
1670790,00000130,false,Rx,0,5,41,40,21,0F,AA,00,00,00,
1672362,000000A8,false,Rx,0,8,7C,FE,F8,00,00,0C,CF,00,
1672587,000000A9,false,Rx,0,8,6B,0E,8F,8F,0C,8F,FF,F8,
1672832,000000AA,false,Rx,0,8,97,FE,F8,00,00,00,F4,00,
1677995,000000C4,false,Rx,0,7,4F,FF,FD,00,00,FF,F1,00,
1678247,000000CE,false,Rx,0,8,00,00,00,00,00,00,00,00,
1678438,000000B6,false,Rx,0,5,4D,0E,80,00,08,00,00,00,
1678729,0000019E,false,Rx,0,8,00,EA,0F,FC,FE,20,00,B5,
1678987,000001A0,false,Rx,0,8,00,80,00,C0,FF,12,E0,D5,
1679244,000002B2,false,Rx,0,8,00,00,00,00,4F,00,00,04,
1682357,000000A8,false,Rx,0,8,6E,F0,F8,00,00,0C,CF,00,
1682589,000000A9,false,Rx,0,8,5D,00,8F,8F,0C,8F,FF,F8,
1682824,000000AA,false,Rx,0,8,89,F0,F8,00,00,00,F4,00,
1687964,000000C4,false,Rx,0,7,4F,FF,FD,00,00,FF,F1,00,
1692346,000000A8,false,Rx,0,8,6F,F1,F8,00,00,0C,CF,00,
1692577,000000A9,false,Rx,0,8,5E,01,8F,8F,0C,8F,FF,F8,
1692823,000000AA,false,Rx,0,8,8A,F1,F8,00,00,00,F4,00,
1693059,000001D0,false,Rx,0,8,3C,08,08,C6,00,00,0D,AE,
1697946,000000C4,false,Rx,0,7,4F,FF,FD,00,00,FF,F1,00,
1698199,000000CE,false,Rx,0,8,00,00,00,00,00,00,00,00,
1698390,000000B6,false,Rx,0,5,3F,00,80,00,08,00,00,00,
1698714,0000019E,false,Rx,0,8,00,EA,0F,FC,FE,20,00,B5,
1698971,000001A0,false,Rx,0,8,00,80,00,A0,FF,12,00,D4,
1699240,000001A6,false,Rx,0,8,00,00,00,00,00,00,80,F9,
1699499,000002B2,false,Rx,0,8,00,00,00,00,4F,00,00,04,
1702359,000000A8,false,Rx,0,8,70,F2,F8,00,00,0C,CF,00,
1702590,000000A9,false,Rx,0,8,5F,02,8F,8F,0C,8F,FF,F8,
1702836,000000AA,false,Rx,0,8,8B,F2,F8,00,00,00,F4,00,
1708021,000000C4,false,Rx,0,7,4F,FF,FD,00,00,FF,F1,00,
1708185,00000194,false,Rx,0,4,F7,FA,00,FC,00,00,00,00,
1712341,000000A8,false,Rx,0,8,71,F3,F8,00,00,0C,CF,00,
1712583,000000A9,false,Rx,0,8,60,03,8F,8F,0C,8F,FF,F8,
1712818,000000AA,false,Rx,0,8,8C,F3,F8,00,00,00,F4,00,
1717981,000000C4,false,Rx,0,7,4F,FF,FD,00,00,FF,F1,00,
1718234,000000CE,false,Rx,0,8,00,00,00,00,00,00,00,00,
1718414,000000B6,false,Rx,0,5,40,01,80,00,08,00,00,00,
1718705,0000019E,false,Rx,0,8,00,EA,0F,FC,FE,20,00,B5,
1718961,000001A0,false,Rx,0,8,00,80,00,A0,FF,12,10,E4,
1719231,000002B2,false,Rx,0,8,00,00,00,00,4F,00,00,04,
1722356,00000492,false,Rx,0,8,17,52,FF,FF,FF,FF,FF,FF,
1722597,000000A8,false,Rx,0,8,72,F4,F8,00,00,0C,CF,00,
1722832,000000A9,false,Rx,0,8,61,04,8F,8F,0C,8F,FF,F8,
1723068,000000AA,false,Rx,0,8,8D,F4,F8,00,00,00,F4,00,
1728002,000000C4,false,Rx,0,7,4F,FF,FD,00,00,FF,F1,00,
1732340,000000A8,false,Rx,0,8,73,F5,F8,00,00,0C,CF,00,
1732570,000000A9,false,Rx,0,8,62,05,8F,8F,0C,8F,FF,F8,
1732805,000000AA,false,Rx,0,8,8E,F5,F8,00,00,00,F4,00,
1737934,000000C4,false,Rx,0,7,4F,FF,FD,00,00,FF,F1,00,
1738187,000000CE,false,Rx,0,8,00,00,00,00,00,00,00,00,
1738366,000000B6,false,Rx,0,5,41,02,80,00,08,00,00,00,
1738646,0000019E,false,Rx,0,8,00,EA,0F,FC,FE,20,00,B5,
1738892,000001B4,false,Rx,0,8,00,D0,FF,F1,FC,FE,FE,73,
1739139,000001A0,false,Rx,0,8,00,80,00,C0,FF,12,20,15,
1739397,000002B2,false,Rx,0,8,00,00,00,00,4F,00,00,04,
1742347,000000A8,false,Rx,0,8,74,F6,F8,00,00,0C,CF,00,
1742588,000000A9,false,Rx,0,8,63,06,8F,8F,0C,8F,FF,F8,
1742823,000000AA,false,Rx,0,8,8F,F6,F8,00,00,00,F4,00,
1747942,000000C4,false,Rx,0,7,4F,FF,FD,00,00,FF,F1,00,
1752337,000000A8,false,Rx,0,8,75,F7,F8,00,00,0C,CF,00,
1752567,000000A9,false,Rx,0,8,64,07,8F,8F,0C,8F,FF,F8,
1752813,000000AA,false,Rx,0,8,90,F7,F8,00,00,00,F4,00,
1757908,000000C4,false,Rx,0,7,4F,FF,FD,00,00,FF,F1,00,
1758161,000000CE,false,Rx,0,8,00,00,00,00,00,00,00,00,
1758352,000000B6,false,Rx,0,5,42,03,80,00,08,00,00,00,
1758631,0000019E,false,Rx,0,8,00,EA,1F,FC,FE,20,00,C5,
1758888,000001A0,false,Rx,0,8,00,80,00,C0,FF,12,30,25,
1759147,000002B2,false,Rx,0,8,00,00,00,00,4F,00,00,04,
1762362,000000A8,false,Rx,0,8,76,F8,F8,00,00,0C,CF,00,
1762592,000000A9,false,Rx,0,8,65,08,8F,8F,0C,8F,FF,F8,
1762838,000000AA,false,Rx,0,8,91,F8,F8,00,00,00,F4,00,
1767911,000000C4,false,Rx,0,7,4F,FF,FD,00,00,FF,F1,00,
1770576,00000130,false,Rx,0,5,41,40,21,0F,BB,00,00,00,
1772348,000000A8,false,Rx,0,8,77,F9,F8,00,00,0C,CF,00,
1772571,000000A9,false,Rx,0,8,66,09,8F,8F,0C,8F,FF,F8,
1772815,000000AA,false,Rx,0,8,92,F9,F8,00,00,00,F4,00,
1777950,000000C4,false,Rx,0,7,4F,FF,FD,00,00,FF,F1,00,
1778203,000000CE,false,Rx,0,8,00,00,00,00,00,00,00,00,
1778382,000000B6,false,Rx,0,5,43,04,80,00,08,00,00,00,
1778673,0000019E,false,Rx,0,8,00,EA,1F,FC,FE,20,00,C5,
1778930,000001A0,false,Rx,0,8,00,80,00,C0,FF,12,40,35,
1779200,000002B2,false,Rx,0,8,00,00,00,00,4F,00,00,04,
1782370,000000A8,false,Rx,0,8,78,FA,F8,00,00,0C,CF,00,
1782600,000000A9,false,Rx,0,8,67,0A,8F,8F,0C,8F,FF,F8,
1782846,000000AA,false,Rx,0,8,93,FA,F8,00,00,00,F4,00,
1787931,000000C4,false,Rx,0,7,4F,FF,FD,00,00,FF,F1,00,
1792382,000000A8,false,Rx,0,8,79,FB,F8,00,00,0C,CF,00,
1792612,000000A9,false,Rx,0,8,68,0B,8F,8F,0C,8F,FF,F8,
1792858,000000AA,false,Rx,0,8,94,FB,F8,00,00,00,F4,00,
1793095,000001D0,false,Rx,0,8,3C,08,09,C6,00,00,0D,AE,
1797925,000000C4,false,Rx,0,7,4F,FF,FD,00,00,FF,F1,00,
1798178,000000CE,false,Rx,0,8,00,00,00,00,00,00,00,00,
1798357,000000B6,false,Rx,0,5,44,05,80,00,08,00,00,00,
1798560,000000C8,false,Rx,0,6,4F,FF,C1,00,00,2C,00,00,
1798805,0000019E,false,Rx,0,8,00,EA,1F,FC,FE,20,00,C5,
1799063,000001A0,false,Rx,0,8,00,80,00,C0,FF,0F,50,42,
1799321,000001A6,false,Rx,0,8,00,00,00,00,00,00,10,FB,
1799589,000002B2,false,Rx,0,8,00,00,00,00,3F,00,00,04,
1801008,000001FB,false,Rx,0,2,F2,FF,00,00,00,00,00,00,
1802366,000000A8,false,Rx,0,8,7A,FC,F8,00,00,0C,CF,00,
1802601,000000A9,false,Rx,0,8,69,0C,8F,8F,0C,8F,FF,F8,
1802836,000000AA,false,Rx,0,8,95,FC,F8,00,00,00,F4,00,
1807962,000000C4,false,Rx,0,7,4F,FF,FD,00,00,FF,F1,00,
1812349,000000A8,false,Rx,0,8,7B,FD,F8,00,00,0C,CF,00,
1812579,000000A9,false,Rx,0,8,6A,0D,8F,8F,0C,8F,FF,F8,
1812825,000000AA,false,Rx,0,8,96,FD,F8,00,00,00,F4,00,
1813062,00000497,false,Rx,0,8,29,52,FF,FF,FF,FF,FF,FF,
1817970,000000C4,false,Rx,0,7,4F,FF,FD,00,00,FF,F1,00,
1818223,000000CE,false,Rx,0,8,00,00,00,00,00,00,00,00,
1818403,000000B6,false,Rx,0,5,45,06,80,00,08,00,00,00,
1818693,0000019E,false,Rx,0,8,00,EA,1F,FC,FE,20,00,C5,
1818961,000001A0,false,Rx,0,8,00,80,00,C0,FF,12,60,55,
1819220,000002B2,false,Rx,0,8,00,00,00,00,4F,00,00,04,
1822378,000000A8,false,Rx,0,8,7C,FE,F8,00,00,0C,CF,00,
1822609,000000A9,false,Rx,0,8,6B,0E,8F,8F,0C,8F,FF,F8,
1822854,000000AA,false,Rx,0,8,97,FE,F8,00,00,00,F4,00,
1827972,000000C4,false,Rx,0,7,4F,FF,FD,00,00,FF,F1,00,
1832368,000000A8,false,Rx,0,8,6E,F0,F8,00,00,0C,CF,00,
1832598,000000A9,false,Rx,0,8,5D,00,8F,8F,0C,8F,FF,F8,
1832844,000000AA,false,Rx,0,8,89,F0,F8,00,00,00,F4,00,
1837939,000000C4,false,Rx,0,7,4F,FF,FD,00,00,FF,F1,00,
1838192,000000CE,false,Rx,0,8,00,00,00,00,00,00,00,00,
1838373,000000B6,false,Rx,0,5,46,07,80,00,08,00,00,00,
1838618,000001B4,false,Rx,0,8,00,D0,FF,F2,FC,FE,FE,74,
1838853,0000019E,false,Rx,0,8,00,EA,1F,FC,FE,20,00,C5,
1839112,000001A0,false,Rx,0,8,00,80,00,A0,FF,0F,70,42,
1839380,000002B2,false,Rx,0,8,00,00,00,00,3F,00,00,04,
1842408,000000A8,false,Rx,0,8,6F,F1,F8,00,00,0C,CF,00,
1842639,000000A9,false,Rx,0,8,5E,01,8F,8F,0C,8F,FF,F8,
1842873,000000AA,false,Rx,0,8,8A,F1,F8,00,00,00,F4,00,
1847958,000000C4,false,Rx,0,7,4F,FF,FD,00,00,FF,F1,00,
1852354,000000A8,false,Rx,0,8,70,F2,F8,00,00,0C,CF,00,
1852584,000000A9,false,Rx,0,8,5F,02,8F,8F,0C,8F,FF,F8,
1852830,000000AA,false,Rx,0,8,8B,F2,F8,00,00,00,F4,00,
1857903,000000C4,false,Rx,0,7,4F,FF,FD,00,00,FF,F1,00,
1858156,000000CE,false,Rx,0,8,00,00,00,00,00,00,00,00,
1858348,000000B6,false,Rx,0,5,47,08,80,00,08,00,00,00,
1858637,0000019E,false,Rx,0,8,00,EA,1F,FC,FE,20,00,C5,
1858894,000001A0,false,Rx,0,8,00,80,00,A0,FF,12,80,55,
1859164,000002B2,false,Rx,0,8,00,00,00,00,4F,00,00,04,
1862368,000000A8,false,Rx,0,8,71,F3,F8,00,00,0C,CF,00,
1862609,000000A9,false,Rx,0,8,60,03,8F,8F,0C,8F,FF,F8,
1862844,000000AA,false,Rx,0,8,8C,F3,F8,00,00,00,F4,00,
1867525,000002F1,false,Rx,0,3,E7,F6,FC,00,00,00,00,00,
1867908,000000C4,false,Rx,0,7,4F,FF,FD,00,00,FF,F1,00,
1870776,00000130,false,Rx,0,5,41,40,21,0F,CC,00,00,00,
1872369,000000A8,false,Rx,0,8,72,F4,F8,00,00,0C,CF,00,
1872604,000000A9,false,Rx,0,8,61,04,8F,8F,0C,8F,FF,F8,
1872850,000000AA,false,Rx,0,8,8D,F4,F8,00,00,00,F4,00,
1877969,000000C4,false,Rx,0,7,4F,FF,FD,00,00,FF,F1,00,
1878222,000000CE,false,Rx,0,8,00,00,00,00,00,00,00,00,
1878414,000000B6,false,Rx,0,5,48,09,80,00,08,00,00,00,
1878703,0000019E,false,Rx,0,8,00,EA,1F,FC,FE,20,00,C5,
1878949,000001A0,false,Rx,0,8,00,80,00,D0,FF,12,90,95,
1879220,000002B2,false,Rx,0,8,00,00,00,00,4F,00,00,04,
1882357,000000A8,false,Rx,0,8,73,F5,F8,00,00,0C,CF,00,
1882587,000000A9,false,Rx,0,8,62,05,8F,8F,0C,8F,FF,F8,
1882833,000000AA,false,Rx,0,8,8E,F5,F8,00,00,00,F4,00,
1887939,000000C4,false,Rx,0,7,4F,FF,FD,00,00,FF,F1,00,
1892346,000000A8,false,Rx,0,8,74,F6,F8,00,00,0C,CF,00,
1892576,000000A9,false,Rx,0,8,63,06,8F,8F,0C,8F,FF,F8,
1892811,000000AA,false,Rx,0,8,8F,F6,F8,00,00,00,F4,00,
1893059,000001D0,false,Rx,0,8,3C,08,09,C6,00,00,0D,AE,
1897922,000000C4,false,Rx,0,7,4F,FF,FD,00,00,FF,F1,00,
1898175,000000CE,false,Rx,0,8,00,00,00,00,00,00,00,00,
1898378,000000B6,false,Rx,0,5,49,0A,80,00,08,00,00,00,
1898700,0000019E,false,Rx,0,8,00,EA,1F,FC,FE,20,00,C5,
1898957,000001A0,false,Rx,0,8,00,80,00,C0,FF,0F,A0,92,
1899228,000001A6,false,Rx,0,8,00,00,00,00,00,00,A0,FC,
1899496,000002B2,false,Rx,0,8,00,00,00,00,3F,00,00,04,
1899754,000004A9,false,Rx,0,8,30,52,FF,FF,FF,FF,FF,FF,
1902362,000000A8,false,Rx,0,8,75,F7,F8,00,00,0C,CF,00,
1902592,000000A9,false,Rx,0,8,64,07,8F,8F,0C,8F,FF,F8,
1902829,000000AA,false,Rx,0,8,90,F7,F8,00,00,00,F4,00,
1907991,000000C4,false,Rx,0,7,4F,FF,FD,00,00,FF,F1,00,
1908165,00000194,false,Rx,0,4,F8,FB,00,FC,00,00,00,00,
1912345,000000A8,false,Rx,0,8,76,F8,F8,00,00,0C,CF,00,
1912575,000000A9,false,Rx,0,8,65,08,8F,8F,0C,8F,FF,F8,
1912811,000000AA,false,Rx,0,8,91,F8,F8,00,00,00,F4,00,
1917939,000000C4,false,Rx,0,7,4F,FF,FD,00,00,FF,F1,00,
1918193,000000CE,false,Rx,0,8,00,00,00,00,00,00,00,00,
1918384,000000B6,false,Rx,0,5,4A,0B,80,00,08,00,00,00,
1918673,0000019E,false,Rx,0,8,00,EA,1F,FC,FE,20,00,C5,
1918930,000001A0,false,Rx,0,8,00,80,00,C0,FF,12,B0,A5,
1919201,000002B2,false,Rx,0,8,00,00,00,00,4F,00,00,04,
1922360,000000A8,false,Rx,0,8,77,F9,F8,00,00,0C,CF,00,
1922590,000000A9,false,Rx,0,8,66,09,8F,8F,0C,8F,FF,F8,
1922826,000000AA,false,Rx,0,8,92,F9,F8,00,00,00,F4,00,
1927989,000000C4,false,Rx,0,7,4F,FF,FD,00,00,FF,F1,00,
1932339,000000A8,false,Rx,0,8,78,FA,F8,00,00,0C,CF,00,
1932569,000000A9,false,Rx,0,8,67,0A,8F,8F,0C,8F,FF,F8,
1932816,000000AA,false,Rx,0,8,93,FA,F8,00,00,00,F4,00,
1937385,000001B4,false,Rx,0,8,00,D0,FF,F3,FC,FE,FE,75,
1937980,000000C4,false,Rx,0,7,4F,FF,FD,00,00,FF,F1,00,
1938228,000000CE,false,Rx,0,8,00,00,00,00,00,00,00,00,
1938419,000000B6,false,Rx,0,5,4B,0C,80,00,08,00,00,00,
1938708,0000019E,false,Rx,0,8,00,EA,1F,FC,FE,20,00,C5,
1938966,000001A0,false,Rx,0,8,00,80,00,C0,FF,12,C0,B5,
1939235,000002B2,false,Rx,0,8,00,00,00,00,4F,00,00,04,
1942357,000000A8,false,Rx,0,8,79,FB,F8,00,00,0C,CF,00,
1942587,000000A9,false,Rx,0,8,68,0B,8F,8F,0C,8F,FF,F8,
1942835,000000AA,false,Rx,0,8,94,FB,F8,00,00,00,F4,00,
1947984,000000C4,false,Rx,0,7,4F,FF,FD,00,00,FF,F1,00,
1951336,00000310,false,Rx,0,7,6E,17,05,00,00,42,20,00,
1952342,000000A8,false,Rx,0,8,7A,FC,F8,00,00,0C,CF,00,
1952577,000000A9,false,Rx,0,8,69,0C,8F,8F,0C,8F,FF,F8,
1952824,000000AA,false,Rx,0,8,95,FC,F8,00,00,00,F4,00,
1957976,000000C4,false,Rx,0,7,4F,FF,FD,00,00,FF,F1,00,
1958221,000000CE,false,Rx,0,8,00,00,00,00,00,00,00,00,
1958412,000000B6,false,Rx,0,5,4C,0D,80,00,08,00,00,00,
1958701,0000019E,false,Rx,0,8,00,EA,2F,FC,FE,20,00,D5,
1958960,000001A0,false,Rx,0,8,00,80,00,A0,FF,12,D0,A5,
1959218,000002B2,false,Rx,0,8,00,00,00,00,4F,00,00,04,
1962354,000000A8,false,Rx,0,8,7B,FD,F8,00,00,0C,CF,00,
1962584,000000A9,false,Rx,0,8,6A,0D,8F,8F,0C,8F,FF,F8,
1962831,000000AA,false,Rx,0,8,96,FD,F8,00,00,00,F4,00,
1967947,000000C4,false,Rx,0,7,4F,FF,FD,00,00,FF,F1,00,
1970591,00000130,false,Rx,0,5,41,40,21,0F,DD,00,00,00,
1972351,000000A8,false,Rx,0,8,7C,FE,F8,00,00,0C,CF,00,
1972586,000000A9,false,Rx,0,8,6B,0E,8F,8F,0C,8F,FF,F8,
1972830,000000AA,false,Rx,0,8,97,FE,F8,00,00,00,F4,00,
1977987,000000C4,false,Rx,0,7,4F,FF,FD,00,00,FF,F1,00,
1978240,000000CE,false,Rx,0,8,00,00,00,00,00,00,00,00,
1978431,000000B6,false,Rx,0,5,4D,0E,80,00,08,00,00,00,
1978720,0000019E,false,Rx,0,8,00,EA,2F,FC,FE,20,00,D5,
1978991,000001A0,false,Rx,0,8,00,80,00,C0,FF,0F,E0,D2,
1979247,000002B2,false,Rx,0,8,00,00,00,00,3F,00,00,04,
1982350,000000A8,false,Rx,0,8,6E,F0,F8,00,00,0C,CF,00,
1982591,000000A9,false,Rx,0,8,5D,00,8F,8F,0C,8F,FF,F8,
1982827,000000AA,false,Rx,0,8,89,F0,F8,00,00,00,F4,00,
1987978,000000C4,false,Rx,0,7,4F,FF,FD,00,00,FF,F1,00,
1990072,000004B0,false,Rx,0,8,00,52,FE,01,FF,FF,FF,FF,
1990258,000001FB,false,Rx,0,2,F3,FF,00,00,00,00,00,00,
1992360,000000A8,false,Rx,0,8,6F,F1,F8,00,00,0C,CF,00,
1992594,000000A9,false,Rx,0,8,5E,01,8F,8F,0C,8F,FF,F8,
1992830,000000AA,false,Rx,0,8,8A,F1,F8,00,00,00,F4,00,
1993066,000001D0,false,Rx,0,8,3C,08,0A,C6,00,00,0D,AE,
1997969,000000C4,false,Rx,0,7,4F,FF,FD,00,00,FF,F1,00,
1998223,000000CE,false,Rx,0,8,00,00,00,00,00,00,00,00,
1998402,000000B6,false,Rx,0,5,3F,00,80,00,08,00,00,00,
1998614,000000C8,false,Rx,0,6,4F,FF,21,00,00,6C,00,00,
1998850,0000019E,false,Rx,0,8,00,EA,2F,FC,FE,20,00,D5,
1999108,000001A0,false,Rx,0,8,00,80,00,C0,FF,0F,00,F1,
1999365,000001A6,false,Rx,0,8,00,00,00,00,00,00,30,FE,
1999634,000002B2,false,Rx,0,8,00,00,00,00,3F,00,00,04,
2002342,000000A8,false,Rx,0,8,70,F2,F8,00,00,0C,CF,00,
2002583,000000A9,false,Rx,0,8,5F,02,8F,8F,0C,8F,FF,F8,
2002819,000000AA,false,Rx,0,8,8B,F2,F8,00,00,00,F4,00,
2007981,000000C4,false,Rx,0,7,4F,FF,FD,00,00,FF,F1,00,
2012353,000000A8,false,Rx,0,8,71,F3,F8,00,00,0C,CF,00,
2012583,000000A9,false,Rx,0,8,60,03,8F,8F,0C,8F,FF,F8,
2012819,000000AA,false,Rx,0,8,8C,F3,F8,00,00,00,F4,00,
2017936,000000C4,false,Rx,0,7,4F,FF,FD,00,00,FF,F1,00,
2018190,000000CE,false,Rx,0,8,00,00,00,00,00,00,00,00,
2018381,000000B6,false,Rx,0,5,40,01,80,00,08,00,00,00,
2018659,0000019E,false,Rx,0,8,00,EA,2F,FC,FE,20,00,D5,
2018917,000001A0,false,Rx,0,8,00,80,00,C0,FF,12,10,05,
2019186,000002B2,false,Rx,0,8,00,00,00,00,4F,00,00,04,
2022355,000000A8,false,Rx,0,8,72,F4,F8,00,00,0C,CF,00,
2022586,000000A9,false,Rx,0,8,61,04,8F,8F,0C,8F,FF,F8,
2022833,000000AA,false,Rx,0,8,8D,F4,F8,00,00,00,F4,00,
2027972,000000C4,false,Rx,0,7,4F,FF,FD,00,00,FF,F1,00,
2032357,000000A8,false,Rx,0,8,73,F5,F8,00,00,0C,CF,00,
2032587,000000A9,false,Rx,0,8,62,05,8F,8F,0C,8F,FF,F8,
2032823,000000AA,false,Rx,0,8,8E,F5,F8,00,00,00,F4,00,
2037280,000001B4,false,Rx,0,8,00,D0,FF,F4,FC,FE,FE,76,
2037988,000000C4,false,Rx,0,7,4F,FF,FD,00,00,FF,F1,00,
2038245,000000CE,false,Rx,0,8,00,00,00,00,00,00,00,00,
2038424,000000B6,false,Rx,0,5,41,02,80,00,08,00,00,00,
2038724,0000019E,false,Rx,0,8,00,EA,2F,FC,FE,20,00,D5,
2038983,000001A0,false,Rx,0,8,00,80,00,C0,FF,12,20,15,
2039241,000002B2,false,Rx,0,8,00,00,00,00,4F,00,00,04,
2042342,000000A8,false,Rx,0,8,74,F6,F8,00,00,0C,CF,00,
2042585,000000A9,false,Rx,0,8,63,06,8F,8F,0C,8F,FF,F8,
2042820,000000AA,false,Rx,0,8,8F,F6,F8,00,00,00,F4,00,
2047913,000000C4,false,Rx,0,7,4F,FF,FD,00,00,FF,F1,00,
2052342,000000A8,false,Rx,0,8,75,F7,F8,00,00,0C,CF,00,
2052585,000000A9,false,Rx,0,8,64,07,8F,8F,0C,8F,FF,F8,
2052820,000000AA,false,Rx,0,8,90,F7,F8,00,00,00,F4,00,
2057914,000000C4,false,Rx,0,7,4F,FF,FD,00,00,FF,F1,00,
2058169,000000CE,false,Rx,0,8,00,00,00,00,00,00,00,00,
2058348,000000B6,false,Rx,0,5,42,03,80,00,08,00,00,00,
2058638,0000019E,false,Rx,0,8,00,EA,2F,FC,FE,20,00,D5,
2058896,000001A0,false,Rx,0,8,00,80,00,C0,FF,12,30,25,
2059154,000002B2,false,Rx,0,8,00,00,00,00,4F,00,00,04,
2062357,000000A8,false,Rx,0,8,76,F8,F8,00,00,0C,CF,00,
2062588,000000A9,false,Rx,0,8,65,08,8F,8F,0C,8F,FF,F8,
2062834,000000AA,false,Rx,0,8,91,F8,F8,00,00,00,F4,00,
2067917,000000C4,false,Rx,0,7,4F,FF,FD,00,00,FF,F1,00,
2070785,00000130,false,Rx,0,5,41,40,21,0F,FE,00,00,00,
2072291,000000A8,false,Rx,0,8,77,F9,F8,00,00,0C,CF,00,
2072525,000000A9,false,Rx,0,8,66,09,8F,8F,0C,8F,FF,F8,
2072762,000000AA,false,Rx,0,8,92,F9,F8,00,00,00,F4,00,
2076867,00000480,false,Rx,0,8,12,42,FD,01,FF,FF,FF,FF,
2077997,000000C4,false,Rx,0,7,4F,FF,FD,00,00,FF,F1,00,
2078254,000000CE,false,Rx,0,8,00,00,00,00,00,00,00,00,
2078433,000000B6,false,Rx,0,5,43,04,80,00,08,00,00,00,
2078746,0000019E,false,Rx,0,8,00,EA,2F,FC,FE,20,00,D5,
2079005,000001A0,false,Rx,0,8,00,80,00,C0,FF,12,40,35,
2079262,000002B2,false,Rx,0,8,00,00,00,00,4F,00,00,04,
2082354,000000A8,false,Rx,0,8,78,FA,F8,00,00,0C,CF,00,
2082590,000000A9,false,Rx,0,8,67,0A,8F,8F,0C,8F,FF,F8,
2082825,000000AA,false,Rx,0,8,93,FA,F8,00,00,00,F4,00,
2087941,000000C4,false,Rx,0,7,4F,FF,FD,00,00,FF,F1,00,
2092346,000000A8,false,Rx,0,8,79,FB,F8,00,00,0C,CF,00,
2092577,000000A9,false,Rx,0,8,68,0B,8F,8F,0C,8F,FF,F8,
2092823,000000AA,false,Rx,0,8,94,FB,F8,00,00,00,F4,00,
2093070,000001D0,false,Rx,0,8,3C,08,0A,C6,00,00,0D,AE,
2097968,000000C4,false,Rx,0,7,4F,FF,FD,00,00,FF,F1,00,
2098221,000000CE,false,Rx,0,8,00,00,00,00,00,00,00,00,
2098401,000000B6,false,Rx,0,5,44,05,80,00,08,00,00,00,
2098724,0000019E,false,Rx,0,8,00,EA,2F,FC,FE,20,00,D5,
2098993,000001A0,false,Rx,0,8,00,80,00,C0,FF,12,50,45,
2099250,000001A6,false,Rx,0,8,00,00,00,00,00,00,C0,FF,
2099520,000002B2,false,Rx,0,8,00,00,00,00,4F,00,00,04,
2102380,000000A8,false,Rx,0,8,7A,FC,F8,00,00,0C,CF,00,
2102612,000000A9,false,Rx,0,8,69,0C,8F,8F,0C,8F,FF,F8,
2102858,000000AA,false,Rx,0,8,95,FC,F8,00,00,00,F4,00,
2108024,000000C4,false,Rx,0,7,4F,FF,FD,00,00,FF,F1,00,
2108198,00000194,false,Rx,0,4,F9,FC,00,FC,00,00,00,00,
2108344,000001D6,false,Rx,0,2,C0,0C,00,00,00,00,00,00,
2112357,000000A8,false,Rx,0,8,7B,FD,F8,00,00,0C,CF,00,
2112588,000000A9,false,Rx,0,8,6A,0D,8F,8F,0C,8F,FF,F8,
2112823,000000AA,false,Rx,0,8,96,FD,F8,00,00,00,F4,00,
2117952,000000C4,false,Rx,0,7,4F,FF,FD,00,00,FF,F1,00,
2118194,000000CE,false,Rx,0,8,00,00,00,00,00,00,00,00,
2118385,000000B6,false,Rx,0,5,45,06,80,00,08,00,00,00,
2118664,0000019E,false,Rx,0,8,00,EA,2F,FC,FE,20,00,D5,
2118932,000001A0,false,Rx,0,8,00,80,00,C0,FF,12,60,55,
2119192,000002B2,false,Rx,0,8,00,00,00,00,4F,00,00,04,
2122372,000000A8,false,Rx,0,8,7C,FE,F8,00,00,0C,CF,00,
2122593,000000A9,false,Rx,0,8,6B,0E,8F,8F,0C,8F,FF,F8,
2122838,000000AA,false,Rx,0,8,97,FE,F8,00,00,00,F4,00,
2127978,000000C4,false,Rx,0,7,4F,FF,FD,00,00,FF,F1,00,
2132371,000000A8,false,Rx,0,8,6E,F0,F8,00,00,0C,CF,00,
2132603,000000A9,false,Rx,0,8,5D,00,8F,8F,0C,8F,FF,F8,
2132838,000000AA,false,Rx,0,8,89,F0,F8,00,00,00,F4,00,
2137285,000001B4,false,Rx,0,8,00,D0,FF,F5,FC,FE,FE,77,
2137992,000000C4,false,Rx,0,7,4F,FF,FD,00,00,FF,F1,00,
2138238,000000CE,false,Rx,0,8,00,00,00,00,00,00,00,00,
2138429,000000B6,false,Rx,0,5,46,07,80,00,08,00,00,00,
2138719,0000019E,false,Rx,0,8,00,EA,2F,FC,FE,20,00,D5,
2138976,000001A0,false,Rx,0,8,00,80,00,C0,FF,12,70,65,
2139246,000002B2,false,Rx,0,8,00,00,00,00,4F,00,00,04,
2142381,000000A8,false,Rx,0,8,6F,F1,F8,00,00,0C,CF,00,
2142613,000000A9,false,Rx,0,8,5E,01,8F,8F,0C,8F,FF,F8,
2142859,000000AA,false,Rx,0,8,8A,F1,F8,00,00,00,F4,00,
2147922,000000C4,false,Rx,0,7,4F,FF,FD,00,00,FF,F1,00,
2152362,000000A8,false,Rx,0,8,70,F2,F8,00,00,0C,CF,00,
2152593,000000A9,false,Rx,0,8,5F,02,8F,8F,0C,8F,FF,F8,
2152828,000000AA,false,Rx,0,8,8B,F2,F8,00,00,00,F4,00,
2157934,000000C4,false,Rx,0,7,4F,FF,FD,00,00,FF,F1,00,
2158176,000000CE,false,Rx,0,8,00,00,00,00,00,00,00,00,
2158367,000000B6,false,Rx,0,5,47,08,80,00,08,00,00,00,
2158647,0000019E,false,Rx,0,8,00,EA,2F,FC,FE,20,00,D5,
2158904,000001A0,false,Rx,0,8,00,80,00,C0,FF,12,80,75,
2159173,000002B2,false,Rx,0,8,00,00,00,00,4F,00,00,04,
2162410,000000A8,false,Rx,0,8,71,F3,F8,00,00,0C,CF,00,
2162640,000000A9,false,Rx,0,8,60,03,8F,8F,0C,8F,FF,F8,
2162886,000000AA,false,Rx,0,8,8C,F3,F8,00,00,00,F4,00,
2167925,000000C4,false,Rx,0,7,4F,FF,FD,00,00,FF,F1,00,
2170614,00000130,false,Rx,0,5,41,40,21,0F,00,00,00,00,
2172362,000000A8,false,Rx,0,8,72,F4,F8,00,00,0C,CF,00,
2172598,000000A9,false,Rx,0,8,61,04,8F,8F,0C,8F,FF,F8,
2172842,000000AA,false,Rx,0,8,8D,F4,F8,00,00,00,F4,00,
2177965,000000C4,false,Rx,0,7,4F,FF,FD,00,00,FF,F1,00,
2178218,000000CE,false,Rx,0,8,00,00,00,00,00,00,00,00,
2178409,000000B6,false,Rx,0,5,48,09,80,00,08,00,00,00,
2178700,0000019E,false,Rx,0,8,00,EA,3F,FC,FE,20,00,E5,
2178957,000001A0,false,Rx,0,8,00,80,00,C0,FF,12,90,85,
2179214,000002B2,false,Rx,0,8,00,00,00,00,4F,00,00,04,
2181061,000001FB,false,Rx,0,2,F4,FF,00,00,00,00,00,00,
2182387,00000492,false,Rx,0,8,17,52,FF,FF,FF,FF,FF,FF,
2182622,000000A8,false,Rx,0,8,73,F5,F8,00,00,0C,CF,00,
2182857,000000A9,false,Rx,0,8,62,05,8F,8F,0C,8F,FF,F8,
2183093,000000AA,false,Rx,0,8,8E,F5,F8,00,00,00,F4,00,
2187952,000000C4,false,Rx,0,7,4F,FF,FD,00,00,FF,F1,00,
2192347,000000A8,false,Rx,0,8,74,F6,F8,00,00,0C,CF,00,
2192577,000000A9,false,Rx,0,8,63,06,8F,8F,0C,8F,FF,F8,
2192823,000000AA,false,Rx,0,8,8F,F6,F8,00,00,00,F4,00,
2193048,000001B6,false,Rx,0,7,FF,00,00,00,00,AC,00,00,
2193284,000001D0,false,Rx,0,8,3C,08,0B,C6,00,00,0D,AE,
2193441,000002F3,false,Rx,0,3,06,FC,F8,00,00,00,00,00,
2197942,000000C4,false,Rx,0,7,4F,FF,FD,00,00,FF,F1,00,
2198197,000000CE,false,Rx,0,8,00,00,00,00,00,00,00,00,
2198420,000000B6,false,Rx,0,5,49,0A,80,00,08,00,00,00,
2198623,000000C8,false,Rx,0,6,4F,FF,71,00,00,8C,00,00,
2198857,0000019E,false,Rx,0,8,00,EA,3F,FC,FE,20,00,E5,
2199115,000001A0,false,Rx,0,8,00,80,00,A0,FF,12,A0,75,
2199373,000001A6,false,Rx,0,8,00,00,00,00,00,00,50,F1,
2199641,000002B2,false,Rx,0,8,00,00,00,00,4F,00,00,04,
2199854,00000374,false,Rx,0,5,00,00,FF,FF,FC,00,00,00,
2202365,000000A8,false,Rx,0,8,75,F7,F8,00,00,0C,CF,00,
2202595,000000A9,false,Rx,0,8,64,07,8F,8F,0C,8F,FF,F8,
2202841,000000AA,false,Rx,0,8,90,F7,F8,00,00,00,F4,00,
2208015,000000C4,false,Rx,0,7,4F,FF,FD,00,00,FF,F1,00,
2212341,000000A8,false,Rx,0,8,76,F8,F8,00,00,0C,CF,00,
2212572,000000A9,false,Rx,0,8,65,08,8F,8F,0C,8F,FF,F8,
2212806,000000AA,false,Rx,0,8,91,F8,F8,00,00,00,F4,00,
2217981,000000C4,false,Rx,0,7,4F,FF,FD,00,00,FF,F1,00,
2218234,000000CE,false,Rx,0,8,00,00,00,00,00,00,00,00,
2218425,000000B6,false,Rx,0,5,4A,0B,80,00,08,00,00,00,
2218715,0000019E,false,Rx,0,8,00,EA,3F,FC,FE,20,00,E5,
2218961,000001A0,false,Rx,0,8,00,80,00,A0,FF,12,B0,85,
2219232,000002B2,false,Rx,0,8,00,00,00,00,4F,00,00,04,
2222378,000000A8,false,Rx,0,8,77,F9,F8,00,00,0C,CF,00,
2222608,000000A9,false,Rx,0,8,66,09,8F,8F,0C,8F,FF,F8,
2222843,000000AA,false,Rx,0,8,92,F9,F8,00,00,00,F4,00,
2228007,000000C4,false,Rx,0,7,4F,FF,FD,00,00,FF,F1,00,
2228160,000002C0,false,Rx,0,3,F7,81,FE,00,00,00,00,00,
2232338,000000A8,false,Rx,0,8,78,FA,F8,00,00,0C,CF,00,
2232579,000000A9,false,Rx,0,8,67,0A,8F,8F,0C,8F,FF,F8,
2232814,000000AA,false,Rx,0,8,93,FA,F8,00,00,00,F4,00,
2237304,000001B4,false,Rx,0,8,00,D0,FF,F6,FC,FE,FE,78,
2238023,000000C4,false,Rx,0,7,4F,FF,FD,00,00,FF,F1,00,
2238279,000000CE,false,Rx,0,8,00,00,00,00,00,00,00,00,
2238460,000000B6,false,Rx,0,5,4B,0C,80,00,08,00,00,00,
2238761,0000019E,false,Rx,0,8,00,EA,3F,FC,FE,20,00,E5,
2239019,000001A0,false,Rx,0,8,00,80,00,C0,FF,0F,C0,B2,
2239278,000002B2,false,Rx,0,8,00,00,00,00,3F,00,00,04,
2242368,000000A8,false,Rx,0,8,79,FB,F8,00,00,0C,CF,00,
2242609,000000A9,false,Rx,0,8,68,0B,8F,8F,0C,8F,FF,F8,
2242844,000000AA,false,Rx,0,8,94,FB,F8,00,00,00,F4,00,
2247962,000000C4,false,Rx,0,7,4F,FF,FD,00,00,FF,F1,00,
2252334,000000A8,false,Rx,0,8,7A,FC,F8,00,00,0C,CF,00,
2252575,000000A9,false,Rx,0,8,69,0C,8F,8F,0C,8F,FF,F8,
2252810,000000AA,false,Rx,0,8,95,FC,F8,00,00,00,F4,00,
2257962,000000C4,false,Rx,0,7,4F,FF,FD,00,00,FF,F1,00,
2258215,000000CE,false,Rx,0,8,00,00,00,00,00,00,00,00,
2258395,000000B6,false,Rx,0,5,4C,0D,80,00,08,00,00,00,
2258685,0000019E,false,Rx,0,8,00,EA,3F,FC,FE,20,00,E5,
2258942,000001A0,false,Rx,0,8,00,80,00,A0,FF,12,D0,A5,
2259212,000002B2,false,Rx,0,8,00,00,00,00,4F,00,00,04,
2262348,000000A8,false,Rx,0,8,7B,FD,F8,00,00,0C,CF,00,
2262578,000000A9,false,Rx,0,8,6A,0D,8F,8F,0C,8F,FF,F8,
2262824,000000AA,false,Rx,0,8,96,FD,F8,00,00,00,F4,00,
2267976,000000C4,false,Rx,0,7,4F,FF,FD,00,00,FF,F1,00,
2268107,000002A6,false,Rx,0,2,00,F8,00,00,00,00,00,00,
2269094,000001B5,false,Rx,0,7,00,FF,00,00,C8,FF,FF,00,
2270778,00000130,false,Rx,0,5,41,40,21,0F,11,00,00,00,
2272339,000000A8,false,Rx,0,8,7C,FE,F8,00,00,0C,CF,00,
2272574,000000A9,false,Rx,0,8,6B,0E,8F,8F,0C,8F,FF,F8,
2272820,000000AA,false,Rx,0,8,97,FE,F8,00,00,00,F4,00,
2273057,00000497,false,Rx,0,8,29,52,FF,FF,FF,FF,FF,FF,
2278008,000000C4,false,Rx,0,7,4F,FF,FD,00,00,FF,F1,00,
2278259,000000CE,false,Rx,0,8,00,00,00,00,00,00,00,00,
2278451,000000B6,false,Rx,0,5,4D,0E,80,00,08,00,00,00,
2278741,0000019E,false,Rx,0,8,00,EA,3F,FC,FE,20,00,E5,
2278999,000001A0,false,Rx,0,8,00,80,00,C0,FF,0F,E0,D2,
2279268,000002B2,false,Rx,0,8,00,00,00,00,3F,00,00,04,
2282359,000000A8,false,Rx,0,8,6E,F0,F8,00,00,0C,CF,00,
2282601,000000A9,false,Rx,0,8,5D,00,8F,8F,0C,8F,FF,F8,
2282835,000000AA,false,Rx,0,8,89,F0,F8,00,00,00,F4,00,
2287953,000000C4,false,Rx,0,7,4F,FF,FD,00,00,FF,F1,00,
2292339,000000A8,false,Rx,0,8,6F,F1,F8,00,00,0C,CF,00,
2292580,000000A9,false,Rx,0,8,5E,01,8F,8F,0C,8F,FF,F8,
2292815,000000AA,false,Rx,0,8,8A,F1,F8,00,00,00,F4,00,
2293052,000001D0,false,Rx,0,8,3C,08,0B,C6,00,00,0D,AE,
2297928,000000C4,false,Rx,0,7,4F,FF,FD,00,00,FF,F1,00,
2298181,000000CE,false,Rx,0,8,00,00,00,00,00,00,00,00,
2298362,000000B6,false,Rx,0,5,3F,00,80,00,08,00,00,00,
2298618,0000019E,false,Rx,0,8,00,EA,3F,FC,FE,20,00,E5,
2298875,000001A0,false,Rx,0,8,00,80,00,A0,FF,12,00,D4,
2299134,000001A6,false,Rx,0,8,00,00,00,00,00,00,E0,F2,
2299402,000002B2,false,Rx,0,8,00,00,00,00,4F,00,00,04,
2302364,000000A8,false,Rx,0,8,70,F2,F8,00,00,0C,CF,00,
2302594,000000A9,false,Rx,0,8,5F,02,8F,8F,0C,8F,FF,F8,
2302840,000000AA,false,Rx,0,8,8B,F2,F8,00,00,00,F4,00,
2308005,000000C4,false,Rx,0,7,4F,FF,FD,00,00,FF,F1,00,
2308169,00000194,false,Rx,0,4,FA,FD,00,FC,00,00,00,00,
2312336,000000A8,false,Rx,0,8,71,F3,F8,00,00,0C,CF,00,
2312578,000000A9,false,Rx,0,8,60,03,8F,8F,0C,8F,FF,F8,
2312812,000000AA,false,Rx,0,8,8C,F3,F8,00,00,00,F4,00,
2317953,000000C4,false,Rx,0,7,4F,FF,FD,00,00,FF,F1,00,
2318208,000000CE,false,Rx,0,8,00,00,00,00,00,00,00,00,
2318388,000000B6,false,Rx,0,5,40,01,80,00,08,00,00,00,
2318667,0000019E,false,Rx,0,8,00,EA,3F,FC,FE,20,00,E5,
2318924,000001A0,false,Rx,0,8,00,80,00,A0,FF,12,10,E4,
2319183,000002B2,false,Rx,0,8,00,00,00,00,4F,00,00,04,
2322374,000000A8,false,Rx,0,8,72,F4,F8,00,00,0C,CF,00,
2322604,000000A9,false,Rx,0,8,61,04,8F,8F,0C,8F,FF,F8,
2322850,000000AA,false,Rx,0,8,8D,F4,F8,00,00,00,F4,00,
2327979,000000C4,false,Rx,0,7,4F,FF,FD,00,00,FF,F1,00,
2332341,000000A8,false,Rx,0,8,73,F5,F8,00,00,0C,CF,00,
2332571,000000A9,false,Rx,0,8,62,05,8F,8F,0C,8F,FF,F8,
2332817,000000AA,false,Rx,0,8,8E,F5,F8,00,00,00,F4,00,
2337284,000001B4,false,Rx,0,8,00,D0,FF,F7,FC,FE,FE,79,
2337992,000000C4,false,Rx,0,7,4F,FF,FD,00,00,FF,F1,00,
2338237,000000CE,false,Rx,0,8,00,00,00,00,00,00,00,00,
2338430,000000B6,false,Rx,0,5,41,02,80,00,08,00,00,00,
2338719,0000019E,false,Rx,0,8,00,EA,3F,FC,FE,20,00,E5,
2338976,000001A0,false,Rx,0,8,00,80,00,A0,FF,12,20,F4,
2339235,000002B2,false,Rx,0,8,00,00,00,00,4F,00,00,04,
2342359,000000A8,false,Rx,0,8,74,F6,F8,00,00,0C,CF,00,
2342589,000000A9,false,Rx,0,8,63,06,8F,8F,0C,8F,FF,F8,
2342835,000000AA,false,Rx,0,8,8F,F6,F8,00,00,00,F4,00,
2347919,000000C4,false,Rx,0,7,4F,FF,FD,00,00,FF,F1,00,
2352337,000000A8,false,Rx,0,8,75,F7,F8,00,00,0C,CF,00,
2352568,000000A9,false,Rx,0,8,64,07,8F,8F,0C,8F,FF,F8,
2352802,000000AA,false,Rx,0,8,90,F7,F8,00,00,00,F4,00,
2357943,000000C4,false,Rx,0,7,4F,FF,FD,00,00,FF,F1,00,
2358196,000000CE,false,Rx,0,8,00,00,00,00,00,00,00,00,
2358377,000000B6,false,Rx,0,5,42,03,80,00,08,00,00,00,
2358666,0000019E,false,Rx,0,8,00,EA,3F,FC,FE,20,00,E5,
2358923,000001A0,false,Rx,0,8,00,80,00,A0,FF,12,30,05,
2359193,000002B2,false,Rx,0,8,00,00,00,00,4F,00,00,04,
2359450,000004A9,false,Rx,0,8,30,52,FF,FF,FF,FF,FF,FF,
2362356,000000A8,false,Rx,0,8,76,F8,F8,00,00,0C,CF,00,
2362586,000000A9,false,Rx,0,8,65,08,8F,8F,0C,8F,FF,F8,
2362832,000000AA,false,Rx,0,8,91,F8,F8,00,00,00,F4,00,
2367928,000000C4,false,Rx,0,7,4F,FF,FD,00,00,FF,F1,00,
2370629,00000130,false,Rx,0,5,41,40,21,0F,22,00,00,00,
2371103,000001FB,false,Rx,0,2,F5,FF,00,00,00,00,00,00,
2372345,000000A8,false,Rx,0,8,77,F9,F8,00,00,0C,CF,00,
2372580,000000A9,false,Rx,0,8,66,09,8F,8F,0C,8F,FF,F8,
2372814,000000AA,false,Rx,0,8,92,F9,F8,00,00,00,F4,00,
2377972,000000C4,false,Rx,0,7,4F,FF,FD,00,00,FF,F1,00,
2378227,000000CE,false,Rx,0,8,00,00,00,00,00,00,00,00,
2378406,000000B6,false,Rx,0,5,43,04,80,00,08,00,00,00,
2378707,0000019E,false,Rx,0,8,00,EA,4F,FC,FE,20,00,F5,
2378964,000001A0,false,Rx,0,8,00,80,00,A0,FF,12,40,15,
2379223,000002B2,false,Rx,0,8,00,00,00,00,4F,00,00,04,
2382359,000000A8,false,Rx,0,8,78,FA,F8,00,00,0C,CF,00,
2382589,000000A9,false,Rx,0,8,67,0A,8F,8F,0C,8F,FF,F8,
2382825,000000AA,false,Rx,0,8,93,FA,F8,00,00,00,F4,00,
2387953,000000C4,false,Rx,0,7,4F,FF,FD,00,00,FF,F1,00,
2392382,000000A8,false,Rx,0,8,79,FB,F8,00,00,0C,CF,00,
2392623,000000A9,false,Rx,0,8,68,0B,8F,8F,0C,8F,FF,F8,
2392860,000000AA,false,Rx,0,8,94,FB,F8,00,00,00,F4,00,
2393107,000001D0,false,Rx,0,8,3C,08,0C,C6,00,00,0D,AE,
2397937,000000C4,false,Rx,0,7,4F,FF,FD,00,00,FF,F1,00,
2398191,000000CE,false,Rx,0,8,00,00,00,00,00,00,00,00,
2398381,000000B6,false,Rx,0,5,44,05,80,00,08,00,00,00,
2398582,000000C8,false,Rx,0,6,4F,FF,C1,00,00,9C,00,00,
2398816,0000019E,false,Rx,0,8,00,EA,4F,FC,FE,20,00,F5,
2399076,000001A0,false,Rx,0,8,00,80,00,C0,FF,12,50,45,
2399344,000001A6,false,Rx,0,8,00,00,00,00,00,00,70,F4,
2399601,000002B2,false,Rx,0,8,00,00,00,00,4F,00,00,04,
2402376,000000A8,false,Rx,0,8,7A,FC,F8,00,00,0C,CF,00,
2402606,000000A9,false,Rx,0,8,69,0C,8F,8F,0C,8F,FF,F8,
2402854,000000AA,false,Rx,0,8,95,FC,F8,00,00,00,F4,00,
2407996,000000C4,false,Rx,0,7,4F,FF,FD,00,00,FF,F1,00,
2412368,000000A8,false,Rx,0,8,7B,FD,F8,00,00,0C,CF,00,
2412598,000000A9,false,Rx,0,8,6A,0D,8F,8F,0C,8F,FF,F8,
2412835,000000AA,false,Rx,0,8,96,FD,F8,00,00,00,F4,00,
2417962,000000C4,false,Rx,0,7,4F,FF,FD,00,00,FF,F1,00,
2418216,000000CE,false,Rx,0,8,00,00,00,00,00,00,00,00,
2418407,000000B6,false,Rx,0,5,45,06,80,00,08,00,00,00,
2418696,0000019E,false,Rx,0,8,00,EA,4F,FC,FE,20,00,F5,
2418954,000001A0,false,Rx,0,8,00,80,00,C0,FF,0F,60,52,
2419213,000002B2,false,Rx,0,8,00,00,00,00,3F,00,00,04,
2422371,000000A8,false,Rx,0,8,7C,FE,F8,00,00,0C,CF,00,
2422601,000000A9,false,Rx,0,8,6B,0E,8F,8F,0C,8F,FF,F8,
2422849,000000AA,false,Rx,0,8,97,FE,F8,00,00,00,F4,00,
2427989,000000C4,false,Rx,0,7,4F,FF,FD,00,00,FF,F1,00,
2432360,000000A8,false,Rx,0,8,6E,F0,F8,00,00,0C,CF,00,
2432590,000000A9,false,Rx,0,8,5D,00,8F,8F,0C,8F,FF,F8,
2432837,000000AA,false,Rx,0,8,89,F0,F8,00,00,00,F4,00,
2437292,000001B4,false,Rx,0,8,00,D0,FF,F8,FC,FE,FE,7A,
2438000,000000C4,false,Rx,0,7,4F,FF,FD,00,00,FF,F1,00,
2438247,000000CE,false,Rx,0,8,00,00,00,00,00,00,00,00,
2438438,000000B6,false,Rx,0,5,46,07,80,00,08,00,00,00,
2438727,0000019E,false,Rx,0,8,00,EA,4F,FC,FE,20,00,F5,
2438987,000001A0,false,Rx,0,8,00,80,00,C0,FF,12,70,65,
2439244,000002B2,false,Rx,0,8,00,00,00,00,4F,00,00,04,
2442379,000000A8,false,Rx,0,8,6F,F1,F8,00,00,0C,CF,00,
2442609,000000A9,false,Rx,0,8,5E,01,8F,8F,0C,8F,FF,F8,
2442856,000000AA,false,Rx,0,8,8A,F1,F8,00,00,00,F4,00,
2447928,000000C4,false,Rx,0,7,4F,FF,FD,00,00,FF,F1,00,
2450225,000004B0,false,Rx,0,8,00,52,FE,01,FF,FF,FF,FF,
2452374,000000A8,false,Rx,0,8,70,F2,F8,00,00,0C,CF,00,
2452615,000000A9,false,Rx,0,8,5F,02,8F,8F,0C,8F,FF,F8,
2452851,000000AA,false,Rx,0,8,8B,F2,F8,00,00,00,F4,00,
2457945,000000C4,false,Rx,0,7,4F,FF,FD,00,00,FF,F1,00,
2458188,000000CE,false,Rx,0,8,00,00,00,00,00,00,00,00,
2458379,000000B6,false,Rx,0,5,47,08,80,00,08,00,00,00,
2458657,0000019E,false,Rx,0,8,00,EA,4F,FC,FE,20,00,F5,
2458915,000001A0,false,Rx,0,8,00,80,00,A0,FF,12,80,55,
2459174,000002B2,false,Rx,0,8,00,00,00,00,4F,00,00,04,
2462388,000000A8,false,Rx,0,8,71,F3,F8,00,00,0C,CF,00,
2462629,000000A9,false,Rx,0,8,60,03,8F,8F,0C,8F,FF,F8,
2462865,000000AA,false,Rx,0,8,8C,F3,F8,00,00,00,F4,00,
2467961,000000C4,false,Rx,0,7,4F,FF,FD,00,00,FF,F1,00,
2468204,000005F8,false,Rx,0,8,08,08,00,00,FF,FF,FF,FF,
2471073,00000130,false,Rx,0,5,41,40,21,0F,33,00,00,00,
2472367,000000A8,false,Rx,0,8,72,F4,F8,00,00,0C,CF,00,
2472602,000000A9,false,Rx,0,8,61,04,8F,8F,0C,8F,FF,F8,
2472838,000000AA,false,Rx,0,8,8D,F4,F8,00,00,00,F4,00,
2478020,000000C4,false,Rx,0,7,4F,FF,FD,00,00,FF,F1,00,
2478273,000000CE,false,Rx,0,8,00,00,00,00,00,00,00,00,
2478453,000000B6,false,Rx,0,5,48,09,80,00,08,00,00,00,
2478753,0000019E,false,Rx,0,8,00,EA,4F,FC,FE,20,00,F5,
2479002,000001A0,false,Rx,0,8,00,80,00,C0,FF,12,90,85,
2479270,000002B2,false,Rx,0,8,00,00,00,00,4F,00,00,04,
2482394,000000A8,false,Rx,0,8,73,F5,F8,00,00,0C,CF,00,
2482624,000000A9,false,Rx,0,8,62,05,8F,8F,0C,8F,FF,F8,
2482871,000000AA,false,Rx,0,8,8E,F5,F8,00,00,00,F4,00,
2487989,000000C4,false,Rx,0,7,4F,FF,FD,00,00,FF,F1,00,
2492340,000000A8,false,Rx,0,8,74,F6,F8,00,00,0C,CF,00,
2492570,000000A9,false,Rx,0,8,63,06,8F,8F,0C,8F,FF,F8,
2492817,000000AA,false,Rx,0,8,8F,F6,F8,00,00,00,F4,00,
2493053,000001D0,false,Rx,0,8,3C,08,0C,C6,00,00,0D,AE,
2497972,000000C4,false,Rx,0,7,4F,FF,FD,00,00,FF,F1,00,
2498227,000000CE,false,Rx,0,8,00,00,00,00,00,00,00,00,
2498406,000000B6,false,Rx,0,5,49,0A,80,00,08,00,00,00,
2498729,0000019E,false,Rx,0,8,00,EA,4F,FC,FE,20,00,F5,
2498988,000001A0,false,Rx,0,8,00,80,00,C0,FF,12,A0,95,
2499256,000001A6,false,Rx,0,8,00,00,00,00,00,00,00,F6,
2499513,000002B2,false,Rx,0,8,00,00,00,00,4F,00,00,04,
2502354,000000A8,false,Rx,0,8,75,F7,F8,00,00,0C,CF,00,
2502584,000000A9,false,Rx,0,8,64,07,8F,8F,0C,8F,FF,F8,
2502820,000000AA,false,Rx,0,8,90,F7,F8,00,00,00,F4,00,
2508050,000000C4,false,Rx,0,7,4F,FF,FD,00,00,FF,F1,00,
2508214,00000194,false,Rx,0,4,FB,FE,00,FC,00,00,00,00,
2512336,000000A8,false,Rx,0,8,76,F8,F8,00,00,0C,CF,00,
2512567,000000A9,false,Rx,0,8,65,08,8F,8F,0C,8F,FF,F8,
2512814,000000AA,false,Rx,0,8,91,F8,F8,00,00,00,F4,00,
2518000,000000C4,false,Rx,0,7,4F,FF,FD,00,00,FF,F1,00,
2518252,000000CE,false,Rx,0,8,00,00,00,00,00,00,00,00,
2518432,000000B6,false,Rx,0,5,4A,0B,80,00,08,00,00,00,
2518745,0000019E,false,Rx,0,8,00,EA,4F,FC,FE,20,00,F5,
2518991,000001A0,false,Rx,0,8,00,80,00,A0,FF,12,B0,85,
2519259,000002B2,false,Rx,0,8,00,00,00,00,4F,00,00,04,
2522350,000000A8,false,Rx,0,8,77,F9,F8,00,00,0C,CF,00,
2522581,000000A9,false,Rx,0,8,66,09,8F,8F,0C,8F,FF,F8,
2522828,000000AA,false,Rx,0,8,92,F9,F8,00,00,00,F4,00,
2528014,000000C4,false,Rx,0,7,4F,FF,FD,00,00,FF,F1,00,
2532339,000000A8,false,Rx,0,8,78,FA,F8,00,00,0C,CF,00,
2532571,000000A9,false,Rx,0,8,67,0A,8F,8F,0C,8F,FF,F8,
2532817,000000AA,false,Rx,0,8,93,FA,F8,00,00,00,F4,00,
2536901,00000480,false,Rx,0,8,12,42,FD,01,FF,FF,FF,FF,
2537300,000001B4,false,Rx,0,8,00,D0,FF,F9,FC,FE,FE,7B,
2538023,000000C4,false,Rx,0,7,4F,FF,FD,00,00,FF,F1,00,
2538280,000000CE,false,Rx,0,8,00,00,00,00,00,00,00,00,
2538459,000000B6,false,Rx,0,5,4B,0C,80,00,08,00,00,00,
2538750,0000019E,false,Rx,0,8,00,EA,4F,FC,FE,20,00,F5,
2539011,000001A0,false,Rx,0,8,00,80,00,C0,FF,12,C0,B5,
2539279,000002B2,false,Rx,0,8,00,00,00,00,4F,00,00,04,
2542350,000000A8,false,Rx,0,8,79,FB,F8,00,00,0C,CF,00,
2542586,000000A9,false,Rx,0,8,68,0B,8F,8F,0C,8F,FF,F8,
2542832,000000AA,false,Rx,0,8,94,FB,F8,00,00,00,F4,00,
2547924,000000C4,false,Rx,0,7,4F,FF,FD,00,00,FF,F1,00,
2552353,000000A8,false,Rx,0,8,7A,FC,F8,00,00,0C,CF,00,
2552596,000000A9,false,Rx,0,8,69,0C,8F,8F,0C,8F,FF,F8,
2552831,000000AA,false,Rx,0,8,95,FC,F8,00,00,00,F4,00,
2557937,000000C4,false,Rx,0,7,4F,FF,FD,00,00,FF,F1,00,
2558180,000000CE,false,Rx,0,8,00,00,00,00,00,00,00,00,
2558370,000000B6,false,Rx,0,5,4C,0D,80,00,08,00,00,00,
2558649,0000019E,false,Rx,0,8,00,EA,4F,FC,FE,20,00,F5,
2558907,000001A0,false,Rx,0,8,00,80,00,C0,FF,12,D0,C5,
2559165,000002B2,false,Rx,0,8,00,00,00,00,4F,00,00,04,
2561079,000001FB,false,Rx,0,2,F6,FF,00,00,00,00,00,00,
2562293,000000A8,false,Rx,0,8,7B,FD,F8,00,00,0C,CF,00,
2562529,000000A9,false,Rx,0,8,6A,0D,8F,8F,0C,8F,FF,F8,
2562764,000000AA,false,Rx,0,8,96,FD,F8,00,00,00,F4,00,
2567933,000000C4,false,Rx,0,7,4F,FF,FD,00,00,FF,F1,00,
2570620,00000130,false,Rx,0,5,41,40,21,0F,44,00,00,00,
2572346,000000A8,false,Rx,0,8,7C,FE,F8,00,00,0C,CF,00,
2572582,000000A9,false,Rx,0,8,6B,0E,8F,8F,0C,8F,FF,F8,
2572826,000000AA,false,Rx,0,8,97,FE,F8,00,00,00,F4,00,
2577982,000000C4,false,Rx,0,7,4F,FF,FD,00,00,FF,F1,00,
2578224,000000CE,false,Rx,0,8,00,00,00,00,00,00,00,00,
2578415,000000B6,false,Rx,0,5,4D,0E,80,00,08,00,00,00,
2578705,0000019E,false,Rx,0,8,00,EA,4F,FC,FE,20,00,F5,
2578962,000001A0,false,Rx,0,8,00,80,00,C0,FF,12,E0,D5,
2579220,000002B2,false,Rx,0,8,00,00,00,00,4F,00,00,04,
2582344,000000A8,false,Rx,0,8,6E,F0,F8,00,00,0C,CF,00,
2582576,000000A9,false,Rx,0,8,5D,00,8F,8F,0C,8F,FF,F8,
2582822,000000AA,false,Rx,0,8,89,F0,F8,00,00,00,F4,00,
2587951,000000C4,false,Rx,0,7,4F,FF,FD,00,00,FF,F1,00,
2592355,000000A8,false,Rx,0,8,6F,F1,F8,00,00,0C,CF,00,
2592587,000000A9,false,Rx,0,8,5E,01,8F,8F,0C,8F,FF,F8,
2592822,000000AA,false,Rx,0,8,8A,F1,F8,00,00,00,F4,00,
2593069,000001D0,false,Rx,0,8,3C,08,0D,C6,00,00,0D,AE,
2597946,000000C4,false,Rx,0,7,4F,FF,FD,00,00,FF,F1,00,
2598199,000000CE,false,Rx,0,8,00,00,00,00,00,00,00,00,
2598379,000000B6,false,Rx,0,5,3F,00,80,00,08,00,00,00,
2598591,000000C8,false,Rx,0,6,4F,FF,21,00,00,AC,00,00,
2598826,0000019E,false,Rx,0,8,00,EA,5F,FC,FE,20,00,06,
2599085,000001A0,false,Rx,0,8,00,80,00,C0,FF,12,00,F4,
2599341,000001A6,false,Rx,0,8,00,00,00,00,00,00,90,F7,
2599611,000002B2,false,Rx,0,8,00,00,00,00,4F,00,00,04,
2602341,000000A8,false,Rx,0,8,70,F2,F8,00,00,0C,CF,00,
2602584,000000A9,false,Rx,0,8,5F,02,8F,8F,0C,8F,FF,F8,
2602819,000000AA,false,Rx,0,8,8B,F2,F8,00,00,00,F4,00,
2607995,000000C4,false,Rx,0,7,4F,FF,FD,00,00,FF,F1,00,
2612354,000000A8,false,Rx,0,8,71,F3,F8,00,00,0C,CF,00,
2612585,000000A9,false,Rx,0,8,60,03,8F,8F,0C,8F,FF,F8,
2612831,000000AA,false,Rx,0,8,8C,F3,F8,00,00,00,F4,00,
2617960,000000C4,false,Rx,0,7,4F,FF,FD,00,00,FF,F1,00,
2618213,000000CE,false,Rx,0,8,00,00,00,00,00,00,00,00,
2618393,000000B6,false,Rx,0,5,40,01,80,00,08,00,00,00,
2618672,0000019E,false,Rx,0,8,00,EA,5F,FC,FE,20,00,06,
2618929,000001A0,false,Rx,0,8,00,80,00,A0,FF,12,10,E4,
2619198,000002B2,false,Rx,0,8,00,00,00,00,4F,00,00,04,
2622356,000000A8,false,Rx,0,8,72,F4,F8,00,00,0C,CF,00,
2622587,000000A9,false,Rx,0,8,61,04,8F,8F,0C,8F,FF,F8,
2622822,000000AA,false,Rx,0,8,8D,F4,F8,00,00,00,F4,00,
2626638,0000034F,false,Rx,0,2,FE,FF,00,00,00,00,00,00,
2627975,000000C4,false,Rx,0,7,4F,FF,FD,00,00,FF,F1,00,
2632349,000000A8,false,Rx,0,8,73,F5,F8,00,00,0C,CF,00,
2632580,000000A9,false,Rx,0,8,62,05,8F,8F,0C,8F,FF,F8,
2632826,000000AA,false,Rx,0,8,8E,F5,F8,00,00,00,F4,00,
2637327,000001B4,false,Rx,0,8,00,D0,FF,FA,FC,FE,FE,7C,
2637991,000000C4,false,Rx,0,7,4F,FF,FD,00,00,FF,F1,00,
2638247,000000CE,false,Rx,0,8,00,00,00,00,00,00,00,00,
2638427,000000B6,false,Rx,0,5,41,02,80,00,08,00,00,00,
2638717,0000019E,false,Rx,0,8,00,EA,5F,FC,FE,20,00,06,
2638987,000001A0,false,Rx,0,8,00,80,00,C0,FF,12,20,15,
2639244,000002B2,false,Rx,0,8,00,00,00,00,4F,00,00,04,
2642345,00000492,false,Rx,0,8,17,52,FF,FF,FF,FF,FF,FF,
2642587,000000A8,false,Rx,0,8,74,F6,F8,00,00,0C,CF,00,
2642822,000000A9,false,Rx,0,8,63,06,8F,8F,0C,8F,FF,F8,
2643058,000000AA,false,Rx,0,8,8F,F6,F8,00,00,00,F4,00,
2647935,000000C4,false,Rx,0,7,4F,FF,FD,00,00,FF,F1,00,
2650859,000002FC,false,Rx,0,7,80,00,00,FF,FF,FF,FF,00,
2652341,000000A8,false,Rx,0,8,75,F7,F8,00,00,0C,CF,00,
2652566,000000A9,false,Rx,0,8,64,07,8F,8F,0C,8F,FF,F8,
2652811,000000AA,false,Rx,0,8,90,F7,F8,00,00,00,F4,00,
2654090,000002F6,false,Rx,0,2,00,F5,00,00,00,00,00,00,
2657922,000000C4,false,Rx,0,7,4F,FF,FD,00,00,FF,F1,00,
2658175,000000CE,false,Rx,0,8,00,00,00,00,00,00,00,00,
2658355,000000B6,false,Rx,0,5,42,03,80,00,08,00,00,00,
2658634,0000019E,false,Rx,0,8,00,EA,5F,FC,FE,20,00,06,
2658902,000001A0,false,Rx,0,8,00,80,00,C0,FF,12,30,25,
2659160,000002B2,false,Rx,0,8,00,00,00,00,4F,00,00,04,
2662353,000000A8,false,Rx,0,8,76,F8,F8,00,00,0C,CF,00,
2662584,000000A9,false,Rx,0,8,65,08,8F,8F,0C,8F,FF,F8,
2662819,000000AA,false,Rx,0,8,91,F8,F8,00,00,00,F4,00,
2667925,000000C4,false,Rx,0,7,4F,FF,FD,00,00,FF,F1,00,
2670972,00000130,false,Rx,0,5,41,40,21,0F,55,00,00,00,
2672343,000000A8,false,Rx,0,8,77,F9,F8,00,00,0C,CF,00,
2672568,000000A9,false,Rx,0,8,66,09,8F,8F,0C,8F,FF,F8,
2672814,000000AA,false,Rx,0,8,92,F9,F8,00,00,00,F4,00,
2677997,000000C4,false,Rx,0,7,4F,FF,FD,00,00,FF,F1,00,
2678249,000000CE,false,Rx,0,8,00,00,00,00,00,00,00,00,
2678428,000000B6,false,Rx,0,5,43,04,80,00,08,00,00,00,
2678730,0000019E,false,Rx,0,8,00,EA,5F,FC,FE,20,00,06,
2678988,000001A0,false,Rx,0,8,00,80,00,A0,FF,0F,40,12,
2679245,000002B2,false,Rx,0,8,00,00,00,00,3F,00,00,04,
2682348,000000A8,false,Rx,0,8,78,FA,F8,00,00,0C,CF,00,
2682589,000000A9,false,Rx,0,8,67,0A,8F,8F,0C,8F,FF,F8,
2682824,000000AA,false,Rx,0,8,93,FA,F8,00,00,00,F4,00,
2687964,000000C4,false,Rx,0,7,4F,FF,FD,00,00,FF,F1,00,
2692369,000000A8,false,Rx,0,8,79,FB,F8,00,00,0C,CF,00,
2692600,000000A9,false,Rx,0,8,68,0B,8F,8F,0C,8F,FF,F8,
2692845,000000AA,false,Rx,0,8,94,FB,F8,00,00,00,F4,00,
2693094,000001D0,false,Rx,0,8,3C,08,0D,C6,00,00,0D,AE,
2697934,000000C4,false,Rx,0,7,4F,FF,FD,00,00,FF,F1,00,
2698187,000000CE,false,Rx,0,8,00,00,00,00,00,00,00,00,
2698378,000000B6,false,Rx,0,5,44,05,80,00,08,00,00,00,
2698702,0000019E,false,Rx,0,8,00,EA,5F,FC,FE,20,00,06,
2698959,000001A0,false,Rx,0,8,00,80,00,A0,FF,12,50,25,
2699229,000001A6,false,Rx,0,8,00,00,00,00,00,00,20,F9,
2699486,000002B2,false,Rx,0,8,00,00,00,00,4F,00,00,04,
2702394,000000A8,false,Rx,0,8,7A,FC,F8,00,00,0C,CF,00,
2702635,000000A9,false,Rx,0,8,69,0C,8F,8F,0C,8F,FF,F8,
2702870,000000AA,false,Rx,0,8,95,FC,F8,00,00,00,F4,00,
2708021,000000C4,false,Rx,0,7,4F,FF,FD,00,00,FF,F1,00,
2708185,00000194,false,Rx,0,4,ED,F0,00,FC,00,00,00,00,
2712375,000000A8,false,Rx,0,8,7B,FD,F8,00,00,0C,CF,00,
2712605,000000A9,false,Rx,0,8,6A,0D,8F,8F,0C,8F,FF,F8,
2712851,000000AA,false,Rx,0,8,96,FD,F8,00,00,00,F4,00,
2717969,000000C4,false,Rx,0,7,4F,FF,FD,00,00,FF,F1,00,
2718222,000000CE,false,Rx,0,8,00,00,00,00,00,00,00,00,
2718402,000000B6,false,Rx,0,5,45,06,80,00,08,00,00,00,
2718703,0000019E,false,Rx,0,8,00,EA,5F,FC,FE,20,00,06,
2718960,000001A0,false,Rx,0,8,00,80,00,C0,FF,12,60,55,
2719219,000002B2,false,Rx,0,8,00,00,00,00,4F,00,00,04,
2722377,000000A8,false,Rx,0,8,7C,FE,F8,00,00,0C,CF,00,
2722607,000000A9,false,Rx,0,8,6B,0E,8F,8F,0C,8F,FF,F8,
2722853,000000AA,false,Rx,0,8,97,FE,F8,00,00,00,F4,00,
2728005,000000C4,false,Rx,0,7,4F,FF,FD,00,00,FF,F1,00,
2732355,000000A8,false,Rx,0,8,6E,F0,F8,00,00,0C,CF,00,
2732596,000000A9,false,Rx,0,8,5D,00,8F,8F,0C,8F,FF,F8,
2732831,000000AA,false,Rx,0,8,89,F0,F8,00,00,00,F4,00,
2733079,00000497,false,Rx,0,8,29,52,FF,FF,FF,FF,FF,FF,
2737314,000001B4,false,Rx,0,8,00,D0,FF,FB,FC,FE,FE,7D,
2738077,000000C4,false,Rx,0,7,4F,FF,FD,00,00,FF,F1,00,
2738322,000000CE,false,Rx,0,8,00,00,00,00,00,00,00,00,
2738514,000000B6,false,Rx,0,5,46,07,80,00,08,00,00,00,
2738814,0000019E,false,Rx,0,8,00,EA,5F,FC,FE,20,00,06,
2739083,000001A0,false,Rx,0,8,00,80,00,A0,FF,12,70,45,
2739342,000002B2,false,Rx,0,8,00,00,00,00,4F,00,00,04,
2742377,000000A8,false,Rx,0,8,6F,F1,F8,00,00,0C,CF,00,
2742607,000000A9,false,Rx,0,8,5E,01,8F,8F,0C,8F,FF,F8,
2742842,000000AA,false,Rx,0,8,8A,F1,F8,00,00,00,F4,00,
2747971,000000C4,false,Rx,0,7,4F,FF,FD,00,00,FF,F1,00,
2750267,000001FB,false,Rx,0,2,F7,FF,00,00,00,00,00,00,
2752348,000000A8,false,Rx,0,8,70,F2,F8,00,00,0C,CF,00,
2752578,000000A9,false,Rx,0,8,5F,02,8F,8F,0C,8F,FF,F8,
2752813,000000AA,false,Rx,0,8,8B,F2,F8,00,00,00,F4,00,
2757975,000000C4,false,Rx,0,7,4F,FF,FD,00,00,FF,F1,00,
2758228,000000CE,false,Rx,0,8,00,00,00,00,00,00,00,00,
2758409,000000B6,false,Rx,0,5,47,08,80,00,08,00,00,00,
2758709,0000019E,false,Rx,0,8,00,EA,5F,FC,FE,20,00,06,
2758966,000001A0,false,Rx,0,8,00,80,00,C0,FF,12,80,75,
2759225,000002B2,false,Rx,0,8,00,00,00,00,4F,00,00,04,
2762394,000000A8,false,Rx,0,8,71,F3,F8,00,00,0C,CF,00,
2762625,000000A9,false,Rx,0,8,60,03,8F,8F,0C,8F,FF,F8,
2762871,000000AA,false,Rx,0,8,8C,F3,F8,00,00,00,F4,00,
2767979,000000C4,false,Rx,0,7,4F,FF,FD,00,00,FF,F1,00,
2770657,00000130,false,Rx,0,5,41,40,21,0F,66,00,00,00,
2772350,000000A8,false,Rx,0,8,72,F4,F8,00,00,0C,CF,00,
2772584,000000A9,false,Rx,0,8,61,04,8F,8F,0C,8F,FF,F8,
2772828,000000AA,false,Rx,0,8,8D,F4,F8,00,00,00,F4,00,
2778020,000000C4,false,Rx,0,7,4F,FF,FD,00,00,FF,F1,00,
2778272,000000CE,false,Rx,0,8,00,00,00,00,00,00,00,00,
2778453,000000B6,false,Rx,0,5,48,09,80,00,08,00,00,00,
2778753,0000019E,false,Rx,0,8,00,EA,5F,FC,FE,20,00,06,
2779011,000001A0,false,Rx,0,8,00,80,00,C0,FF,12,90,85,
2779269,000002B2,false,Rx,0,8,00,00,00,00,4F,00,00,04,
2782382,000000A8,false,Rx,0,8,73,F5,F8,00,00,0C,CF,00,
2782612,000000A9,false,Rx,0,8,62,05,8F,8F,0C,8F,FF,F8,
2782858,000000AA,false,Rx,0,8,8E,F5,F8,00,00,00,F4,00,
2787999,000000C4,false,Rx,0,7,4F,FF,FD,00,00,FF,F1,00,
2792348,000000A8,false,Rx,0,8,74,F6,F8,00,00,0C,CF,00,
2792578,000000A9,false,Rx,0,8,63,06,8F,8F,0C,8F,FF,F8,
2792813,000000AA,false,Rx,0,8,8F,F6,F8,00,00,00,F4,00,
2793062,000001D0,false,Rx,0,8,3C,08,0E,C6,00,00,0D,AE,
2797970,000000C4,false,Rx,0,7,4F,FF,FD,00,00,FF,F1,00,
2798224,000000CE,false,Rx,0,8,00,00,00,00,00,00,00,00,
2798405,000000B6,false,Rx,0,5,49,0A,80,00,08,00,00,00,
2798606,000000C8,false,Rx,0,6,4F,FF,71,00,00,CC,00,00,
2798851,0000019E,false,Rx,0,8,00,EA,6F,FC,FE,20,00,16,
2799111,000001A0,false,Rx,0,8,00,80,00,C0,FF,12,A0,95,
2799379,000001A6,false,Rx,0,8,00,00,00,00,00,00,B0,FA,
2799636,000002B2,false,Rx,0,8,00,00,00,00,4F,00,00,04,
2802368,000000A8,false,Rx,0,8,75,F7,F8,00,00,0C,CF,00,
2802598,000000A9,false,Rx,0,8,64,07,8F,8F,0C,8F,FF,F8,
2802833,000000AA,false,Rx,0,8,90,F7,F8,00,00,00,F4,00,
2807997,000000C4,false,Rx,0,7,4F,FF,FD,00,00,FF,F1,00,
2812346,000000A8,false,Rx,0,8,76,F8,F8,00,00,0C,CF,00,
2812576,000000A9,false,Rx,0,8,65,08,8F,8F,0C,8F,FF,F8,
2812811,000000AA,false,Rx,0,8,91,F8,F8,00,00,00,F4,00,
2817962,000000C4,false,Rx,0,7,4F,FF,FD,00,00,FF,F1,00,
2818215,000000CE,false,Rx,0,8,00,00,00,00,00,00,00,00,
2818407,000000B6,false,Rx,0,5,4A,0B,80,00,08,00,00,00,
2818707,0000019E,false,Rx,0,8,00,EA,6F,FC,FE,20,00,16,
2818964,000001A0,false,Rx,0,8,00,80,00,A0,FF,12,B0,85,
2819223,000002B2,false,Rx,0,8,00,00,00,00,4F,00,00,04,
2819491,000004A9,false,Rx,0,8,30,52,FF,FF,FF,FF,FF,FF,
2822365,000000A8,false,Rx,0,8,77,F9,F8,00,00,0C,CF,00,
2822595,000000A9,false,Rx,0,8,66,09,8F,8F,0C,8F,FF,F8,
2822841,000000AA,false,Rx,0,8,92,F9,F8,00,00,00,F4,00,
2827993,000000C4,false,Rx,0,7,4F,FF,FD,00,00,FF,F1,00,
2832342,000000A8,false,Rx,0,8,78,FA,F8,00,00,0C,CF,00,
2832572,000000A9,false,Rx,0,8,67,0A,8F,8F,0C,8F,FF,F8,
2832818,000000AA,false,Rx,0,8,93,FA,F8,00,00,00,F4,00,
2837319,000001B4,false,Rx,0,8,00,D0,FF,FC,FC,FE,FE,7E,
2838016,000000C4,false,Rx,0,7,4F,FF,FD,00,00,FF,F1,00,
2838263,000000CE,false,Rx,0,8,00,00,00,00,00,00,00,00,
2838442,000000B6,false,Rx,0,5,4B,0C,80,00,08,00,00,00,
2838743,0000019E,false,Rx,0,8,00,EA,6F,FC,FE,20,00,16,
2839002,000001A0,false,Rx,0,8,00,80,00,A0,FF,12,C0,95,
2839259,000002B2,false,Rx,0,8,00,00,00,00,4F,00,00,04,
2842350,000000A8,false,Rx,0,8,79,FB,F8,00,00,0C,CF,00,
2842580,000000A9,false,Rx,0,8,68,0B,8F,8F,0C,8F,FF,F8,
2842826,000000AA,false,Rx,0,8,94,FB,F8,00,00,00,F4,00,
2847933,000000C4,false,Rx,0,7,4F,FF,FD,00,00,FF,F1,00,
2852352,000000A8,false,Rx,0,8,7A,FC,F8,00,00,0C,CF,00,
2852582,000000A9,false,Rx,0,8,69,0C,8F,8F,0C,8F,FF,F8,
2852817,000000AA,false,Rx,0,8,95,FC,F8,00,00,00,F4,00,
2857934,000000C4,false,Rx,0,7,4F,FF,FD,00,00,FF,F1,00,
2858187,000000CE,false,Rx,0,8,00,00,00,00,00,00,00,00,
2858368,000000B6,false,Rx,0,5,4C,0D,80,00,08,00,00,00,
2858657,0000019E,false,Rx,0,8,00,EA,6F,FC,FE,20,00,16,
2858914,000001A0,false,Rx,0,8,00,80,00,A0,FF,12,D0,A5,
2859174,000002B2,false,Rx,0,8,00,00,00,00,4F,00,00,04,
2862343,000000A8,false,Rx,0,8,7B,FD,F8,00,00,0C,CF,00,
2862584,000000A9,false,Rx,0,8,6A,0D,8F,8F,0C,8F,FF,F8,
2862820,000000AA,false,Rx,0,8,96,FD,F8,00,00,00,F4,00,
2867936,000000C4,false,Rx,0,7,4F,FF,FD,00,00,FF,F1,00,
2868134,000002FA,false,Rx,0,5,FC,00,FF,FF,FF,00,00,00,
2868491,000002F1,false,Rx,0,3,E8,F7,FC,00,00,00,00,00,
2870783,00000130,false,Rx,0,5,41,40,21,0F,77,00,00,00,
2872343,000000A8,false,Rx,0,8,7C,FE,F8,00,00,0C,CF,00,
2872578,000000A9,false,Rx,0,8,6B,0E,8F,8F,0C,8F,FF,F8,
2872814,000000AA,false,Rx,0,8,97,FE,F8,00,00,00,F4,00,
2877995,000000C4,false,Rx,0,7,4F,FF,FD,00,00,FF,F1,00,
2878249,000000CE,false,Rx,0,8,00,00,00,00,00,00,00,00,
2878428,000000B6,false,Rx,0,5,4D,0E,80,00,08,00,00,00,
2878729,0000019E,false,Rx,0,8,00,EA,6F,FC,FE,20,00,16,
2878988,000001A0,false,Rx,0,8,00,80,00,C0,FF,0F,E0,D2,
2879256,000002B2,false,Rx,0,8,00,00,00,00,3F,00,00,04,
2882348,000000A8,false,Rx,0,8,6E,F0,F8,00,00,0C,CF,00,
2882578,000000A9,false,Rx,0,8,5D,00,8F,8F,0C,8F,FF,F8,
2882825,000000AA,false,Rx,0,8,89,F0,F8,00,00,00,F4,00,
2887964,000000C4,false,Rx,0,7,4F,FF,FD,00,00,FF,F1,00,
2892340,000000A8,false,Rx,0,8,6F,F1,F8,00,00,0C,CF,00,
2892571,000000A9,false,Rx,0,8,5E,01,8F,8F,0C,8F,FF,F8,
2892818,000000AA,false,Rx,0,8,8A,F1,F8,00,00,00,F4,00,
2893054,000001D0,false,Rx,0,8,3C,08,0E,C6,00,00,0D,AE,
2897950,000000C4,false,Rx,0,7,4F,FF,FD,00,00,FF,F1,00,
2898204,000000CE,false,Rx,0,8,00,00,00,00,00,00,00,00,
2898384,000000B6,false,Rx,0,5,3F,00,80,00,08,00,00,00,
2898717,0000019E,false,Rx,0,8,00,EA,6F,FC,FE,20,00,16,
2898976,000001A0,false,Rx,0,8,00,80,00,C0,FF,12,00,F4,
2899234,000001A6,false,Rx,0,8,00,00,00,00,00,00,40,FC,
2899502,000002B2,false,Rx,0,8,00,00,00,00,4F,00,00,04,
2902342,000000A8,false,Rx,0,8,70,F2,F8,00,00,0C,CF,00,
2902584,000000A9,false,Rx,0,8,5F,02,8F,8F,0C,8F,FF,F8,
2902820,000000AA,false,Rx,0,8,8B,F2,F8,00,00,00,F4,00,
2908015,000000C4,false,Rx,0,7,4F,FF,FD,00,00,FF,F1,00,
2908180,00000194,false,Rx,0,4,EE,F1,00,FC,00,00,00,00,
2910127,000004B0,false,Rx,0,8,00,52,FE,01,FF,FF,FF,FF,
2912341,000000A8,false,Rx,0,8,71,F3,F8,00,00,0C,CF,00,
2912576,000000A9,false,Rx,0,8,60,03,8F,8F,0C,8F,FF,F8,
2912823,000000AA,false,Rx,0,8,8C,F3,F8,00,00,00,F4,00,
2917992,000000C4,false,Rx,0,7,4F,FF,FD,00,00,FF,F1,00,
2918245,000000CE,false,Rx,0,8,00,00,00,00,00,00,00,00,
2918424,000000B6,false,Rx,0,5,40,01,80,00,08,00,00,00,
2918725,0000019E,false,Rx,0,8,00,EA,6F,FC,FE,20,00,16,
2918972,000001A0,false,Rx,0,8,00,80,00,A0,FF,0F,10,E1,
2919241,000002B2,false,Rx,0,8,00,00,00,00,3F,00,00,04,
2922344,000000A8,false,Rx,0,8,72,F4,F8,00,00,0C,CF,00,
2922574,000000A9,false,Rx,0,8,61,04,8F,8F,0C,8F,FF,F8,
2922821,000000AA,false,Rx,0,8,8D,F4,F8,00,00,00,F4,00,
2928007,000000C4,false,Rx,0,7,4F,FF,FD,00,00,FF,F1,00,
2932356,000000A8,false,Rx,0,8,73,F5,F8,00,00,0C,CF,00,
2932586,000000A9,false,Rx,0,8,62,05,8F,8F,0C,8F,FF,F8,
2932833,000000AA,false,Rx,0,8,8E,F5,F8,00,00,00,F4,00,
2937334,000001B4,false,Rx,0,8,00,D0,FF,FD,FC,FE,FE,7F,
2938007,000000C4,false,Rx,0,7,4F,FF,FD,00,00,FF,F1,00,
2938254,000000CE,false,Rx,0,8,00,00,00,00,00,00,00,00,
2938445,000000B6,false,Rx,0,5,41,02,80,00,08,00,00,00,
2938734,0000019E,false,Rx,0,8,00,EA,6F,FC,FE,20,00,16,
2939004,000001A0,false,Rx,0,8,00,80,00,A0,FF,0F,20,F1,
2939261,000002B2,false,Rx,0,8,00,00,00,00,3F,00,00,04,
2941098,000001FB,false,Rx,0,2,F8,FF,00,00,00,00,00,00,
2942346,000000A8,false,Rx,0,8,74,F6,F8,00,00,0C,CF,00,
2942581,000000A9,false,Rx,0,8,63,06,8F,8F,0C,8F,FF,F8,
2942828,000000AA,false,Rx,0,8,8F,F6,F8,00,00,00,F4,00,
2947948,000000C4,false,Rx,0,7,4F,FF,FD,00,00,FF,F1,00,
2951346,00000310,false,Rx,0,7,6E,18,05,00,00,42,20,00,
2952340,000000A8,false,Rx,0,8,75,F7,F8,00,00,0C,CF,00,
2952575,000000A9,false,Rx,0,8,64,07,8F,8F,0C,8F,FF,F8,
2952811,000000AA,false,Rx,0,8,90,F7,F8,00,00,00,F4,00,
2957975,000000C4,false,Rx,0,7,4F,FF,FD,00,00,FF,F1,00,
2958219,000000CE,false,Rx,0,8,00,00,00,00,00,00,00,00,
2958409,000000B6,false,Rx,0,5,42,03,80,00,08,00,00,00,
2958721,0000019E,false,Rx,0,8,00,EA,6F,FC,FE,20,00,16,
2958979,000001A0,false,Rx,0,8,00,80,00,A0,FF,12,30,05,
2959237,000002B2,false,Rx,0,8,00,00,00,00,4F,00,00,04,
2962350,000000A8,false,Rx,0,8,76,F8,F8,00,00,0C,CF,00,
2962580,000000A9,false,Rx,0,8,65,08,8F,8F,0C,8F,FF,F8,
2962827,000000AA,false,Rx,0,8,91,F8,F8,00,00,00,F4,00,
2967934,000000C4,false,Rx,0,7,4F,FF,FD,00,00,FF,F1,00,
2970667,00000130,false,Rx,0,5,41,40,21,0F,88,00,00,00,
2972360,000000A8,false,Rx,0,8,77,F9,F8,00,00,0C,CF,00,
2972584,000000A9,false,Rx,0,8,66,09,8F,8F,0C,8F,FF,F8,
2972829,000000AA,false,Rx,0,8,92,F9,F8,00,00,00,F4,00,
2977983,000000C4,false,Rx,0,7,4F,FF,FD,00,00,FF,F1,00,
2978227,000000CE,false,Rx,0,8,00,00,00,00,00,00,00,00,
2978417,000000B6,false,Rx,0,5,43,04,80,00,08,00,00,00,
2978718,0000019E,false,Rx,0,8,00,EA,6F,FC,FE,20,00,16,
2978965,000001A0,false,Rx,0,8,00,80,00,D0,FF,12,40,45,
2979234,000002B2,false,Rx,0,8,00,00,00,00,4F,00,00,04,
2982348,000000A8,false,Rx,0,8,78,FA,F8,00,00,0C,CF,00,
2982578,000000A9,false,Rx,0,8,67,0A,8F,8F,0C,8F,FF,F8,
2982825,000000AA,false,Rx,0,8,93,FA,F8,00,00,00,F4,00,
2987953,000000C4,false,Rx,0,7,4F,FF,FD,00,00,FF,F1,00,
2992359,000000A8,false,Rx,0,8,79,FB,F8,00,00,0C,CF,00,
2992589,000000A9,false,Rx,0,8,68,0B,8F,8F,0C,8F,FF,F8,
2992837,000000AA,false,Rx,0,8,94,FB,F8,00,00,00,F4,00,
2993073,000001D0,false,Rx,0,8,3C,08,00,C6,00,00,0D,AE,
2996937,00000480,false,Rx,0,8,12,42,FD,01,FF,FF,FF,FF,
2997990,000000C4,false,Rx,0,7,4F,FF,FD,00,00,FF,F1,00,
2998236,000000CE,false,Rx,0,8,00,00,00,00,00,00,00,00,
2998427,000000B6,false,Rx,0,5,44,05,80,00,08,00,00,00,
2998628,000000C8,false,Rx,0,6,4F,FF,C1,00,00,EC,00,00,
2998874,0000019E,false,Rx,0,8,00,EA,6F,FC,FE,20,00,16,
2999124,000001A0,false,Rx,0,8,00,80,00,C0,FF,12,50,45,
2999393,000001A6,false,Rx,0,8,00,00,00,00,00,00,D0,FD,
2999651,000002B2,false,Rx,0,8,00,00,00,00,4F,00,00,04,
3002379,000000A8,false,Rx,0,8,7A,FC,F8,00,00,0C,CF,00,
3002615,000000A9,false,Rx,0,8,69,0C,8F,8F,0C,8F,FF,F8,
3002850,000000AA,false,Rx,0,8,95,FC,F8,00,00,00,F4,00,
3008033,000000C4,false,Rx,0,7,4F,FF,FD,00,00,FF,F1,00,
3012381,000000A8,false,Rx,0,8,7B,FD,F8,00,00,0C,CF,00,
3012612,000000A9,false,Rx,0,8,6A,0D,8F,8F,0C,8F,FF,F8,
3012858,000000AA,false,Rx,0,8,96,FD,F8,00,00,00,F4,00,
3018011,000000C4,false,Rx,0,7,4F,FF,FD,00,00,FF,F1,00,
3018263,000000CE,false,Rx,0,8,00,00,00,00,00,00,00,00,
3018443,000000B6,false,Rx,0,5,45,06,80,00,08,00,00,00,
3018733,0000019E,false,Rx,0,8,00,EA,7F,FC,FE,20,00,26,
3019002,000001A0,false,Rx,0,8,00,80,00,C0,FF,12,60,55,
3019259,000002B2,false,Rx,0,8,00,00,00,00,4F,00,00,04,
3022361,000000A8,false,Rx,0,8,7C,FE,F8,00,00,0C,CF,00,
3022592,000000A9,false,Rx,0,8,6B,0E,8F,8F,0C,8F,FF,F8,
3022827,000000AA,false,Rx,0,8,97,FE,F8,00,00,00,F4,00,
3028037,000000C4,false,Rx,0,7,4F,FF,FD,00,00,FF,F1,00,
3032362,000000A8,false,Rx,0,8,6E,F0,F8,00,00,0C,CF,00,
3032594,000000A9,false,Rx,0,8,5D,00,8F,8F,0C,8F,FF,F8,
3032839,000000AA,false,Rx,0,8,89,F0,F8,00,00,00,F4,00,
3037351,000001B4,false,Rx,0,8,00,D0,FF,FE,FC,FE,FE,80,
3038048,000000C4,false,Rx,0,7,4F,FF,FD,00,00,FF,F1,00,
3038304,000000CE,false,Rx,0,8,00,00,00,00,00,00,00,00,
3038495,000000B6,false,Rx,0,5,46,07,80,00,08,00,00,00,
3038786,0000019E,false,Rx,0,8,00,EA,7F,FC,FE,20,00,26,
3039043,000001A0,false,Rx,0,8,00,80,00,C0,FF,12,70,65,
3039300,000002B2,false,Rx,0,8,00,00,00,00,4F,00,00,04,
3042346,000000A8,false,Rx,0,8,6F,F1,F8,00,00,0C,CF,00,
3042589,000000A9,false,Rx,0,8,5E,01,8F,8F,0C,8F,FF,F8,
3042824,000000AA,false,Rx,0,8,8A,F1,F8,00,00,00,F4,00,
3047975,000000C4,false,Rx,0,7,4F,FF,FD,00,00,FF,F1,00,
3052301,000000A8,false,Rx,0,8,70,F2,F8,00,00,0C,CF,00,
3052532,000000A9,false,Rx,0,8,5F,02,8F,8F,0C,8F,FF,F8,
3052767,000000AA,false,Rx,0,8,8B,F2,F8,00,00,00,F4,00,
3057987,000000C4,false,Rx,0,7,4F,FF,FD,00,00,FF,F1,00,
3058239,000000CE,false,Rx,0,8,00,00,00,00,00,00,00,00,
3058418,000000B6,false,Rx,0,5,47,08,80,00,08,00,00,00,
3058709,0000019E,false,Rx,0,8,00,EA,7F,FC,FE,20,00,26,
3058966,000001A0,false,Rx,0,8,00,80,00,C0,FF,12,80,75,
3059235,000002B2,false,Rx,0,8,00,00,00,00,4F,00,00,04,
3062360,000000A8,false,Rx,0,8,71,F3,F8,00,00,0C,CF,00,
3062591,000000A9,false,Rx,0,8,60,03,8F,8F,0C,8F,FF,F8,
3062837,000000AA,false,Rx,0,8,8C,F3,F8,00,00,00,F4,00,
3067969,000000C4,false,Rx,0,7,4F,FF,FD,00,00,FF,F1,00,
3071936,00000130,false,Rx,0,5,41,40,21,0F,99,00,00,00,
3072343,000000A8,false,Rx,0,8,72,F4,F8,00,00,0C,CF,00,
3072579,000000A9,false,Rx,0,8,61,04,8F,8F,0C,8F,FF,F8,
3072825,000000AA,false,Rx,0,8,8D,F4,F8,00,00,00,F4,00,
3077997,000000C4,false,Rx,0,7,4F,FF,FD,00,00,FF,F1,00,
3078249,000000CE,false,Rx,0,8,00,00,00,00,00,00,00,00,
3078428,000000B6,false,Rx,0,5,48,09,80,00,08,00,00,00,
3078730,0000019E,false,Rx,0,8,00,EA,7F,FC,FE,20,00,26,
3078988,000001A0,false,Rx,0,8,00,80,00,A0,FF,12,90,65,
3079245,000002B2,false,Rx,0,8,00,00,00,00,4F,00,00,04,
3082369,000000A8,false,Rx,0,8,73,F5,F8,00,00,0C,CF,00,
3082601,000000A9,false,Rx,0,8,62,05,8F,8F,0C,8F,FF,F8,
3082847,000000AA,false,Rx,0,8,8E,F5,F8,00,00,00,F4,00,
3087967,000000C4,false,Rx,0,7,4F,FF,FD,00,00,FF,F1,00,
3092338,000000A8,false,Rx,0,8,74,F6,F8,00,00,0C,CF,00,
3092569,000000A9,false,Rx,0,8,63,06,8F,8F,0C,8F,FF,F8,
3092815,000000AA,false,Rx,0,8,8F,F6,F8,00,00,00,F4,00,
3093051,000001D0,false,Rx,0,8,3C,08,00,C6,00,00,0D,AE,
3097983,000000C4,false,Rx,0,7,4F,FF,FD,00,00,FF,F1,00,
3098236,000000CE,false,Rx,0,8,00,00,00,00,00,00,00,00,
3098426,000000B6,false,Rx,0,5,49,0A,80,00,08,00,00,00,
3098750,0000019E,false,Rx,0,8,00,EA,7F,FC,FE,20,00,26,
3099008,000001A0,false,Rx,0,8,00,80,00,C0,FF,12,A0,95,
3099276,000001A6,false,Rx,0,8,00,00,00,00,00,00,60,FF,
3099534,000002B2,false,Rx,0,8,00,00,00,00,4F,00,00,04,
3102350,00000492,false,Rx,0,8,17,52,FF,FF,FF,FF,FF,FF,
3102582,000000A8,false,Rx,0,8,75,F7,F8,00,00,0C,CF,00,
3102816,000000A9,false,Rx,0,8,64,07,8F,8F,0C,8F,FF,F8,
3103052,000000AA,false,Rx,0,8,90,F7,F8,00,00,00,F4,00,
3108053,000000C4,false,Rx,0,7,4F,FF,FD,00,00,FF,F1,00,
3108227,00000194,false,Rx,0,4,EF,F2,00,FC,00,00,00,00,
3108373,000001D6,false,Rx,0,2,C0,0C,00,00,00,00,00,00,
3112340,000000A8,false,Rx,0,8,76,F8,F8,00,00,0C,CF,00,
3112572,000000A9,false,Rx,0,8,65,08,8F,8F,0C,8F,FF,F8,
3112807,000000AA,false,Rx,0,8,91,F8,F8,00,00,00,F4,00,
3117981,000000C4,false,Rx,0,7,4F,FF,FD,00,00,FF,F1,00,
3118223,000000CE,false,Rx,0,8,00,00,00,00,00,00,00,00,
3118414,000000B6,false,Rx,0,5,4A,0B,80,00,08,00,00,00,
3118704,0000019E,false,Rx,0,8,00,EA,7F,FC,FE,20,00,26,
3118961,000001A0,false,Rx,0,8,00,80,00,C0,FF,12,B0,A5,
3119230,000002B2,false,Rx,0,8,00,00,00,00,4F,00,00,04,
3122366,000000A8,false,Rx,0,8,77,F9,F8,00,00,0C,CF,00,
3122597,000000A9,false,Rx,0,8,66,09,8F,8F,0C,8F,FF,F8,
3122832,000000AA,false,Rx,0,8,92,F9,F8,00,00,00,F4,00,
3127997,000000C4,false,Rx,0,7,4F,FF,FD,00,00,FF,F1,00,
3131078,000001FB,false,Rx,0,2,F9,FF,00,00,00,00,00,00,
3132336,000000A8,false,Rx,0,8,78,FA,F8,00,00,0C,CF,00,
3132572,000000A9,false,Rx,0,8,67,0A,8F,8F,0C,8F,FF,F8,
3132807,000000AA,false,Rx,0,8,93,FA,F8,00,00,00,F4,00,
3137315,000001B4,false,Rx,0,8,00,D0,FF,F0,FC,FE,FE,72,
3138001,000000C4,false,Rx,0,7,4F,FF,FD,00,00,FF,F1,00,
3138258,000000CE,false,Rx,0,8,00,00,00,00,00,00,00,00,
3138438,000000B6,false,Rx,0,5,4B,0C,80,00,08,00,00,00,
3138739,0000019E,false,Rx,0,8,00,EA,7F,FC,FE,20,00,26,
3138998,000001A0,false,Rx,0,8,00,80,00,C0,FF,12,C0,B5,
3139254,000002B2,false,Rx,0,8,00,00,00,00,4F,00,00,04,
3142356,000000A8,false,Rx,0,8,79,FB,F8,00,00,0C,CF,00,
3142587,000000A9,false,Rx,0,8,68,0B,8F,8F,0C,8F,FF,F8,
3142833,000000AA,false,Rx,0,8,94,FB,F8,00,00,00,F4,00,
3147940,000000C4,false,Rx,0,7,4F,FF,FD,00,00,FF,F1,00,
3152334,000000A8,false,Rx,0,8,7A,FC,F8,00,00,0C,CF,00,
3152576,000000A9,false,Rx,0,8,69,0C,8F,8F,0C,8F,FF,F8,
3152811,000000AA,false,Rx,0,8,95,FC,F8,00,00,00,F4,00,
3157951,000000C4,false,Rx,0,7,4F,FF,FD,00,00,FF,F1,00,
3158204,000000CE,false,Rx,0,8,00,00,00,00,00,00,00,00,
3158384,000000B6,false,Rx,0,5,4C,0D,80,00,08,00,00,00,
3158663,0000019E,false,Rx,0,8,00,EA,7F,FC,FE,20,00,26,
3158931,000001A0,false,Rx,0,8,00,80,00,C0,FF,12,D0,C5,
3159189,000002B2,false,Rx,0,8,00,00,00,00,4F,00,00,04,
3162371,000000A8,false,Rx,0,8,7B,FD,F8,00,00,0C,CF,00,
3162601,000000A9,false,Rx,0,8,6A,0D,8F,8F,0C,8F,FF,F8,
3162836,000000AA,false,Rx,0,8,96,FD,F8,00,00,00,F4,00,
3167942,000000C4,false,Rx,0,7,4F,FF,FD,00,00,FF,F1,00,
3170685,00000130,false,Rx,0,5,41,40,21,0F,AA,00,00,00,
3172336,000000A8,false,Rx,0,8,7C,FE,F8,00,00,0C,CF,00,
3172571,000000A9,false,Rx,0,8,6B,0E,8F,8F,0C,8F,FF,F8,
3172815,000000AA,false,Rx,0,8,97,FE,F8,00,00,00,F4,00,
3177994,000000C4,false,Rx,0,7,4F,FF,FD,00,00,FF,F1,00,
3178245,000000CE,false,Rx,0,8,00,00,00,00,00,00,00,00,
3178425,000000B6,false,Rx,0,5,4D,0E,80,00,08,00,00,00,
3178727,0000019E,false,Rx,0,8,00,EA,7F,FC,FE,20,00,26,
3178996,000001A0,false,Rx,0,8,00,80,00,C0,FF,12,E0,D5,
3179254,000002B2,false,Rx,0,8,00,00,00,00,4F,00,00,04,
3182367,000000A8,false,Rx,0,8,6E,F0,F8,00,00,0C,CF,00,
3182597,000000A9,false,Rx,0,8,5D,00,8F,8F,0C,8F,FF,F8,
3182843,000000AA,false,Rx,0,8,89,F0,F8,00,00,00,F4,00,
3187972,000000C4,false,Rx,0,7,4F,FF,FD,00,00,FF,F1,00,
3192334,000000A8,false,Rx,0,8,6F,F1,F8,00,00,0C,CF,00,
3192575,000000A9,false,Rx,0,8,5E,01,8F,8F,0C,8F,FF,F8,
3192810,000000AA,false,Rx,0,8,8A,F1,F8,00,00,00,F4,00,
3193035,000001B6,false,Rx,0,7,FF,00,00,00,00,AC,00,00,
3193282,000001D0,false,Rx,0,8,3C,08,01,C6,00,00,0D,AE,
3193439,000002F3,false,Rx,0,3,07,FC,F9,00,00,00,00,00,
3193684,00000497,false,Rx,0,8,29,52,FF,FF,FF,FF,FF,FF,
3197991,000000C4,false,Rx,0,7,4F,FF,FD,00,00,FF,F1,00,
3198243,000000CE,false,Rx,0,8,00,00,00,00,00,00,00,00,
3198479,000000B6,false,Rx,0,5,3F,00,80,00,08,00,00,00,
3198680,000000C8,false,Rx,0,6,4F,FF,21,00,00,0C,00,00,
3198926,0000019E,false,Rx,0,8,00,EA,7F,FC,FE,20,00,26,
3199183,000001A0,false,Rx,0,8,00,80,00,C0,FF,12,00,F4,
3199442,000001A6,false,Rx,0,8,00,00,00,00,00,00,F0,F0,
3199710,000002B2,false,Rx,0,8,00,00,00,00,4F,00,00,04,
3199922,00000374,false,Rx,0,5,00,00,FF,FF,FC,00,00,00,
3202356,000000A8,false,Rx,0,8,70,F2,F8,00,00,0C,CF,00,
3202597,000000A9,false,Rx,0,8,5F,02,8F,8F,0C,8F,FF,F8,
3202832,000000AA,false,Rx,0,8,8B,F2,F8,00,00,00,F4,00,
3208006,000000C4,false,Rx,0,7,4F,FF,FD,00,00,FF,F1,00,
3212333,000000A8,false,Rx,0,8,71,F3,F8,00,00,0C,CF,00,
3212563,000000A9,false,Rx,0,8,60,03,8F,8F,0C,8F,FF,F8,
3212809,000000AA,false,Rx,0,8,8C,F3,F8,00,00,00,F4,00,
3217972,000000C4,false,Rx,0,7,4F,FF,FD,00,00,FF,F1,00,
3218225,000000CE,false,Rx,0,8,00,00,00,00,00,00,00,00,
3218417,000000B6,false,Rx,0,5,40,01,80,00,08,00,00,00,
3218706,0000019E,false,Rx,0,8,00,EA,8F,FC,FE,20,00,36,
3218974,000001A0,false,Rx,0,8,00,80,00,C0,FF,0F,10,01,
3219233,000002B2,false,Rx,0,8,00,00,00,00,3F,00,00,04,
3222347,000000A8,false,Rx,0,8,72,F4,F8,00,00,0C,CF,00,
3222577,000000A9,false,Rx,0,8,61,04,8F,8F,0C,8F,FF,F8,
3222823,000000AA,false,Rx,0,8,8D,F4,F8,00,00,00,F4,00,
3228022,000000C4,false,Rx,0,7,4F,FF,FD,00,00,FF,F1,00,
3232337,000000A8,false,Rx,0,8,73,F5,F8,00,00,0C,CF,00,
3232567,000000A9,false,Rx,0,8,62,05,8F,8F,0C,8F,FF,F8,
3232813,000000AA,false,Rx,0,8,8E,F5,F8,00,00,00,F4,00,
3237325,000001B4,false,Rx,0,8,00,D0,FF,F1,FC,FE,FE,73,
3238022,000000C4,false,Rx,0,7,4F,FF,FD,00,00,FF,F1,00,
3238278,000000CE,false,Rx,0,8,00,00,00,00,00,00,00,00,
3238459,000000B6,false,Rx,0,5,41,02,80,00,08,00,00,00,
3238760,0000019E,false,Rx,0,8,00,EA,8F,FC,FE,20,00,36,
3239018,000001A0,false,Rx,0,8,00,80,00,C0,FF,12,20,15,
3239276,000002B2,false,Rx,0,8,00,00,00,00,4F,00,00,04,
3242345,000000A8,false,Rx,0,8,74,F6,F8,00,00,0C,CF,00,
3242575,000000A9,false,Rx,0,8,63,06,8F,8F,0C,8F,FF,F8,
3242821,000000AA,false,Rx,0,8,8F,F6,F8,00,00,00,F4,00,
3247950,000000C4,false,Rx,0,7,4F,FF,FD,00,00,FF,F1,00,
3252334,000000A8,false,Rx,0,8,75,F7,F8,00,00,0C,CF,00,
3252564,000000A9,false,Rx,0,8,64,07,8F,8F,0C,8F,FF,F8,
3252810,000000AA,false,Rx,0,8,90,F7,F8,00,00,00,F4,00,
3257950,000000C4,false,Rx,0,7,4F,FF,FD,00,00,FF,F1,00,
3258204,000000CE,false,Rx,0,8,00,00,00,00,00,00,00,00,
3258384,000000B6,false,Rx,0,5,42,03,80,00,08,00,00,00,
3258663,0000019E,false,Rx,0,8,00,EA,8F,FC,FE,20,00,36,
3258931,000001A0,false,Rx,0,8,00,80,00,C0,FF,12,30,25,
3259190,000002B2,false,Rx,0,8,00,00,00,00,4F,00,00,04,
3262349,000000A8,false,Rx,0,8,76,F8,F8,00,00,0C,CF,00,
3262579,000000A9,false,Rx,0,8,65,08,8F,8F,0C,8F,FF,F8,
3262825,000000AA,false,Rx,0,8,91,F8,F8,00,00,00,F4,00,
3267988,000000C4,false,Rx,0,7,4F,FF,FD,00,00,FF,F1,00,
3268119,000002A6,false,Rx,0,2,00,F8,00,00,00,00,00,00,
3269140,000001B5,false,Rx,0,7,00,FF,00,00,C8,FF,FF,00,
3271911,00000130,false,Rx,0,5,41,40,21,0F,BB,00,00,00,
3272342,000000A8,false,Rx,0,8,77,F9,F8,00,00,0C,CF,00,
3272577,000000A9,false,Rx,0,8,66,09,8F,8F,0C,8F,FF,F8,
3272822,000000AA,false,Rx,0,8,92,F9,F8,00,00,00,F4,00,
3278048,000000C4,false,Rx,0,7,4F,FF,FD,00,00,FF,F1,00,
3278302,000000CE,false,Rx,0,8,00,00,00,00,00,00,00,00,
3278492,000000B6,false,Rx,0,5,43,04,80,00,08,00,00,00,
3278792,0000019E,false,Rx,0,8,00,EA,8F,FC,FE,20,00,36,
3279050,000001A0,false,Rx,0,8,00,80,00,C0,FF,12,40,35,
3279309,000002B2,false,Rx,0,8,00,00,00,00,4F,00,00,04,
3279577,000004A9,false,Rx,0,8,30,52,FF,FF,FF,FF,FF,FF,
3282349,000000A8,false,Rx,0,8,78,FA,F8,00,00,0C,CF,00,
3282579,000000A9,false,Rx,0,8,67,0A,8F,8F,0C,8F,FF,F8,
3282825,000000AA,false,Rx,0,8,93,FA,F8,00,00,00,F4,00,
3288011,000000C4,false,Rx,0,7,4F,FF,FD,00,00,FF,F1,00,
3292339,000000A8,false,Rx,0,8,79,FB,F8,00,00,0C,CF,00,
3292569,000000A9,false,Rx,0,8,68,0B,8F,8F,0C,8F,FF,F8,
3292815,000000AA,false,Rx,0,8,94,FB,F8,00,00,00,F4,00,
3293064,000001D0,false,Rx,0,8,3C,08,01,C6,00,00,0D,AE,
3297995,000000C4,false,Rx,0,7,4F,FF,FD,00,00,FF,F1,00,
3298247,000000CE,false,Rx,0,8,00,00,00,00,00,00,00,00,
3298428,000000B6,false,Rx,0,5,44,05,80,00,08,00,00,00,
3298751,0000019E,false,Rx,0,8,00,EA,8F,FC,FE,20,00,36,
3299020,000001A0,false,Rx,0,8,00,80,00,C0,FF,12,50,45,
3299278,000001A6,false,Rx,0,8,00,00,00,00,00,00,80,F2,
3299546,000002B2,false,Rx,0,8,00,00,00,00,4F,00,00,04,
3302385,000000A8,false,Rx,0,8,7A,FC,F8,00,00,0C,CF,00,
3302615,000000A9,false,Rx,0,8,69,0C,8F,8F,0C,8F,FF,F8,
3302861,000000AA,false,Rx,0,8,95,FC,F8,00,00,00,F4,00,
3308069,000000C4,false,Rx,0,7,4F,FF,FD,00,00,FF,F1,00,
3308232,00000194,false,Rx,0,4,F0,F3,00,FC,00,00,00,00,
3312389,000000A8,false,Rx,0,8,7B,FD,F8,00,00,0C,CF,00,
3312619,000000A9,false,Rx,0,8,6A,0D,8F,8F,0C,8F,FF,F8,
3312854,000000AA,false,Rx,0,8,96,FD,F8,00,00,00,F4,00,
3318018,000000C4,false,Rx,0,7,4F,FF,FD,00,00,FF,F1,00,
3318260,000000CE,false,Rx,0,8,00,00,00,00,00,00,00,00,
3318450,000000B6,false,Rx,0,5,45,06,80,00,08,00,00,00,
3318740,0000019E,false,Rx,0,8,00,EA,8F,FC,FE,20,00,36,
3319000,000001A0,false,Rx,0,8,00,80,00,A0,FF,12,60,35,
3319257,000002B2,false,Rx,0,8,00,00,00,00,4F,00,00,04,
3321081,000001FB,false,Rx,0,2,FA,FF,00,00,00,00,00,00,
3322362,000000A8,false,Rx,0,8,7C,FE,F8,00,00,0C,CF,00,
3322586,000000A9,false,Rx,0,8,6B,0E,8F,8F,0C,8F,FF,F8,
3322832,000000AA,false,Rx,0,8,97,FE,F8,00,00,00,F4,00,
3328036,000000C4,false,Rx,0,7,4F,FF,FD,00,00,FF,F1,00,
3332351,000000A8,false,Rx,0,8,6E,F0,F8,00,00,0C,CF,00,
3332581,000000A9,false,Rx,0,8,5D,00,8F,8F,0C,8F,FF,F8,
3332828,000000AA,false,Rx,0,8,89,F0,F8,00,00,00,F4,00,
3337306,000001B4,false,Rx,0,8,00,D0,FF,F2,FC,FE,FE,74,
3338037,000000C4,false,Rx,0,7,4F,FF,FD,00,00,FF,F1,00,
3338295,000000CE,false,Rx,0,8,00,00,00,00,00,00,00,00,
3338474,000000B6,false,Rx,0,5,46,07,80,00,08,00,00,00,
3338764,0000019E,false,Rx,0,8,00,EA,8F,FC,FE,20,00,36,
3339023,000001A0,false,Rx,0,8,00,80,00,C0,FF,12,70,65,
3339291,000002B2,false,Rx,0,8,00,00,00,00,4F,00,00,04,
3342370,000000A8,false,Rx,0,8,6F,F1,F8,00,00,0C,CF,00,
3342612,000000A9,false,Rx,0,8,5E,01,8F,8F,0C,8F,FF,F8,
3342848,000000AA,false,Rx,0,8,8A,F1,F8,00,00,00,F4,00,
3347943,000000C4,false,Rx,0,7,4F,FF,FD,00,00,FF,F1,00,
3352350,000000A8,false,Rx,0,8,70,F2,F8,00,00,0C,CF,00,
3352580,000000A9,false,Rx,0,8,5F,02,8F,8F,0C,8F,FF,F8,
3352828,000000AA,false,Rx,0,8,8B,F2,F8,00,00,00,F4,00,
3357945,000000C4,false,Rx,0,7,4F,FF,FD,00,00,FF,F1,00,
3358199,000000CE,false,Rx,0,8,00,00,00,00,00,00,00,00,
3358390,000000B6,false,Rx,0,5,47,08,80,00,08,00,00,00,
3358668,0000019E,false,Rx,0,8,00,EA,8F,FC,FE,20,00,36,
3358925,000001A0,false,Rx,0,8,00,80,00,A0,FF,12,80,55,
3359185,000002B2,false,Rx,0,8,00,00,00,00,4F,00,00,04,
3362365,000000A8,false,Rx,0,8,71,F3,F8,00,00,0C,CF,00,
3362607,000000A9,false,Rx,0,8,60,03,8F,8F,0C,8F,FF,F8,
3362843,000000AA,false,Rx,0,8,8C,F3,F8,00,00,00,F4,00,
3367950,000000C4,false,Rx,0,7,4F,FF,FD,00,00,FF,F1,00,
3370270,000004B0,false,Rx,0,8,00,52,FE,01,FF,FF,FF,FF,
3370844,00000130,false,Rx,0,5,41,40,21,0F,CC,00,00,00,
3372359,000000A8,false,Rx,0,8,72,F4,F8,00,00,0C,CF,00,
3372594,000000A9,false,Rx,0,8,61,04,8F,8F,0C,8F,FF,F8,
3372830,000000AA,false,Rx,0,8,8D,F4,F8,00,00,00,F4,00,
3378007,000000C4,false,Rx,0,7,4F,FF,FD,00,00,FF,F1,00,
3378260,000000CE,false,Rx,0,8,00,00,00,00,00,00,00,00,
3378440,000000B6,false,Rx,0,5,48,09,80,00,08,00,00,00,
3378740,0000019E,false,Rx,0,8,00,EA,8F,FC,FE,20,00,36,
3378999,000001A0,false,Rx,0,8,00,80,00,C0,FF,12,90,85,
3379256,000002B2,false,Rx,0,8,00,00,00,00,4F,00,00,04,
3382359,000000A8,false,Rx,0,8,73,F5,F8,00,00,0C,CF,00,
3382590,000000A9,false,Rx,0,8,62,05,8F,8F,0C,8F,FF,F8,
3382826,000000AA,false,Rx,0,8,8E,F5,F8,00,00,00,F4,00,
3387977,000000C4,false,Rx,0,7,4F,FF,FD,00,00,FF,F1,00,
3392350,000000A8,false,Rx,0,8,74,F6,F8,00,00,0C,CF,00,
3392591,000000A9,false,Rx,0,8,63,06,8F,8F,0C,8F,FF,F8,
3392827,000000AA,false,Rx,0,8,8F,F6,F8,00,00,00,F4,00,
3393063,000001D0,false,Rx,0,8,3C,08,02,C6,00,00,0D,AE,
3397961,000000C4,false,Rx,0,7,4F,FF,FD,00,00,FF,F1,00,
3398215,000000CE,false,Rx,0,8,00,00,00,00,00,00,00,00,
3398395,000000B6,false,Rx,0,5,49,0A,80,00,08,00,00,00,
3398607,000000C8,false,Rx,0,6,4F,FF,71,00,00,1C,00,00,
3398841,0000019E,false,Rx,0,8,00,EA,8F,FC,FE,20,00,36,
3399101,000001A0,false,Rx,0,8,00,80,00,A0,FF,12,A0,75,
3399358,000001A6,false,Rx,0,8,00,00,00,00,00,00,10,F4,
3399626,000002B2,false,Rx,0,8,00,00,00,00,4F,00,00,04,
3402345,000000A8,false,Rx,0,8,75,F7,F8,00,00,0C,CF,00,
3402586,000000A9,false,Rx,0,8,64,07,8F,8F,0C,8F,FF,F8,
3402822,000000AA,false,Rx,0,8,90,F7,F8,00,00,00,F4,00,
3408009,000000C4,false,Rx,0,7,4F,FF,FD,00,00,FF,F1,00,
3412335,000000A8,false,Rx,0,8,76,F8,F8,00,00,0C,CF,00,
3412565,000000A9,false,Rx,0,8,65,08,8F,8F,0C,8F,FF,F8,
3412813,000000AA,false,Rx,0,8,91,F8,F8,00,00,00,F4,00,
3417975,000000C4,false,Rx,0,7,4F,FF,FD,00,00,FF,F1,00,
3418230,000000CE,false,Rx,0,8,00,00,00,00,00,00,00,00,
3418409,000000B6,false,Rx,0,5,4A,0B,80,00,08,00,00,00,
3418699,0000019E,false,Rx,0,8,00,EA,8F,FC,FE,20,00,36,
3418957,000001A0,false,Rx,0,8,00,80,00,C0,FF,12,B0,A5,
3419215,000002B2,false,Rx,0,8,00,00,00,00,4F,00,00,04,
3422350,000000A8,false,Rx,0,8,77,F9,F8,00,00,0C,CF,00,
3422580,000000A9,false,Rx,0,8,66,09,8F,8F,0C,8F,FF,F8,
3422816,000000AA,false,Rx,0,8,92,F9,F8,00,00,00,F4,00,
3428002,000000C4,false,Rx,0,7,4F,FF,FD,00,00,FF,F1,00,
3432340,000000A8,false,Rx,0,8,78,FA,F8,00,00,0C,CF,00,
3432570,000000A9,false,Rx,0,8,67,0A,8F,8F,0C,8F,FF,F8,
3432817,000000AA,false,Rx,0,8,93,FA,F8,00,00,00,F4,00,
3437307,000001B4,false,Rx,0,8,00,D0,FF,F3,FC,FE,FE,75,
3438024,000000C4,false,Rx,0,7,4F,FF,FD,00,00,FF,F1,00,
3438271,000000CE,false,Rx,0,8,00,00,00,00,00,00,00,00,
3438451,000000B6,false,Rx,0,5,4B,0C,80,00,08,00,00,00,
3438751,0000019E,false,Rx,0,8,00,EA,9F,FC,FE,20,00,46,
3439010,000001A0,false,Rx,0,8,00,80,00,C0,FF,12,C0,B5,
3439267,000002B2,false,Rx,0,8,00,00,00,00,4F,00,00,04,
3442348,000000A8,false,Rx,0,8,79,FB,F8,00,00,0C,CF,00,
3442578,000000A9,false,Rx,0,8,68,0B,8F,8F,0C,8F,FF,F8,
3442825,000000AA,false,Rx,0,8,94,FB,F8,00,00,00,F4,00,
3447953,000000C4,false,Rx,0,7,4F,FF,FD,00,00,FF,F1,00,
3452337,000000A8,false,Rx,0,8,7A,FC,F8,00,00,0C,CF,00,
3452578,000000A9,false,Rx,0,8,69,0C,8F,8F,0C,8F,FF,F8,
3452815,000000AA,false,Rx,0,8,95,FC,F8,00,00,00,F4,00,
3456965,00000480,false,Rx,0,8,12,42,FD,01,FF,FF,FF,FF,
3457983,000000C4,false,Rx,0,7,4F,FF,FD,00,00,FF,F1,00,
3458242,000000CE,false,Rx,0,8,00,00,00,00,00,00,00,00,
3458421,000000B6,false,Rx,0,5,4C,0D,80,00,08,00,00,00,
3458711,0000019E,false,Rx,0,8,00,EA,9F,FC,FE,20,00,46,
3458980,000001A0,false,Rx,0,8,00,80,00,C0,FF,0F,D0,C2,
3459241,000002B2,false,Rx,0,8,00,00,00,00,3F,00,00,04,
3462354,000000A8,false,Rx,0,8,7B,FD,F8,00,00,0C,CF,00,
3462588,000000A9,false,Rx,0,8,6A,0D,8F,8F,0C,8F,FF,F8,
3462825,000000AA,false,Rx,0,8,96,FD,F8,00,00,00,F4,00,
3467961,000000C4,false,Rx,0,7,4F,FF,FD,00,00,FF,F1,00,
3470741,00000130,false,Rx,0,5,41,40,21,0F,DD,00,00,00,
3472345,000000A8,false,Rx,0,8,7C,FE,F8,00,00,0C,CF,00,
3472568,000000A9,false,Rx,0,8,6B,0E,8F,8F,0C,8F,FF,F8,
3472813,000000AA,false,Rx,0,8,97,FE,F8,00,00,00,F4,00,
3478014,000000C4,false,Rx,0,7,4F,FF,FD,00,00,FF,F1,00,
3478266,000000CE,false,Rx,0,8,00,00,00,00,00,00,00,00,
3478457,000000B6,false,Rx,0,5,4D,0E,80,00,08,00,00,00,
3478747,0000019E,false,Rx,0,8,00,EA,9F,FC,FE,20,00,46,
3479005,000001A0,false,Rx,0,8,00,80,00,C0,FF,12,E0,D5,
3479262,000002B2,false,Rx,0,8,00,00,00,00,4F,00,00,04,
3482342,000000A8,false,Rx,0,8,6E,F0,F8,00,00,0C,CF,00,
3482572,000000A9,false,Rx,0,8,5D,00,8F,8F,0C,8F,FF,F8,
3482819,000000AA,false,Rx,0,8,89,F0,F8,00,00,00,F4,00,
3487994,000000C4,false,Rx,0,7,4F,FF,FD,00,00,FF,F1,00,
3492342,000000A8,false,Rx,0,8,6F,F1,F8,00,00,0C,CF,00,
3492574,000000A9,false,Rx,0,8,5E,01,8F,8F,0C,8F,FF,F8,
3492809,000000AA,false,Rx,0,8,8A,F1,F8,00,00,00,F4,00,
3493056,000001D0,false,Rx,0,8,3C,08,02,C6,00,00,0D,AE,
3497965,000000C4,false,Rx,0,7,4F,FF,FD,00,00,FF,F1,00,
3498207,000000CE,false,Rx,0,8,00,00,00,00,00,00,00,00,
3498397,000000B6,false,Rx,0,5,3F,00,80,00,08,00,00,00,
3498721,0000019E,false,Rx,0,8,00,EA,9F,FC,FE,20,00,46,
3498978,000001A0,false,Rx,0,8,00,80,00,C0,FF,12,00,F4,
3499247,000001A6,false,Rx,0,8,00,00,00,00,00,00,A0,F5,
3499505,000002B2,false,Rx,0,8,00,00,00,00,4F,00,00,04,
3502365,000000A8,false,Rx,0,8,70,F2,F8,00,00,0C,CF,00,
3502596,000000A9,false,Rx,0,8,5F,02,8F,8F,0C,8F,FF,F8,
3502842,000000AA,false,Rx,0,8,8B,F2,F8,00,00,00,F4,00,
3508028,000000C4,false,Rx,0,7,4F,FF,FD,00,00,FF,F1,00,
3508203,00000194,false,Rx,0,4,F1,F4,00,FC,00,00,00,00,
3510295,000001FB,false,Rx,0,2,FB,FF,00,00,00,00,00,00,
3512340,000000A8,false,Rx,0,8,71,F3,F8,00,00,0C,CF,00,
3512576,000000A9,false,Rx,0,8,60,03,8F,8F,0C,8F,FF,F8,
3512811,000000AA,false,Rx,0,8,8C,F3,F8,00,00,00,F4,00,
3517980,000000C4,false,Rx,0,7,4F,FF,FD,00,00,FF,F1,00,
3518233,000000CE,false,Rx,0,8,00,00,00,00,00,00,00,00,
3518423,000000B6,false,Rx,0,5,40,01,80,00,08,00,00,00,
3518714,0000019E,false,Rx,0,8,00,EA,9F,FC,FE,20,00,46,
3518971,000001A0,false,Rx,0,8,00,80,00,A0,FF,12,10,E4,
3519229,000002B2,false,Rx,0,8,00,00,00,00,4F,00,00,04,
3522355,000000A8,false,Rx,0,8,72,F4,F8,00,00,0C,CF,00,
3522587,000000A9,false,Rx,0,8,61,04,8F,8F,0C,8F,FF,F8,
3522833,000000AA,false,Rx,0,8,8D,F4,F8,00,00,00,F4,00,
3528010,000000C4,false,Rx,0,7,4F,FF,FD,00,00,FF,F1,00,
3532335,000000A8,false,Rx,0,8,73,F5,F8,00,00,0C,CF,00,
3532567,000000A9,false,Rx,0,8,62,05,8F,8F,0C,8F,FF,F8,
3532813,000000AA,false,Rx,0,8,8E,F5,F8,00,00,00,F4,00,
3537314,000001B4,false,Rx,0,8,00,D0,FF,F4,FC,FE,FE,76,
3538033,000000C4,false,Rx,0,7,4F,FF,FD,00,00,FF,F1,00,
3538289,000000CE,false,Rx,0,8,00,00,00,00,00,00,00,00,
3538469,000000B6,false,Rx,0,5,41,02,80,00,08,00,00,00,
3538760,0000019E,false,Rx,0,8,00,EA,9F,FC,FE,20,00,46,
3539018,000001A0,false,Rx,0,8,00,80,00,A0,FF,12,20,F4,
3539286,000002B2,false,Rx,0,8,00,00,00,00,4F,00,00,04,
3542309,000000A8,false,Rx,0,8,74,F6,F8,00,00,0C,CF,00,
3542540,000000A9,false,Rx,0,8,63,06,8F,8F,0C,8F,FF,F8,
3542786,000000AA,false,Rx,0,8,8F,F6,F8,00,00,00,F4,00,
3547995,000000C4,false,Rx,0,7,4F,FF,FD,00,00,FF,F1,00,
3552331,000000A8,false,Rx,0,8,75,F7,F8,00,00,0C,CF,00,
3552563,000000A9,false,Rx,0,8,64,07,8F,8F,0C,8F,FF,F8,
3552809,000000AA,false,Rx,0,8,90,F7,F8,00,00,00,F4,00,
3557994,000000C4,false,Rx,0,7,4F,FF,FD,00,00,FF,F1,00,
3558246,000000CE,false,Rx,0,8,00,00,00,00,00,00,00,00,
3558426,000000B6,false,Rx,0,5,42,03,80,00,08,00,00,00,
3558727,0000019E,false,Rx,0,8,00,EA,9F,FC,FE,20,00,46,
3558984,000001A0,false,Rx,0,8,00,80,00,A0,FF,12,30,05,
3559242,000002B2,false,Rx,0,8,00,00,00,00,4F,00,00,04,
3562366,00000492,false,Rx,0,8,17,52,FF,FF,FF,FF,FF,FF,
3562609,000000A8,false,Rx,0,8,76,F8,F8,00,00,0C,CF,00,
3562833,000000A9,false,Rx,0,8,65,08,8F,8F,0C,8F,FF,F8,
3563081,000000AA,false,Rx,0,8,91,F8,F8,00,00,00,F4,00,
3568003,000000C4,false,Rx,0,7,4F,FF,FD,00,00,FF,F1,00,
3570712,00000130,false,Rx,0,5,41,40,21,0F,FE,00,00,00,
3572338,000000A8,false,Rx,0,8,77,F9,F8,00,00,0C,CF,00,
3572574,000000A9,false,Rx,0,8,66,09,8F,8F,0C,8F,FF,F8,
3572807,000000AA,false,Rx,0,8,92,F9,F8,00,00,00,F4,00,
3578042,000000C4,false,Rx,0,7,4F,FF,FD,00,00,FF,F1,00,
3578294,000000CE,false,Rx,0,8,00,00,00,00,00,00,00,00,
3578473,000000B6,false,Rx,0,5,43,04,80,00,08,00,00,00,
3578764,0000019E,false,Rx,0,8,00,EA,9F,FC,FE,20,00,46,
3579022,000001A0,false,Rx,0,8,00,80,00,C0,FF,12,40,35,
3579290,000002B2,false,Rx,0,8,00,00,00,00,4F,00,00,04,
3582360,000000A8,false,Rx,0,8,78,FA,F8,00,00,0C,CF,00,
3582592,000000A9,false,Rx,0,8,67,0A,8F,8F,0C,8F,FF,F8,
3582838,000000AA,false,Rx,0,8,93,FA,F8,00,00,00,F4,00,
3588014,000000C4,false,Rx,0,7,4F,FF,FD,00,00,FF,F1,00,
3592351,000000A8,false,Rx,0,8,79,FB,F8,00,00,0C,CF,00,
3592583,000000A9,false,Rx,0,8,68,0B,8F,8F,0C,8F,FF,F8,
3592829,000000AA,false,Rx,0,8,94,FB,F8,00,00,00,F4,00,
3593076,000001D0,false,Rx,0,8,3C,08,03,C6,00,00,0D,AE,
3598008,000000C4,false,Rx,0,7,4F,FF,FD,00,00,FF,F1,00,
3598260,000000CE,false,Rx,0,8,00,00,00,00,00,00,00,00,
3598439,000000B6,false,Rx,0,5,44,05,80,00,08,00,00,00,
3598653,000000C8,false,Rx,0,6,4F,FF,C1,00,00,2C,00,00,
3598887,0000019E,false,Rx,0,8,00,EA,9F,FC,FE,20,00,46,
3599145,000001A0,false,Rx,0,8,00,80,00,C0,FF,0F,50,42,
3599403,000001A6,false,Rx,0,8,00,00,00,00,00,00,30,F7,
3599671,000002B2,false,Rx,0,8,00,00,00,00,3F,00,00,04,
3602378,000000A8,false,Rx,0,8,7A,FC,F8,00,00,0C,CF,00,
3602610,000000A9,false,Rx,0,8,69,0C,8F,8F,0C,8F,FF,F8,
3602855,000000AA,false,Rx,0,8,95,FC,F8,00,00,00,F4,00,
3608053,000000C4,false,Rx,0,7,4F,FF,FD,00,00,FF,F1,00,
3612355,000000A8,false,Rx,0,8,7B,FD,F8,00,00,0C,CF,00,
3612587,000000A9,false,Rx,0,8,6A,0D,8F,8F,0C,8F,FF,F8,
3612833,000000AA,false,Rx,0,8,96,FD,F8,00,00,00,F4,00,
3617987,000000C4,false,Rx,0,7,4F,FF,FD,00,00,FF,F1,00,
3618239,000000CE,false,Rx,0,8,00,00,00,00,00,00,00,00,
3618419,000000B6,false,Rx,0,5,45,06,80,00,08,00,00,00,
3618721,0000019E,false,Rx,0,8,00,EA,9F,FC,FE,20,00,46,
3618990,000001A0,false,Rx,0,8,00,80,00,C0,FF,12,60,55,
3619247,000002B2,false,Rx,0,8,00,00,00,00,4F,00,00,04,
3622385,000000A8,false,Rx,0,8,7C,FE,F8,00,00,0C,CF,00,
3622615,000000A9,false,Rx,0,8,6B,0E,8F,8F,0C,8F,FF,F8,
3622861,000000AA,false,Rx,0,8,97,FE,F8,00,00,00,F4,00,
3628015,000000C4,false,Rx,0,7,4F,FF,FD,00,00,FF,F1,00,
3632340,000000A8,false,Rx,0,8,6E,F0,F8,00,00,0C,CF,00,
3632571,000000A9,false,Rx,0,8,5D,00,8F,8F,0C,8F,FF,F8,
3632817,000000AA,false,Rx,0,8,89,F0,F8,00,00,00,F4,00,
3637318,000001B4,false,Rx,0,8,00,D0,FF,F5,FC,FE,FE,77,
3638026,000000C4,false,Rx,0,7,4F,FF,FD,00,00,FF,F1,00,
3638282,000000CE,false,Rx,0,8,00,00,00,00,00,00,00,00,
3638462,000000B6,false,Rx,0,5,46,07,80,00,08,00,00,00,
3638764,0000019E,false,Rx,0,8,00,EA,AF,FC,FE,20,00,56,
3639022,000001A0,false,Rx,0,8,00,80,00,C0,FF,12,70,65,
3639280,000002B2,false,Rx,0,8,00,00,00,00,4F,00,00,04,
3642348,000000A8,false,Rx,0,8,6F,F1,F8,00,00,0C,CF,00,
3642578,000000A9,false,Rx,0,8,5E,01,8F,8F,0C,8F,FF,F8,
3642813,000000AA,false,Rx,0,8,8A,F1,F8,00,00,00,F4,00,
3647953,000000C4,false,Rx,0,7,4F,FF,FD,00,00,FF,F1,00,
3652336,000000A8,false,Rx,0,8,70,F2,F8,00,00,0C,CF,00,
3652567,000000A9,false,Rx,0,8,5F,02,8F,8F,0C,8F,FF,F8,
3652813,000000AA,false,Rx,0,8,8B,F2,F8,00,00,00,F4,00,
3653060,00000497,false,Rx,0,8,29,52,FF,FF,FF,FF,FF,FF,
3657981,000000C4,false,Rx,0,7,4F,FF,FD,00,00,FF,F1,00,
3658234,000000CE,false,Rx,0,8,00,00,00,00,00,00,00,00,
3658414,000000B6,false,Rx,0,5,47,08,80,00,08,00,00,00,
3658693,0000019E,false,Rx,0,8,00,EA,AF,FC,FE,20,00,56,
3658950,000001A0,false,Rx,0,8,00,80,00,C0,FF,12,80,75,
3659219,000002B2,false,Rx,0,8,00,00,00,00,4F,00,00,04,
3662356,000000A8,false,Rx,0,8,71,F3,F8,00,00,0C,CF,00,
3662597,000000A9,false,Rx,0,8,60,03,8F,8F,0C,8F,FF,F8,
3662832,000000AA,false,Rx,0,8,8C,F3,F8,00,00,00,F4,00,
3667950,000000C4,false,Rx,0,7,4F,FF,FD,00,00,FF,F1,00,
3670727,00000130,false,Rx,0,5,41,40,21,0F,00,00,00,00,
3672344,000000A8,false,Rx,0,8,72,F4,F8,00,00,0C,CF,00,
3672568,000000A9,false,Rx,0,8,61,04,8F,8F,0C,8F,FF,F8,
3672811,000000AA,false,Rx,0,8,8D,F4,F8,00,00,00,F4,00,
3678012,000000C4,false,Rx,0,7,4F,FF,FD,00,00,FF,F1,00,
3678264,000000CE,false,Rx,0,8,00,00,00,00,00,00,00,00,
3678445,000000B6,false,Rx,0,5,48,09,80,00,08,00,00,00,
3678735,0000019E,false,Rx,0,8,00,EA,AF,FC,FE,20,00,56,
3678993,000001A0,false,Rx,0,8,00,80,00,C0,FF,12,90,85,
3679251,000002B2,false,Rx,0,8,00,00,00,00,4F,00,00,04,
3682353,000000A8,false,Rx,0,8,73,F5,F8,00,00,0C,CF,00,
3682594,000000A9,false,Rx,0,8,62,05,8F,8F,0C,8F,FF,F8,
3682829,000000AA,false,Rx,0,8,8E,F5,F8,00,00,00,F4,00,
3687981,000000C4,false,Rx,0,7,4F,FF,FD,00,00,FF,F1,00,
3692353,000000A8,false,Rx,0,8,74,F6,F8,00,00,0C,CF,00,
3692583,000000A9,false,Rx,0,8,63,06,8F,8F,0C,8F,FF,F8,
3692818,000000AA,false,Rx,0,8,8F,F6,F8,00,00,00,F4,00,
3693066,000001D0,false,Rx,0,8,3C,08,03,C6,00,00,0D,AE,
3697964,000000C4,false,Rx,0,7,4F,FF,FD,00,00,FF,F1,00,
3698217,000000CE,false,Rx,0,8,00,00,00,00,00,00,00,00,
3698398,000000B6,false,Rx,0,5,49,0A,80,00,08,00,00,00,
3698731,0000019E,false,Rx,0,8,00,EA,AF,FC,FE,20,00,56,
3698989,000001A0,false,Rx,0,8,00,80,00,C0,FF,12,A0,95,
3699247,000001A6,false,Rx,0,8,00,00,00,00,00,00,C0,F8,
3699516,000002B2,false,Rx,0,8,00,00,00,00,4F,00,00,04,
3701120,000001FB,false,Rx,0,2,FC,FF,00,00,00,00,00,00,
3702346,000000A8,false,Rx,0,8,75,F7,F8,00,00,0C,CF,00,
3702581,000000A9,false,Rx,0,8,64,07,8F,8F,0C,8F,FF,F8,
3702816,000000AA,false,Rx,0,8,90,F7,F8,00,00,00,F4,00,
3708042,000000C4,false,Rx,0,7,4F,FF,FD,00,00,FF,F1,00,
3708205,00000194,false,Rx,0,4,F2,F5,00,FC,00,00,00,00,
3712350,000000A8,false,Rx,0,8,76,F8,F8,00,00,0C,CF,00,
3712581,000000A9,false,Rx,0,8,65,08,8F,8F,0C,8F,FF,F8,
3712816,000000AA,false,Rx,0,8,91,F8,F8,00,00,00,F4,00,
3717990,000000C4,false,Rx,0,7,4F,FF,FD,00,00,FF,F1,00,
3718242,000000CE,false,Rx,0,8,00,00,00,00,00,00,00,00,
3718434,000000B6,false,Rx,0,5,4A,0B,80,00,08,00,00,00,
3718723,0000019E,false,Rx,0,8,00,EA,AF,FC,FE,20,00,56,
3718980,000001A0,false,Rx,0,8,00,80,00,A0,FF,12,B0,85,
3719240,000002B2,false,Rx,0,8,00,00,00,00,4F,00,00,04,
3722343,000000A8,false,Rx,0,8,77,F9,F8,00,00,0C,CF,00,
3722573,000000A9,false,Rx,0,8,66,09,8F,8F,0C,8F,FF,F8,
3722819,000000AA,false,Rx,0,8,92,F9,F8,00,00,00,F4,00,
3728016,000000C4,false,Rx,0,7,4F,FF,FD,00,00,FF,F1,00,
3732342,000000A8,false,Rx,0,8,78,FA,F8,00,00,0C,CF,00,
3732573,000000A9,false,Rx,0,8,67,0A,8F,8F,0C,8F,FF,F8,
3732818,000000AA,false,Rx,0,8,93,FA,F8,00,00,00,F4,00,
3737330,000001B4,false,Rx,0,8,00,D0,FF,F6,FC,FE,FE,78,
3738027,000000C4,false,Rx,0,7,4F,FF,FD,00,00,FF,F1,00,
3738284,000000CE,false,Rx,0,8,00,00,00,00,00,00,00,00,
3738465,000000B6,false,Rx,0,5,4B,0C,80,00,08,00,00,00,
3738776,0000019E,false,Rx,0,8,00,EA,AF,FC,FE,20,00,56,
3739034,000001A0,false,Rx,0,8,00,80,00,C0,FF,12,C0,B5,
3739292,000002B2,false,Rx,0,8,00,00,00,00,4F,00,00,04,
3739555,000004A9,false,Rx,0,8,30,52,FF,FF,FF,FF,FF,FF,
3742347,000000A8,false,Rx,0,8,79,FB,F8,00,00,0C,CF,00,
3742582,000000A9,false,Rx,0,8,68,0B,8F,8F,0C,8F,FF,F8,
3742817,000000AA,false,Rx,0,8,94,FB,F8,00,00,00,F4,00,
3747961,000000C4,false,Rx,0,7,4F,FF,FD,00,00,FF,F1,00,
3752355,000000A8,false,Rx,0,8,7A,FC,F8,00,00,0C,CF,00,
3752586,000000A9,false,Rx,0,8,69,0C,8F,8F,0C,8F,FF,F8,
3752831,000000AA,false,Rx,0,8,95,FC,F8,00,00,00,F4,00,
3757972,000000C4,false,Rx,0,7,4F,FF,FD,00,00,FF,F1,00,
3758225,000000CE,false,Rx,0,8,00,00,00,00,00,00,00,00,
3758406,000000B6,false,Rx,0,5,4C,0D,80,00,08,00,00,00,
3758685,0000019E,false,Rx,0,8,00,EA,AF,FC,FE,20,00,56,
3758942,000001A0,false,Rx,0,8,00,80,00,D0,FF,12,D0,D5,
3759201,000002B2,false,Rx,0,8,00,00,00,00,4F,00,00,04,
3762348,000000A8,false,Rx,0,8,7B,FD,F8,00,00,0C,CF,00,
3762578,000000A9,false,Rx,0,8,6A,0D,8F,8F,0C,8F,FF,F8,
3762824,000000AA,false,Rx,0,8,96,FD,F8,00,00,00,F4,00,
3767956,000000C4,false,Rx,0,7,4F,FF,FD,00,00,FF,F1,00,
3770723,00000130,false,Rx,0,5,41,40,21,0F,11,00,00,00,
3772338,000000A8,false,Rx,0,8,7C,FE,F8,00,00,0C,CF,00,
3772573,000000A9,false,Rx,0,8,6B,0E,8F,8F,0C,8F,FF,F8,
3772816,000000AA,false,Rx,0,8,97,FE,F8,00,00,00,F4,00,
3777996,000000C4,false,Rx,0,7,4F,FF,FD,00,00,FF,F1,00,
3778248,000000CE,false,Rx,0,8,00,00,00,00,00,00,00,00,
3778440,000000B6,false,Rx,0,5,4D,0E,80,00,08,00,00,00,
3778729,0000019E,false,Rx,0,8,00,EA,AF,FC,FE,20,00,56,
3778987,000001A0,false,Rx,0,8,00,80,00,C0,FF,12,E0,D5,
3779245,000002B2,false,Rx,0,8,00,00,00,00,4F,00,00,04,
3782338,000000A8,false,Rx,0,8,6E,F0,F8,00,00,0C,CF,00,
3782568,000000A9,false,Rx,0,8,5D,00,8F,8F,0C,8F,FF,F8,
3782814,000000AA,false,Rx,0,8,89,F0,F8,00,00,00,F4,00,
3787977,000000C4,false,Rx,0,7,4F,FF,FD,00,00,FF,F1,00,
3792339,000000A8,false,Rx,0,8,6F,F1,F8,00,00,0C,CF,00,
3792569,000000A9,false,Rx,0,8,5E,01,8F,8F,0C,8F,FF,F8,
3792804,000000AA,false,Rx,0,8,8A,F1,F8,00,00,00,F4,00,
3793052,000001D0,false,Rx,0,8,3C,08,04,C6,00,00,0D,AE,
3793243,000003B3,false,Rx,0,6,1F,00,FF,7F,00,F1,00,00,
3797975,000000C4,false,Rx,0,7,4F,FF,FD,00,00,FF,F1,00,
3798228,000000CE,false,Rx,0,8,00,00,00,00,00,00,00,00,
3798420,000000B6,false,Rx,0,5,3F,00,80,00,08,00,00,00,
3798621,000000C8,false,Rx,0,6,4F,FF,21,00,00,6C,00,00,
3798855,0000019E,false,Rx,0,8,00,EA,AF,FC,FE,20,00,56,
3799115,000001A0,false,Rx,0,8,00,80,00,A0,FF,12,00,D4,
3799383,000001A6,false,Rx,0,8,00,00,00,00,00,00,50,FA,
3799640,000002B2,false,Rx,0,8,00,00,00,00,4F,00,00,04,
3802337,000000A8,false,Rx,0,8,70,F2,F8,00,00,0C,CF,00,
3802578,000000A9,false,Rx,0,8,5F,02,8F,8F,0C,8F,FF,F8,
3802813,000000AA,false,Rx,0,8,8B,F2,F8,00,00,00,F4,00,
3808066,000000C4,false,Rx,0,7,4F,FF,FD,00,00,FF,F1,00,
3812326,000000A8,false,Rx,0,8,71,F3,F8,00,00,0C,CF,00,
3812567,000000A9,false,Rx,0,8,60,03,8F,8F,0C,8F,FF,F8,
3812802,000000AA,false,Rx,0,8,8C,F3,F8,00,00,00,F4,00,
3815430,000005E2,false,Rx,0,8,08,02,00,FE,FF,FF,FF,FF,
3818054,000000C4,false,Rx,0,7,4F,FF,FD,00,00,FF,F1,00,
3818301,000000CE,false,Rx,0,8,00,00,00,00,00,00,00,00,
3818489,000000B6,false,Rx,0,5,40,01,80,00,08,00,00,00,
3818779,0000019E,false,Rx,0,8,00,EA,AF,FC,FE,20,00,56,
3819038,000001A0,false,Rx,0,8,00,80,00,A0,FF,12,10,E4,
3819295,000002B2,false,Rx,0,8,00,00,00,00,4F,00,00,04,
3822348,000000A8,false,Rx,0,8,72,F4,F8,00,00,0C,CF,00,
3822578,000000A9,false,Rx,0,8,61,04,8F,8F,0C,8F,FF,F8,
3822825,000000AA,false,Rx,0,8,8D,F4,F8,00,00,00,F4,00,
3828054,000000C4,false,Rx,0,7,4F,FF,FD,00,00,FF,F1,00,
3830136,000004B0,false,Rx,0,8,00,52,FE,01,FF,FF,FF,FF,
3832342,000000A8,false,Rx,0,8,73,F5,F8,00,00,0C,CF,00,
3832572,000000A9,false,Rx,0,8,62,05,8F,8F,0C,8F,FF,F8,
3832808,000000AA,false,Rx,0,8,8E,F5,F8,00,00,00,F4,00,
3837308,000001B4,false,Rx,0,8,00,D0,FF,F7,FC,FE,FE,79,
3838082,000000C4,false,Rx,0,7,4F,FF,FD,00,00,FF,F1,00,
3838329,000000CE,false,Rx,0,8,00,00,00,00,00,00,00,00,
3838520,000000B6,false,Rx,0,5,41,02,80,00,08,00,00,00,
3838820,0000019E,false,Rx,0,8,00,EA,AF,FC,FE,20,00,56,
3839081,000001A0,false,Rx,0,8,00,80,00,C0,FF,12,20,15,
3839363,000002B2,false,Rx,0,8,00,00,00,00,4F,00,00,04,
3842343,000000A8,false,Rx,0,8,74,F6,F8,00,00,0C,CF,00,
3842578,000000A9,false,Rx,0,8,63,06,8F,8F,0C,8F,FF,F8,
3842814,000000AA,false,Rx,0,8,8F,F6,F8,00,00,00,F4,00,
3847992,000000C4,false,Rx,0,7,4F,FF,FD,00,00,FF,F1,00,
3852331,000000A8,false,Rx,0,8,75,F7,F8,00,00,0C,CF,00,
3852561,000000A9,false,Rx,0,8,64,07,8F,8F,0C,8F,FF,F8,
3852809,000000AA,false,Rx,0,8,90,F7,F8,00,00,00,F4,00,
3857993,000000C4,false,Rx,0,7,4F,FF,FD,00,00,FF,F1,00,
3858246,000000CE,false,Rx,0,8,00,00,00,00,00,00,00,00,
3858437,000000B6,false,Rx,0,5,42,03,80,00,08,00,00,00,
3858726,0000019E,false,Rx,0,8,00,EA,BF,FC,FE,20,00,66,
3858984,000001A0,false,Rx,0,8,00,80,00,C0,FF,12,30,25,
3859254,000002B2,false,Rx,0,8,00,00,00,00,4F,00,00,04,
3862344,000000A8,false,Rx,0,8,76,F8,F8,00,00,0C,CF,00,
3862575,000000A9,false,Rx,0,8,65,08,8F,8F,0C,8F,FF,F8,
3862822,000000AA,false,Rx,0,8,91,F8,F8,00,00,00,F4,00,
3867480,000002F1,false,Rx,0,3,E9,F8,FC,00,00,00,00,00,
3867985,000000C4,false,Rx,0,7,4F,FF,FD,00,00,FF,F1,00,
3870720,00000130,false,Rx,0,5,41,40,21,0F,22,00,00,00,
3872336,000000A8,false,Rx,0,8,77,F9,F8,00,00,0C,CF,00,
3872571,000000A9,false,Rx,0,8,66,09,8F,8F,0C,8F,FF,F8,
3872807,000000AA,false,Rx,0,8,92,F9,F8,00,00,00,F4,00,
3878015,000000C4,false,Rx,0,7,4F,FF,FD,00,00,FF,F1,00,
3878268,000000CE,false,Rx,0,8,00,00,00,00,00,00,00,00,
3878459,000000B6,false,Rx,0,5,43,04,80,00,08,00,00,00,
3878748,0000019E,false,Rx,0,8,00,EA,BF,FC,FE,20,00,66,
3879008,000001A0,false,Rx,0,8,00,80,00,C0,FF,12,40,35,
3879264,000002B2,false,Rx,0,8,00,00,00,00,4F,00,00,04,
3882355,000000A8,false,Rx,0,8,78,FA,F8,00,00,0C,CF,00,
3882596,000000A9,false,Rx,0,8,67,0A,8F,8F,0C,8F,FF,F8,
3882832,000000AA,false,Rx,0,8,93,FA,F8,00,00,00,F4,00,
3887983,000000C4,false,Rx,0,7,4F,FF,FD,00,00,FF,F1,00,
3891110,000001FB,false,Rx,0,2,FD,FF,00,00,00,00,00,00,
3892359,000000A8,false,Rx,0,8,79,FB,F8,00,00,0C,CF,00,
3892594,000000A9,false,Rx,0,8,68,0B,8F,8F,0C,8F,FF,F8,
3892841,000000AA,false,Rx,0,8,94,FB,F8,00,00,00,F4,00,
3893077,000001D0,false,Rx,0,8,3C,08,04,C6,00,00,0D,AE,
3897969,000000C4,false,Rx,0,7,4F,FF,FD,00,00,FF,F1,00,
3898223,000000CE,false,Rx,0,8,00,00,00,00,00,00,00,00,
3898403,000000B6,false,Rx,0,5,44,05,80,00,08,00,00,00,
3898736,0000019E,false,Rx,0,8,00,EA,BF,FC,FE,20,00,66,
3898996,000001A0,false,Rx,0,8,00,80,00,A0,FF,12,50,25,
3899252,000001A6,false,Rx,0,8,00,00,00,00,00,00,E0,FB,
3899521,000002B2,false,Rx,0,8,00,00,00,00,4F,00,00,04,
3902372,000000A8,false,Rx,0,8,7A,FC,F8,00,00,0C,CF,00,
3902614,000000A9,false,Rx,0,8,69,0C,8F,8F,0C,8F,FF,F8,
3902850,000000AA,false,Rx,0,8,95,FC,F8,00,00,00,F4,00,
3908047,000000C4,false,Rx,0,7,4F,FF,FD,00,00,FF,F1,00,
3908212,00000194,false,Rx,0,4,F3,F6,00,FC,00,00,00,00,
3912344,000000A8,false,Rx,0,8,7B,FD,F8,00,00,0C,CF,00,
3912574,000000A9,false,Rx,0,8,6A,0D,8F,8F,0C,8F,FF,F8,
3912821,000000AA,false,Rx,0,8,96,FD,F8,00,00,00,F4,00,
3916996,00000480,false,Rx,0,8,12,42,FD,01,FF,FF,FF,FF,
3918025,000000C4,false,Rx,0,7,4F,FF,FD,00,00,FF,F1,00,
3918272,000000CE,false,Rx,0,8,00,00,00,00,00,00,00,00,
3918463,000000B6,false,Rx,0,5,45,06,80,00,08,00,00,00,
3918752,0000019E,false,Rx,0,8,00,EA,BF,FC,FE,20,00,66,
3919022,000001A0,false,Rx,0,8,00,80,00,C0,FF,12,60,55,
3919283,000002B2,false,Rx,0,8,00,00,00,00,4F,00,00,04,
3922395,000000A8,false,Rx,0,8,7C,FE,F8,00,00,0C,CF,00,
3922630,000000A9,false,Rx,0,8,6B,0E,8F,8F,0C,8F,FF,F8,
3922877,000000AA,false,Rx,0,8,97,FE,F8,00,00,00,F4,00,
3928027,000000C4,false,Rx,0,7,4F,FF,FD,00,00,FF,F1,00,
3932342,000000A8,false,Rx,0,8,6E,F0,F8,00,00,0C,CF,00,
3932583,000000A9,false,Rx,0,8,5D,00,8F,8F,0C,8F,FF,F8,
3932819,000000AA,false,Rx,0,8,89,F0,F8,00,00,00,F4,00,
3937320,000001B4,false,Rx,0,8,00,D0,FF,F8,FC,FE,FE,7A,
3938028,000000C4,false,Rx,0,7,4F,FF,FD,00,00,FF,F1,00,
3938285,000000CE,false,Rx,0,8,00,00,00,00,00,00,00,00,
3938464,000000B6,false,Rx,0,5,46,07,80,00,08,00,00,00,
3938765,0000019E,false,Rx,0,8,00,EA,BF,FC,FE,20,00,66,
3939024,000001A0,false,Rx,0,8,00,80,00,C0,FF,12,70,65,
3939281,000002B2,false,Rx,0,8,00,00,00,00,4F,00,00,04,
3942394,000000A8,false,Rx,0,8,6F,F1,F8,00,00,0C,CF,00,
3942625,000000A9,false,Rx,0,8,5E,01,8F,8F,0C,8F,FF,F8,
3942860,000000AA,false,Rx,0,8,8A,F1,F8,00,00,00,F4,00,
3947967,000000C4,false,Rx,0,7,4F,FF,FD,00,00,FF,F1,00,
3951296,00000310,false,Rx,0,7,6E,19,05,00,00,42,20,00,
3952346,000000A8,false,Rx,0,8,70,F2,F8,00,00,0C,CF,00,
3952581,000000A9,false,Rx,0,8,5F,02,8F,8F,0C,8F,FF,F8,
3952817,000000AA,false,Rx,0,8,8B,F2,F8,00,00,00,F4,00,
3957996,000000C4,false,Rx,0,7,4F,FF,FD,00,00,FF,F1,00,
3958236,000000CE,false,Rx,0,8,00,00,00,00,00,00,00,00,
3958427,000000B6,false,Rx,0,5,47,08,80,00,08,00,00,00,
3958705,0000019E,false,Rx,0,8,00,EA,BF,FC,FE,20,00,66,
3958974,000001A0,false,Rx,0,8,00,80,00,C0,FF,15,80,78,
3959232,000002B2,false,Rx,0,8,00,00,00,00,5F,00,00,04,
3962379,000000A8,false,Rx,0,8,71,F3,F8,00,00,0C,CF,00,
3962610,000000A9,false,Rx,0,8,60,03,8F,8F,0C,8F,FF,F8,
3962856,000000AA,false,Rx,0,8,8C,F3,F8,00,00,00,F4,00,
3967963,000000C4,false,Rx,0,7,4F,FF,FD,00,00,FF,F1,00,
3970807,00000130,false,Rx,0,5,41,40,21,0F,33,00,00,00,
3972356,000000A8,false,Rx,0,8,72,F4,F8,00,00,0C,CF,00,
3972592,000000A9,false,Rx,0,8,61,04,8F,8F,0C,8F,FF,F8,
3972827,000000AA,false,Rx,0,8,8D,F4,F8,00,00,00,F4,00,
3978014,000000C4,false,Rx,0,7,4F,FF,FD,00,00,FF,F1,00,
3978266,000000CE,false,Rx,0,8,00,00,00,00,00,00,00,00,
3978457,000000B6,false,Rx,0,5,48,09,80,00,08,00,00,00,
3978748,0000019E,false,Rx,0,8,00,EA,BF,FC,FE,20,00,66,
3979005,000001A0,false,Rx,0,8,00,80,00,C0,FF,0F,90,82,
3979273,000002B2,false,Rx,0,8,00,00,00,00,3F,00,00,04,
3982342,000000A8,false,Rx,0,8,73,F5,F8,00,00,0C,CF,00,
3982584,000000A9,false,Rx,0,8,62,05,8F,8F,0C,8F,FF,F8,
3982819,000000AA,false,Rx,0,8,8E,F5,F8,00,00,00,F4,00,
3987982,000000C4,false,Rx,0,7,4F,FF,FD,00,00,FF,F1,00,
3992342,000000A8,false,Rx,0,8,74,F6,F8,00,00,0C,CF,00,
3992574,000000A9,false,Rx,0,8,63,06,8F,8F,0C,8F,FF,F8,
3992809,000000AA,false,Rx,0,8,8F,F6,F8,00,00,00,F4,00,
3993056,000001D0,false,Rx,0,8,3C,08,05,C6,00,00,0D,AE,
3997976,000000C4,false,Rx,0,7,4F,FF,FD,00,00,FF,F1,00,
3998229,000000CE,false,Rx,0,8,00,00,00,00,00,00,00,00,
3998408,000000B6,false,Rx,0,5,49,0A,80,00,08,00,00,00,
3998609,000000C8,false,Rx,0,6,4F,FF,71,00,00,8C,00,00,
3998856,0000019E,false,Rx,0,8,00,EA,BF,FC,FE,20,00,66,
3999114,000001A0,false,Rx,0,8,00,80,00,A0,FF,0F,A0,72,
3999371,000001A6,false,Rx,0,8,00,00,00,00,00,00,70,FD,
3999640,000002B2,false,Rx,0,8,00,00,00,00,3F,00,00,04,
4002347,000000A8,false,Rx,0,8,75,F7,F8,00,00,0C,CF,00,
4002579,000000A9,false,Rx,0,8,64,07,8F,8F,0C,8F,FF,F8,
4002814,000000AA,false,Rx,0,8,90,F7,F8,00,00,00,F4,00,
4008022,000000C4,false,Rx,0,7,4F,FF,FD,00,00,FF,F1,00,
4012336,000000A8,false,Rx,0,8,76,F8,F8,00,00,0C,CF,00,
4012557,000000A9,false,Rx,0,8,65,08,8F,8F,0C,8F,FF,F8,
4012802,000000AA,false,Rx,0,8,91,F8,F8,00,00,00,F4,00,
4017992,000000C4,false,Rx,0,7,4F,FF,FD,00,00,FF,F1,00,
4018244,000000CE,false,Rx,0,8,00,00,00,00,00,00,00,00,
4018435,000000B6,false,Rx,0,5,4A,0B,80,00,08,00,00,00,
4018715,0000019E,false,Rx,0,8,00,EA,BF,FC,FE,20,00,66,
4018971,000001A0,false,Rx,0,8,00,80,00,A0,FF,12,B0,85,
4019229,000002B2,false,Rx,0,8,00,00,00,00,4F,00,00,04,
4022342,00000492,false,Rx,0,8,17,52,FF,FF,FF,FF,FF,FF,
4022585,000000A8,false,Rx,0,8,77,F9,F8,00,00,0C,CF,00,
4022820,000000A9,false,Rx,0,8,66,09,8F,8F,0C,8F,FF,F8,
4023056,000000AA,false,Rx,0,8,92,F9,F8,00,00,00,F4,00,
4028044,000000C4,false,Rx,0,7,4F,FF,FD,00,00,FF,F1,00,
4032280,000000A8,false,Rx,0,8,78,FA,F8,00,00,0C,CF,00,
4032511,000000A9,false,Rx,0,8,67,0A,8F,8F,0C,8F,FF,F8,
4032746,000000AA,false,Rx,0,8,93,FA,F8,00,00,00,F4,00,
4037314,000001B4,false,Rx,0,8,00,D0,FF,F9,FC,FE,FE,7B,
4038044,000000C4,false,Rx,0,7,4F,FF,FD,00,00,FF,F1,00,
4038301,000000CE,false,Rx,0,8,00,00,00,00,00,00,00,00,
4038480,000000B6,false,Rx,0,5,4B,0C,80,00,08,00,00,00,
4038782,0000019E,false,Rx,0,8,00,EA,BF,FC,FE,20,00,66,
4039040,000001A0,false,Rx,0,8,00,80,00,C0,FF,12,C0,B5,
4039297,000002B2,false,Rx,0,8,00,00,00,00,4F,00,00,04,
4042344,000000A8,false,Rx,0,8,79,FB,F8,00,00,0C,CF,00,
4042576,000000A9,false,Rx,0,8,68,0B,8F,8F,0C,8F,FF,F8,
4042811,000000AA,false,Rx,0,8,94,FB,F8,00,00,00,F4,00,
4047974,000000C4,false,Rx,0,7,4F,FF,FD,00,00,FF,F1,00,
4052334,000000A8,false,Rx,0,8,7A,FC,F8,00,00,0C,CF,00,
4052565,000000A9,false,Rx,0,8,69,0C,8F,8F,0C,8F,FF,F8,
4052811,000000AA,false,Rx,0,8,95,FC,F8,00,00,00,F4,00,
4057973,000000C4,false,Rx,0,7,4F,FF,FD,00,00,FF,F1,00,
4058215,000000CE,false,Rx,0,8,00,00,00,00,00,00,00,00,
4058406,000000B6,false,Rx,0,5,4C,0D,80,00,08,00,00,00,
4058697,0000019E,false,Rx,0,8,00,EA,CF,FC,FE,20,00,76,
4058954,000001A0,false,Rx,0,8,00,80,00,D0,FF,12,D0,D5,
4059212,000002B2,false,Rx,0,8,00,00,00,00,4F,00,00,04,
4062335,000000A8,false,Rx,0,8,7B,FD,F8,00,00,0C,CF,00,
4062567,000000A9,false,Rx,0,8,6A,0D,8F,8F,0C,8F,FF,F8,
4062813,000000AA,false,Rx,0,8,96,FD,F8,00,00,00,F4,00,
4067954,000000C4,false,Rx,0,7,4F,FF,FD,00,00,FF,F1,00,
4070721,00000130,false,Rx,0,5,41,40,21,0F,44,00,00,00,
4072336,000000A8,false,Rx,0,8,7C,FE,F8,00,00,0C,CF,00,
4072573,000000A9,false,Rx,0,8,6B,0E,8F,8F,0C,8F,FF,F8,
4072816,000000AA,false,Rx,0,8,97,FE,F8,00,00,00,F4,00,
4078040,000000C4,false,Rx,0,7,4F,FF,FD,00,00,FF,F1,00,
4078292,000000CE,false,Rx,0,8,00,00,00,00,00,00,00,00,
4078483,000000B6,false,Rx,0,5,4D,0E,80,00,08,00,00,00,
4078773,0000019E,false,Rx,0,8,00,EA,CF,FC,FE,20,00,76,
4079031,000001A0,false,Rx,0,8,00,80,00,C0,FF,12,E0,D5,
4079288,000002B2,false,Rx,0,8,00,00,00,00,4F,00,00,04,
4081125,000001FB,false,Rx,0,2,FE,FF,00,00,00,00,00,00,
4082339,000000A8,false,Rx,0,8,6E,F0,F8,00,00,0C,CF,00,
4082575,000000A9,false,Rx,0,8,5D,00,8F,8F,0C,8F,FF,F8,
4082810,000000AA,false,Rx,0,8,89,F0,F8,00,00,00,F4,00,
4088037,000000C4,false,Rx,0,7,4F,FF,FD,00,00,FF,F1,00,
4092340,000000A8,false,Rx,0,8,6F,F1,F8,00,00,0C,CF,00,
4092571,000000A9,false,Rx,0,8,5E,01,8F,8F,0C,8F,FF,F8,
4092806,000000AA,false,Rx,0,8,8A,F1,F8,00,00,00,F4,00,
4093053,000001D0,false,Rx,0,8,3C,08,05,C6,00,00,0D,AE,
4098053,000000C4,false,Rx,0,7,4F,FF,FD,00,00,FF,F1,00,
4098305,000000CE,false,Rx,0,8,00,00,00,00,00,00,00,00,
4098495,000000B6,false,Rx,0,5,3F,00,80,00,08,00,00,00,
4098742,0000019E,false,Rx,0,8,00,EA,CF,FC,FE,20,00,76,
4099000,000001A0,false,Rx,0,8,00,80,00,C0,FF,12,00,F4,
4099268,000001A6,false,Rx,0,8,00,00,00,00,00,00,00,FF,
4099526,000002B2,false,Rx,0,8,00,00,00,00,4F,00,00,04,
4102340,000000A8,false,Rx,0,8,70,F2,F8,00,00,0C,CF,00,
