Time Stamp,ID,Extended,Dir,Bus,LEN,D1,D2,D3,D4,D5,D6,D7,D8
1175783,000000C4,false,Rx,0,7,54,FF,FD,00,00,FF,F1,00,
1177432,000000A8,false,Rx,0,8,89,EA,F8,00,00,0D,CF,20,
1177656,000000A9,false,Rx,0,8,55,0A,8E,8F,0C,8E,EF,F8,
1177901,000000AA,false,Rx,0,8,83,EA,F8,00,00,00,F4,00,
1185752,000000C4,false,Rx,0,7,54,FF,FD,00,00,FF,F1,00,
1186006,000000CE,false,Rx,0,8,00,00,00,00,00,00,00,00,
1186186,000000B6,false,Rx,0,5,47,08,80,00,08,00,00,00,
1186464,0000019E,false,Rx,0,8,00,EA,AF,FC,FE,63,00,99,
1186722,000001A0,false,Rx,0,8,00,80,00,A0,FF,12,80,55,
1186991,000002B2,false,Rx,0,8,00,00,00,00,4F,00,00,04,
1187426,000000A8,false,Rx,0,8,8A,EB,F8,00,00,0D,CF,20,
1187661,000000A9,false,Rx,0,8,56,0B,8E,8F,0C,8E,EF,F8,
1187893,000000AA,false,Rx,0,8,84,EB,F8,00,00,00,F4,00,
1195743,000000C4,false,Rx,0,7,54,FF,FD,00,00,FF,F1,00,
1197426,000000A8,false,Rx,0,8,8B,EC,F8,00,00,0D,CF,20,
1197649,000000A9,false,Rx,0,8,57,0C,8E,8F,0C,8E,EF,F8,
1197893,000000AA,false,Rx,0,8,85,EC,F8,00,00,00,F4,00,
1198130,000001D0,false,Rx,0,8,3B,08,08,C6,00,00,0D,AE,
1205838,000000C4,false,Rx,0,7,54,FF,FD,00,00,FF,F1,00,
1206091,000000CE,false,Rx,0,8,00,00,00,00,00,00,00,00,
1206270,000000B6,false,Rx,0,5,48,09,80,00,08,00,00,00,
1206550,0000019E,false,Rx,0,8,00,EA,AF,FC,FE,63,00,99,
1206818,000001A0,false,Rx,0,8,00,80,00,A0,FF,12,90,65,
1207077,000002B2,false,Rx,0,8,00,00,00,00,4F,00,00,04,
1207457,000000A8,false,Rx,0,8,8C,ED,F8,00,00,0D,CF,20,
1207681,000000A9,false,Rx,0,8,58,0D,8E,8F,0C,8E,EF,F8,
1207915,000000AA,false,Rx,0,8,86,ED,F8,00,00,00,F4,00,
1215797,000000C4,false,Rx,0,7,54,FF,FD,00,00,FF,F1,00,
1217424,000000A8,false,Rx,0,8,8D,EE,F8,00,00,0D,CF,20,
1217648,000000A9,false,Rx,0,8,59,0E,8E,8F,0C,8E,EF,F8,
1217880,000000AA,false,Rx,0,8,87,EE,F8,00,00,00,F4,00,
1225830,000000C4,false,Rx,0,7,54,FF,FD,00,00,FF,F1,00,
1226083,000000CE,false,Rx,0,8,00,00,00,00,00,00,00,00,
1226263,000000B6,false,Rx,0,5,49,0A,80,00,08,00,00,00,
1226542,0000019E,false,Rx,0,8,00,EA,AF,FC,FE,63,00,99,
1226799,000001A0,false,Rx,0,8,00,80,00,90,FF,0F,A0,62,
1227068,000002B2,false,Rx,0,8,00,00,00,00,3F,00,00,04,
1227448,000000A8,false,Rx,0,8,7F,E0,F8,00,00,0D,CF,20,
1227672,000000A9,false,Rx,0,8,4B,00,8E,8F,0C,8E,EF,F8,
1227916,000000AA,false,Rx,0,8,79,E0,F8,00,00,00,F4,00,
1235798,000000C4,false,Rx,0,7,54,FF,FD,00,00,FF,F1,00,
1237414,000000A8,false,Rx,0,8,80,E1,F8,00,00,0D,CF,20,
1237649,000000A9,false,Rx,0,8,4C,01,8E,8F,0C,8E,EF,F8,
1237881,000000AA,false,Rx,0,8,7A,E1,F8,00,00,00,F4,00,
1245777,000000C4,false,Rx,0,7,54,FF,FD,00,00,FF,F1,00,
1246030,000000CE,false,Rx,0,8,00,00,00,00,00,00,00,00,
1246210,000000B6,false,Rx,0,5,4A,0B,80,00,08,00,00,00,
1246489,0000019E,false,Rx,0,8,00,EA,AF,FC,FE,63,00,99,
1246746,000001A0,false,Rx,0,8,00,80,00,A0,FF,12,B0,85,
1247004,000002B2,false,Rx,0,8,00,00,00,00,4F,00,00,04,
1247450,000000A8,false,Rx,0,8,81,E2,F8,00,00,0D,CF,20,
1247685,000000A9,false,Rx,0,8,4D,02,8E,8F,0C,8E,EF,F8,
1247930,000000AA,false,Rx,0,8,7B,E2,F8,00,00,00,F4,00,
1255767,000000C4,false,Rx,0,7,54,FF,FD,00,00,FF,F1,00,
1257416,000000A8,false,Rx,0,8,82,E3,F8,00,00,0D,CF,20,
1257651,000000A9,false,Rx,0,8,4E,03,8E,8F,0C,8E,EF,F8,
1257884,000000AA,false,Rx,0,8,7C,E3,F8,00,00,00,F4,00,
1261762,000004B0,false,Rx,0,8,00,52,FE,01,FF,FF,FF,FF,
1265785,000000C4,false,Rx,0,7,54,FF,FD,00,00,FF,F1,00,
1266039,000000CE,false,Rx,0,8,00,00,00,00,00,00,00,00,
1266218,000000B6,false,Rx,0,5,4B,0C,80,00,08,00,00,00,
1266542,0000019E,false,Rx,0,8,00,EA,AF,FC,FE,63,00,99,
1266799,000001A0,false,Rx,0,8,00,80,00,A0,FF,0F,C0,92,
1267057,000001A6,false,Rx,0,8,00,00,00,00,00,00,90,F3,
1267326,000002B2,false,Rx,0,8,00,00,00,00,3F,00,00,04,
1267561,000000A8,false,Rx,0,8,83,E4,F8,00,00,0D,CF,20,
1267796,000000A9,false,Rx,0,8,4F,04,8E,8F,0C,8E,EF,F8,
1268033,000000AA,false,Rx,0,8,7D,E4,F8,00,00,00,F4,00,
1268577,00000130,false,Rx,0,5,00,0E,D0,0F,CB,00,00,00,
1275774,000000C4,false,Rx,0,7,54,FF,FD,00,00,FF,F1,00,
1277424,000000A8,false,Rx,0,8,84,E5,F8,00,00,0D,CF,20,
1277648,000000A9,false,Rx,0,8,50,05,8E,8F,0C,8E,EF,F8,
1277881,000000AA,false,Rx,0,8,7E,E5,F8,00,00,00,F4,00,
1285763,000000C4,false,Rx,0,7,54,FF,FD,00,00,FF,F1,00,
1286016,000000CE,false,Rx,0,8,00,00,00,00,00,00,00,00,
1286196,000000B6,false,Rx,0,5,4C,0D,80,00,08,00,00,00,
1286475,0000019E,false,Rx,0,8,00,EA,AF,FC,FE,63,00,99,
1286732,000001A0,false,Rx,0,8,00,80,00,90,FF,0F,D0,92,
1287001,000002B2,false,Rx,0,8,00,00,00,00,3F,00,00,04,
1287447,000000A8,false,Rx,0,8,85,E6,F8,00,00,0D,CF,20,
1287671,000000A9,false,Rx,0,8,51,06,8E,8F,0C,8E,EF,F8,
1287916,000000AA,false,Rx,0,8,7F,E6,F8,00,00,00,F4,00,
1295744,000000C4,false,Rx,0,7,54,FF,FD,00,00,FF,F1,00,
1297460,000000A8,false,Rx,0,8,86,E7,F8,00,00,0D,CF,20,
1297684,000000A9,false,Rx,0,8,52,07,8E,8F,0C,8E,EF,F8,
1297930,000000AA,false,Rx,0,8,80,E7,F8,00,00,00,F4,00,
1298165,000001D0,false,Rx,0,8,3B,08,09,C6,00,00,0D,AE,
1305819,000000C4,false,Rx,0,7,54,FF,FD,00,00,FF,F1,00,
1306072,000000CE,false,Rx,0,8,00,00,00,00,00,00,00,00,
1306252,000000B6,false,Rx,0,5,4D,0E,80,00,08,00,00,00,
1306421,00000194,false,Rx,0,4,F6,F9,00,FC,00,00,00,00,
1306654,0000019E,false,Rx,0,8,00,EA,AF,FC,FE,63,00,99,
1306912,000001A0,false,Rx,0,8,00,80,00,90,FF,12,E0,A5,
1307171,000002B2,false,Rx,0,8,00,00,00,00,4F,00,00,04,
1307461,000000A8,false,Rx,0,8,87,E8,F8,00,00,0D,CF,20,
1307685,000000A9,false,Rx,0,8,53,08,8E,8F,0C,8E,EF,F8,
1307920,000000AA,false,Rx,0,8,81,E8,F8,00,00,00,F4,00,
1315758,000000C4,false,Rx,0,7,54,FF,FD,00,00,FF,F1,00,
1317451,000000A8,false,Rx,0,8,88,E9,F8,00,00,0D,CF,20,
1317686,000000A9,false,Rx,0,8,54,09,8E,8F,0C,8E,EF,F8,
1317921,000000AA,false,Rx,0,8,82,E9,F8,00,00,00,F4,00,
1322739,000001FB,false,Rx,0,2,F6,FF,00,00,00,00,00,00,
1325795,000000C4,false,Rx,0,7,54,FF,FD,00,00,FF,F1,00,
1326048,000000CE,false,Rx,0,8,00,00,00,00,00,00,00,00,
1326238,000000B6,false,Rx,0,5,3F,00,80,00,08,00,00,00,
1326507,0000019E,false,Rx,0,8,00,EA,AF,FC,FE,63,00,99,
1326775,000001A0,false,Rx,0,8,00,80,00,A0,FF,0F,00,D1,
1327034,000002B2,false,Rx,0,8,00,00,00,00,3F,00,00,04,
1327446,000000A8,false,Rx,0,8,89,EA,F8,00,00,0D,CF,20,
1327680,000000A9,false,Rx,0,8,55,0A,8E,8F,0C,8E,EF,F8,
1327927,000000AA,false,Rx,0,8,83,EA,F8,00,00,00,F4,00,
1335763,000000C4,false,Rx,0,7,54,FF,FD,00,00,FF,F1,00,
1335973,000000C8,false,Rx,0,6,54,FF,01,00,00,7C,00,00,
1337449,000000A8,false,Rx,0,8,8A,EB,F8,00,00,0D,CF,20,
1337672,000000A9,false,Rx,0,8,56,0B,8E,8F,0C,8E,EF,F8,
1337909,000000AA,false,Rx,0,8,84,EB,F8,00,00,00,F4,00,
1343636,00000480,false,Rx,0,8,12,42,01,01,FF,FF,FF,FF,
1345764,000000C4,false,Rx,0,7,54,FF,FD,00,00,FF,F1,00,
1346017,000000CE,false,Rx,0,8,00,00,00,00,00,00,00,00,
1346196,000000B6,false,Rx,0,5,40,01,80,00,08,00,00,00,
1346476,0000019E,false,Rx,0,8,00,EA,AF,FC,FE,63,00,99,
1346733,000001A0,false,Rx,0,8,00,80,00,A0,FF,0F,10,E1,
1347003,000002B2,false,Rx,0,8,00,00,00,00,3F,00,00,04,
1347448,000000A8,false,Rx,0,8,8B,EC,F8,00,00,0D,CF,20,
1347672,000000A9,false,Rx,0,8,57,0C,8E,8F,0C,8E,EF,F8,
1347917,000000AA,false,Rx,0,8,85,EC,F8,00,00,00,F4,00,
1355732,000000C4,false,Rx,0,7,54,FF,FD,00,00,FF,F1,00,
1357426,000000A8,false,Rx,0,8,8C,ED,F8,00,00,0D,CF,20,
1357649,000000A9,false,Rx,0,8,58,0D,8E,8F,0C,8E,EF,F8,
1357883,000000AA,false,Rx,0,8,86,ED,F8,00,00,00,F4,00,
1365743,000000C4,false,Rx,0,7,54,FF,FD,00,00,FF,F1,00,
1365996,000000CE,false,Rx,0,8,00,00,00,00,00,00,00,00,
1366188,000000B6,false,Rx,0,5,41,02,80,00,08,00,00,00,
1366500,0000019E,false,Rx,0,8,00,EA,BF,FC,FE,63,00,A9,
1366757,000001A0,false,Rx,0,8,00,80,00,90,FF,0F,20,E1,
1367016,000001A6,false,Rx,0,8,00,00,00,00,00,00,20,F5,
1367284,000002B2,false,Rx,0,8,00,00,00,00,3F,00,00,04,
1367519,000000A8,false,Rx,0,8,8D,EE,F8,00,00,0D,CF,20,
1367744,000000A9,false,Rx,0,8,59,0E,8E,8F,0C,8E,EF,F8,
1367990,000000AA,false,Rx,0,8,87,EE,F8,00,00,00,F4,00,
1368536,00000130,false,Rx,0,5,00,0E,D0,0F,DC,00,00,00,
1375788,000000C4,false,Rx,0,7,54,FF,FD,00,00,FF,F1,00,
1377438,000000A8,false,Rx,0,8,7F,E0,F8,00,00,0D,CF,20,
1377662,000000A9,false,Rx,0,8,4B,00,8E,8F,0C,8E,EF,F8,
1377908,000000AA,false,Rx,0,8,79,E0,F8,00,00,00,F4,00,
1385756,000000C4,false,Rx,0,7,54,FF,FD,00,00,FF,F1,00,
1386010,000000CE,false,Rx,0,8,00,00,00,00,00,00,00,00,
1386201,000000B6,false,Rx,0,5,42,03,80,00,08,00,00,00,
1386469,0000019E,false,Rx,0,8,00,EA,BF,FC,FE,63,00,A9,
1386726,000001A0,false,Rx,0,8,00,80,00,90,FF,0F,30,F1,
1386996,000002B2,false,Rx,0,8,00,00,00,00,3F,00,00,04,
1387452,000000A8,false,Rx,0,8,80,E1,F8,00,00,0D,CF,20,
1387676,000000A9,false,Rx,0,8,4C,01,8E,8F,0C,8E,EF,F8,
1387921,000000AA,false,Rx,0,8,7A,E1,F8,00,00,00,F4,00,
1395736,000000C4,false,Rx,0,7,54,FF,FD,00,00,FF,F1,00,
1397429,000000A8,false,Rx,0,8,81,E2,F8,00,00,0D,CF,20,
1397653,000000A9,false,Rx,0,8,4D,02,8E,8F,0C,8E,EF,F8,
1397897,000000AA,false,Rx,0,8,7B,E2,F8,00,00,00,F4,00,
1398133,000001D0,false,Rx,0,8,3B,08,09,C6,00,00,0D,AE,
1405809,000000C4,false,Rx,0,7,54,FF,FD,00,00,FF,F1,00,
1406062,000000CE,false,Rx,0,8,00,00,00,00,00,00,00,00,
1406243,000000B6,false,Rx,0,5,43,04,80,00,08,00,00,00,
1406521,0000019E,false,Rx,0,8,00,EA,BF,FC,FE,63,00,A9,
1406778,000001A0,false,Rx,0,8,00,80,00,A0,FF,12,40,15,
1407038,000002B2,false,Rx,0,8,00,00,00,00,4F,00,00,04,
1407438,000000A8,false,Rx,0,8,82,E3,F8,00,00,0D,CF,20,
1407663,000000A9,false,Rx,0,8,4E,03,8E,8F,0C,8E,EF,F8,
1407895,000000AA,false,Rx,0,8,7C,E3,F8,00,00,00,F4,00,
1415778,000000C4,false,Rx,0,7,54,FF,FD,00,00,FF,F1,00,
1417417,000000A8,false,Rx,0,8,83,E4,F8,00,00,0D,CF,20,
1417653,000000A9,false,Rx,0,8,4F,04,8E,8F,0C,8E,EF,F8,
1417896,000000AA,false,Rx,0,8,7D,E4,F8,00,00,00,F4,00,
1425801,000000C4,false,Rx,0,7,54,FF,FD,00,00,FF,F1,00,
1426055,000000CE,false,Rx,0,8,00,00,00,00,00,00,00,00,
1426236,000000B6,false,Rx,0,5,44,05,80,00,08,00,00,00,
1426514,0000019E,false,Rx,0,8,00,EA,BF,FC,FE,63,00,A9,
1426771,000001A0,false,Rx,0,8,00,80,00,90,FF,0F,50,12,
1427031,000002B2,false,Rx,0,8,00,00,00,00,3F,00,00,04,
1427431,000000A8,false,Rx,0,8,84,E5,F8,00,00,0D,CF,20,
1427656,000000A9,false,Rx,0,8,50,05,8E,8F,0C,8E,EF,F8,
1427899,000000AA,false,Rx,0,8,7E,E5,F8,00,00,00,F4,00,
1435759,000000C4,false,Rx,0,7,54,FF,FD,00,00,FF,F1,00,
1437431,000000A8,false,Rx,0,8,85,E6,F8,00,00,0D,CF,20,
1437656,000000A9,false,Rx,0,8,51,06,8E,8F,0C,8E,EF,F8,
1437901,000000AA,false,Rx,0,8,7F,E6,F8,00,00,00,F4,00,
1442875,000003BE,false,Rx,0,2,AF,F0,00,00,00,00,00,00,
1445742,000000C4,false,Rx,0,7,54,FF,FD,00,00,FF,F1,00,
1445984,000000CE,false,Rx,0,8,00,00,00,00,00,00,00,00,
1446176,000000B6,false,Rx,0,5,45,06,80,00,08,00,00,00,
1446443,0000019E,false,Rx,0,8,00,EA,BF,FC,FE,63,00,A9,
1446700,000001A0,false,Rx,0,8,00,80,00,90,FF,12,60,25,
1446959,000002B2,false,Rx,0,8,00,00,00,00,4F,00,00,04,
1447382,00000492,false,Rx,0,8,17,52,FF,FF,FF,FF,FF,FF,
1447618,000000A8,false,Rx,0,8,86,E7,F8,00,00,0D,CF,20,
1447839,000000A9,false,Rx,0,8,52,07,8E,8F,0C,8E,EF,F8,
1448086,000000AA,false,Rx,0,8,80,E7,F8,00,00,00,F4,00,
1455748,000000C4,false,Rx,0,7,54,FF,FD,00,00,FF,F1,00,
1457431,000000A8,false,Rx,0,8,87,E8,F8,00,00,0D,CF,20,
1457656,000000A9,false,Rx,0,8,53,08,8E,8F,0C,8E,EF,F8,
1457901,000000AA,false,Rx,0,8,81,E8,F8,00,00,00,F4,00,
1465750,000000C4,false,Rx,0,7,54,FF,FD,00,00,FF,F1,00,
1466003,000000CE,false,Rx,0,8,00,00,00,00,00,00,00,00,
1466184,000000B6,false,Rx,0,5,46,07,80,00,08,00,00,00,
1466495,0000019E,false,Rx,0,8,00,EA,BF,FC,FE,63,00,A9,
1466752,000001A0,false,Rx,0,8,00,80,00,90,FF,12,70,35,
1467011,000001A6,false,Rx,0,8,00,00,00,00,00,00,B0,F6,
1467279,000002B2,false,Rx,0,8,00,00,00,00,4F,00,00,04,
1467514,000000A8,false,Rx,0,8,88,E9,F8,00,00,0D,CF,20,
1467739,000000A9,false,Rx,0,8,54,09,8E,8F,0C,8E,EF,F8,
1467985,000000AA,false,Rx,0,8,82,E9,F8,00,00,00,F4,00,
1473108,00000130,false,Rx,0,5,00,0E,D0,0F,ED,00,00,00,
1475827,000000C4,false,Rx,0,7,54,FF,FD,00,00,FF,F1,00,
1477432,000000A8,false,Rx,0,8,89,EA,F8,00,00,0D,CF,20,
1477657,000000A9,false,Rx,0,8,55,0A,8E,8F,0C,8E,EF,F8,
1477902,000000AA,false,Rx,0,8,83,EA,F8,00,00,00,F4,00,
1478668,000001B5,false,Rx,0,7,00,FF,00,00,C8,FF,FF,00,
1485810,000000C4,false,Rx,0,7,54,FF,FD,00,00,FF,F1,00,
1486054,000000CE,false,Rx,0,8,00,00,00,00,00,00,00,00,
1486244,000000B6,false,Rx,0,5,47,08,80,00,08,00,00,00,
1486523,0000019E,false,Rx,0,8,00,EA,BF,FC,FE,63,00,A9,
1486781,000001A0,false,Rx,0,8,00,80,00,A0,FF,0F,80,52,
1487039,000002B2,false,Rx,0,8,00,00,00,00,3F,00,00,04,
1487440,000000A8,false,Rx,0,8,8A,EB,F8,00,00,0D,CF,20,
1487665,000000A9,false,Rx,0,8,56,0B,8E,8F,0C,8E,EF,F8,
1487896,000000AA,false,Rx,0,8,84,EB,F8,00,00,00,F4,00,
1495789,000000C4,false,Rx,0,7,54,FF,FD,00,00,FF,F1,00,
1497438,000000A8,false,Rx,0,8,8B,EC,F8,00,00,0D,CF,20,
1497663,000000A9,false,Rx,0,8,57,0C,8E,8F,0C,8E,EF,F8,
1497908,000000AA,false,Rx,0,8,85,EC,F8,00,00,00,F4,00,
1498143,000001D0,false,Rx,0,8,3B,08,0A,C6,00,00,0D,AE,
1505942,000000C4,false,Rx,0,7,54,FF,FD,00,00,FF,F1,00,
1506195,000000CE,false,Rx,0,8,00,00,00,00,00,00,00,00,
1506386,000000B6,false,Rx,0,5,48,09,80,00,08,00,00,00,
1506554,00000194,false,Rx,0,4,F7,FA,00,FC,00,00,00,00,
1506789,0000019E,false,Rx,0,8,00,EA,BF,FC,FE,63,00,A9,
1506915,000001D6,false,Rx,0,2,C0,0C,00,00,00,00,00,00,
1507160,000001A0,false,Rx,0,8,00,80,00,A0,FF,0F,90,62,
1507295,000002A6,false,Rx,0,2,00,F8,00,00,00,00,00,00,
1507529,000000A8,false,Rx,0,8,8C,ED,F8,00,00,0D,CF,20,
1507753,000000A9,false,Rx,0,8,58,0D,8E,8F,0C,8E,EF,F8,
1508011,000000AA,false,Rx,0,8,86,ED,F8,00,00,00,F4,00,
1508234,000002B2,false,Rx,0,8,00,00,00,00,3F,00,00,04,
1512776,000001FB,false,Rx,0,2,F7,FF,00,00,00,00,00,00,
1515810,000000C4,false,Rx,0,7,54,FF,FD,00,00,FF,F1,00,
1517425,000000A8,false,Rx,0,8,8D,EE,F8,00,00,0D,CF,20,
1517651,000000A9,false,Rx,0,8,59,0E,8E,8F,0C,8E,EF,F8,
1517894,000000AA,false,Rx,0,8,87,EE,F8,00,00,00,F4,00,
1525833,000000C4,false,Rx,0,7,54,FF,FD,00,00,FF,F1,00,
1526088,000000CE,false,Rx,0,8,00,00,00,00,00,00,00,00,
1526278,000000B6,false,Rx,0,5,49,0A,80,00,08,00,00,00,
1526556,0000019E,false,Rx,0,8,00,EA,BF,FC,FE,63,00,A9,
1526815,000001A0,false,Rx,0,8,00,80,00,A0,FF,0F,A0,72,
1527073,000002B2,false,Rx,0,8,00,00,00,00,3F,00,00,04,
1527440,000000A8,false,Rx,0,8,7F,E0,F8,00,00,0D,CF,20,
1527665,000000A9,false,Rx,0,8,4B,00,8E,8F,0C,8E,EF,F8,
1527909,000000AA,false,Rx,0,8,79,E0,F8,00,00,00,F4,00,
1530123,00000497,false,Rx,0,8,29,52,FF,FF,FF,FF,FF,FF,
1535808,000000C4,false,Rx,0,7,54,FF,FD,00,00,FF,F1,00,
1536007,000000C8,false,Rx,0,6,54,FF,51,00,00,7C,00,00,
1537426,000000A8,false,Rx,0,8,80,E1,F8,00,00,0D,CF,20,
1537651,000000A9,false,Rx,0,8,4C,01,8E,8F,0C,8E,EF,F8,
1537886,000000AA,false,Rx,0,8,7A,E1,F8,00,00,00,F4,00,
1545736,000000C4,false,Rx,0,7,54,FF,FD,00,00,FF,F1,00,
1545990,000000CE,false,Rx,0,8,00,00,00,00,00,00,00,00,
1546181,000000B6,false,Rx,0,5,4A,0B,80,00,08,00,00,00,
1546437,0000019E,false,Rx,0,8,00,EA,BF,FC,FE,63,00,A9,
1546695,000001A0,false,Rx,0,8,00,80,00,90,FF,0F,B0,72,
1546964,000002B2,false,Rx,0,8,00,00,00,00,3F,00,00,04,
1547433,000000A8,false,Rx,0,8,81,E2,F8,00,00,0D,CF,20,
1547667,000000A9,false,Rx,0,8,4D,02,8E,8F,0C,8E,EF,F8,
1547911,000000AA,false,Rx,0,8,7B,E2,F8,00,00,00,F4,00,
1555738,000000C4,false,Rx,0,7,54,FF,FD,00,00,FF,F1,00,
1557421,000000A8,false,Rx,0,8,82,E3,F8,00,00,0D,CF,20,
1557645,000000A9,false,Rx,0,8,4E,03,8E,8F,0C,8E,EF,F8,
1557889,000000AA,false,Rx,0,8,7C,E3,F8,00,00,00,F4,00,
1565750,000000C4,false,Rx,0,7,54,FF,FD,00,00,FF,F1,00,
1565993,000000CE,false,Rx,0,8,00,00,00,00,00,00,00,00,
1566217,000000B6,false,Rx,0,5,4B,0C,80,00,08,00,00,00,
1566540,0000019E,false,Rx,0,8,00,EA,CF,FC,FE,63,00,B9,
1566798,000001A0,false,Rx,0,8,00,80,00,A0,FF,12,C0,95,
1567067,000001A6,false,Rx,0,8,00,00,00,00,00,00,40,F8,
1567324,000002B2,false,Rx,0,8,00,00,00,00,4F,00,00,04,
1567560,000000A8,false,Rx,0,8,83,E4,F8,00,00,0D,CF,20,
1567813,000000A9,false,Rx,0,8,4F,04,8E,8F,0C,8E,EF,F8,
1568038,000000AA,false,Rx,0,8,7D,E4,F8,00,00,00,F4,00,
1568219,00000374,false,Rx,0,5,00,00,FF,FF,FC,00,00,00,
1568608,00000130,false,Rx,0,5,00,0E,D0,0F,FE,00,00,00,
1575786,000000C4,false,Rx,0,7,54,FF,FD,00,00,FF,F1,00,
1577415,000000A8,false,Rx,0,8,84,E5,F8,00,00,0D,CF,20,
1577638,000000A9,false,Rx,0,8,50,05,8E,8F,0C,8E,EF,F8,
1577882,000000AA,false,Rx,0,8,7E,E5,F8,00,00,00,F4,00,
1585764,000000C4,false,Rx,0,7,54,FF,FD,00,00,FF,F1,00,
1586007,000000CE,false,Rx,0,8,00,00,00,00,00,00,00,00,
1586198,000000B6,false,Rx,0,5,4C,0D,80,00,08,00,00,00,
1586487,0000019E,false,Rx,0,8,00,EA,CF,FC,FE,63,00,B9,
1586735,000001A0,false,Rx,0,8,00,80,00,90,FF,12,D0,95,
1587004,000002B2,false,Rx,0,8,00,00,00,00,4F,00,00,04,
1587428,000000A8,false,Rx,0,8,85,E6,F8,00,00,0D,CF,20,
1587662,000000A9,false,Rx,0,8,51,06,8E,8F,0C,8E,EF,F8,
1587906,000000AA,false,Rx,0,8,7F,E6,F8,00,00,00,F4,00,
1595732,000000C4,false,Rx,0,7,54,FF,FD,00,00,FF,F1,00,
1597427,000000A8,false,Rx,0,8,86,E7,F8,00,00,0D,CF,20,
1597651,000000A9,false,Rx,0,8,52,07,8E,8F,0C,8E,EF,F8,
1597894,000000AA,false,Rx,0,8,80,E7,F8,00,00,00,F4,00,
1598132,000001D0,false,Rx,0,8,3B,08,0A,C6,00,00,0D,AE,
1605797,000000C4,false,Rx,0,7,54,FF,FD,00,00,FF,F1,00,
1606050,000000CE,false,Rx,0,8,00,00,00,00,00,00,00,00,
1606240,000000B6,false,Rx,0,5,4D,0E,80,00,08,00,00,00,
1606518,0000019E,false,Rx,0,8,00,EA,CF,FC,FE,63,00,B9,
1606777,000001A0,false,Rx,0,8,00,80,00,A0,FF,12,E0,B5,
1607035,000002B2,false,Rx,0,8,00,00,00,00,4F,00,00,04,
1607459,000000A8,false,Rx,0,8,87,E8,F8,00,00,0D,CF,20,
1607683,000000A9,false,Rx,0,8,53,08,8E,8F,0C,8E,EF,F8,
1607927,000000AA,false,Rx,0,8,81,E8,F8,00,00,00,F4,00,
1615764,000000C4,false,Rx,0,7,54,FF,FD,00,00,FF,F1,00,
1617448,000000A8,false,Rx,0,8,88,E9,F8,00,00,0D,CF,20,
1617682,000000A9,false,Rx,0,8,54,09,8E,8F,0C,8E,EF,F8,
1617927,000000AA,false,Rx,0,8,82,E9,F8,00,00,00,F4,00,
1625810,000000C4,false,Rx,0,7,54,FF,FD,00,00,FF,F1,00,
1626063,000000CE,false,Rx,0,8,00,00,00,00,00,00,00,00,
1626242,000000B6,false,Rx,0,5,3F,00,80,00,08,00,00,00,
1626533,0000019E,false,Rx,0,8,00,EA,CF,FC,FE,63,00,B9,
1626790,000001A0,false,Rx,0,8,00,80,00,90,FF,0F,00,C1,
1627059,000002B2,false,Rx,0,8,00,00,00,00,3F,00,00,04,
1627317,000004A9,false,Rx,0,8,30,52,FF,FF,FF,FF,FF,FF,
1627552,000000A8,false,Rx,0,8,89,EA,F8,00,00,0D,CF,20,
1627775,000000A9,false,Rx,0,8,55,0A,8E,8F,0C,8E,EF,F8,
1628021,000000AA,false,Rx,0,8,83,EA,F8,00,00,00,F4,00,
1635770,000000C4,false,Rx,0,7,54,FF,FD,00,00,FF,F1,00,
1637442,000000A8,false,Rx,0,8,8A,EB,F8,00,00,0D,CF,20,
1637676,000000A9,false,Rx,0,8,56,0B,8E,8F,0C,8E,EF,F8,
1637910,000000AA,false,Rx,0,8,84,EB,F8,00,00,00,F4,00,
1645748,000000C4,false,Rx,0,7,54,FF,FD,00,00,FF,F1,00,
1646001,000000CE,false,Rx,0,8,00,00,00,00,00,00,00,00,
1646192,000000B6,false,Rx,0,5,40,01,80,00,08,00,00,00,
1646448,0000019E,false,Rx,0,8,00,EA,CF,FC,FE,63,00,B9,
1646706,000001A0,false,Rx,0,8,00,80,00,90,FF,12,10,D4,
1646964,000002B2,false,Rx,0,8,00,00,00,00,4F,00,00,04,
1647455,000000A8,false,Rx,0,8,8B,EC,F8,00,00,0D,CF,20,
1647690,000000A9,false,Rx,0,8,57,0C,8E,8F,0C,8E,EF,F8,
1647922,000000AA,false,Rx,0,8,85,EC,F8,00,00,00,F4,00,
1655750,000000C4,false,Rx,0,7,54,FF,FD,00,00,FF,F1,00,
1657443,000000A8,false,Rx,0,8,8C,ED,F8,00,00,0D,CF,20,
1657667,000000A9,false,Rx,0,8,58,0D,8E,8F,0C,8E,EF,F8,
1657913,000000AA,false,Rx,0,8,86,ED,F8,00,00,00,F4,00,
1665752,000000C4,false,Rx,0,7,54,FF,FD,00,00,FF,F1,00,
1665995,000000CE,false,Rx,0,8,00,00,00,00,00,00,00,00,
1666186,000000B6,false,Rx,0,5,41,02,80,00,08,00,00,00,
1666498,0000019E,false,Rx,0,8,00,EA,CF,FC,FE,63,00,B9,
1666744,000001A0,false,Rx,0,8,00,80,00,90,FF,12,20,E4,
1667013,000001A6,false,Rx,0,8,00,00,00,00,00,00,D0,F9,
1667272,000002B2,false,Rx,0,8,00,00,00,00,4F,00,00,04,
1667507,000000A8,false,Rx,0,8,8D,EE,F8,00,00,0D,CF,20,
1667730,000000A9,false,Rx,0,8,59,0E,8E,8F,0C,8E,EF,F8,
1667976,000000AA,false,Rx,0,8,87,EE,F8,00,00,00,F4,00,
1668621,00000130,false,Rx,0,5,00,0E,D0,0F,00,00,00,00,
1675797,000000C4,false,Rx,0,7,54,FF,FD,00,00,FF,F1,00,
1677446,000000A8,false,Rx,0,8,7F,E0,F8,00,00,0D,CF,20,
1677670,000000A9,false,Rx,0,8,4B,00,8E,8F,0C,8E,EF,F8,
1677914,000000AA,false,Rx,0,8,79,E0,F8,00,00,00,F4,00,
1685788,000000C4,false,Rx,0,7,54,FF,FD,00,00,FF,F1,00,
1686041,000000CE,false,Rx,0,8,00,00,00,00,00,00,00,00,
1686220,000000B6,false,Rx,0,5,42,03,80,00,08,00,00,00,
1686500,0000019E,false,Rx,0,8,00,EA,CF,FC,FE,63,00,B9,
1686757,000001A0,false,Rx,0,8,00,80,00,A0,FF,12,30,05,
1687026,000002B2,false,Rx,0,8,00,00,00,00,4F,00,00,04,
1687472,000000A8,false,Rx,0,8,80,E1,F8,00,00,0D,CF,20,
1687696,000000A9,false,Rx,0,8,4C,01,8E,8F,0C,8E,EF,F8,
1687940,000000AA,false,Rx,0,8,7A,E1,F8,00,00,00,F4,00,
1695756,000000C4,false,Rx,0,7,54,FF,FD,00,00,FF,F1,00,
1697427,000000A8,false,Rx,0,8,81,E2,F8,00,00,0D,CF,20,
1697651,000000A9,false,Rx,0,8,4D,02,8E,8F,0C,8E,EF,F8,
1697895,000000AA,false,Rx,0,8,7B,E2,F8,00,00,00,F4,00,
1698121,000001B6,false,Rx,0,7,FF,00,00,00,00,AC,00,00,
1698355,000001D0,false,Rx,0,8,3B,08,0B,C6,00,00,0D,AE,
1698502,000002F3,false,Rx,0,3,00,FC,F2,00,00,00,00,00,
1701942,000001FB,false,Rx,0,2,F8,FF,00,00,00,00,00,00,
1703345,00000310,false,Rx,0,7,6D,A4,00,00,00,42,20,00,
1705847,000000C4,false,Rx,0,7,54,FF,FD,00,00,FF,F1,00,
1706100,000000CE,false,Rx,0,8,00,00,00,00,00,00,00,00,
1706280,000000B6,false,Rx,0,5,43,04,80,00,08,00,00,00,
1706460,00000194,false,Rx,0,4,F8,FB,00,FC,00,00,00,00,
1706694,0000019E,false,Rx,0,8,00,EA,CF,FC,FE,63,00,B9,
1706952,000001A0,false,Rx,0,8,00,80,00,A0,FF,0F,40,12,
1707210,000002B2,false,Rx,0,8,00,00,00,00,3F,00,00,04,
1707456,000000A8,false,Rx,0,8,82,E3,F8,00,00,0D,CF,20,
1707680,000000A9,false,Rx,0,8,4E,03,8E,8F,0C,8E,EF,F8,
1707915,000000AA,false,Rx,0,8,7C,E3,F8,00,00,00,F4,00,
1715771,000000C4,false,Rx,0,7,54,FF,FD,00,00,FF,F1,00,
1717410,000000A8,false,Rx,0,8,83,E4,F8,00,00,0D,CF,20,
1717645,000000A9,false,Rx,0,8,4F,04,8E,8F,0C,8E,EF,F8,
1717888,000000AA,false,Rx,0,8,7D,E4,F8,00,00,00,F4,00,
1721912,000004B0,false,Rx,0,8,00,52,FE,01,FF,FF,FF,FF,
1725834,000000C4,false,Rx,0,7,54,FF,FD,00,00,FF,F1,00,
1726087,000000CE,false,Rx,0,8,00,00,00,00,00,00,00,00,
1726277,000000B6,false,Rx,0,5,44,05,80,00,08,00,00,00,
1726546,0000019E,false,Rx,0,8,00,EA,CF,FC,FE,63,00,B9,
1726814,000001A0,false,Rx,0,8,00,80,00,A0,FF,12,50,25,
1727072,000002B2,false,Rx,0,8,00,00,00,00,4F,00,00,04,
1727441,000000A8,false,Rx,0,8,84,E5,F8,00,00,0D,CF,20,
1727665,000000A9,false,Rx,0,8,50,05,8E,8F,0C,8E,EF,F8,
1727910,000000AA,false,Rx,0,8,7E,E5,F8,00,00,00,F4,00,
1735791,000000C4,false,Rx,0,7,54,FF,FD,00,00,FF,F1,00,
1735989,000000C8,false,Rx,0,6,54,FF,A1,00,00,7C,00,00,
1737420,000000A8,false,Rx,0,8,85,E6,F8,00,00,0D,CF,20,
1737644,000000A9,false,Rx,0,8,51,06,8E,8F,0C,8E,EF,F8,
1737891,000000AA,false,Rx,0,8,7F,E6,F8,00,00,00,F4,00,
1745785,000000C4,false,Rx,0,7,54,FF,FD,00,00,FF,F1,00,
1746039,000000CE,false,Rx,0,8,00,00,00,00,00,00,00,00,
1746218,000000B6,false,Rx,0,5,45,06,80,00,08,00,00,00,
1746498,0000019E,false,Rx,0,8,00,EA,CF,FC,FE,63,00,B9,
1746755,000001A0,false,Rx,0,8,00,80,00,A0,FF,12,60,35,
1747013,000002B2,false,Rx,0,8,00,00,00,00,4F,00,00,04,
1747426,000000A8,false,Rx,0,8,86,E7,F8,00,00,0D,CF,20,
1747660,000000A9,false,Rx,0,8,52,07,8E,8F,0C,8E,EF,F8,
1747905,000000AA,false,Rx,0,8,80,E7,F8,00,00,00,F4,00,
1755778,000000C4,false,Rx,0,7,54,FF,FD,00,00,FF,F1,00,
1757417,000000A8,false,Rx,0,8,87,E8,F8,00,00,0D,CF,20,
1757640,000000A9,false,Rx,0,8,53,08,8E,8F,0C,8E,EF,F8,
1757885,000000AA,false,Rx,0,8,81,E8,F8,00,00,00,F4,00,
1765790,000000C4,false,Rx,0,7,54,FF,FD,00,00,FF,F1,00,
1766044,000000CE,false,Rx,0,8,00,00,00,00,00,00,00,00,
1766224,000000B6,false,Rx,0,5,46,07,80,00,08,00,00,00,
1766536,0000019E,false,Rx,0,8,00,EA,CF,FC,FE,63,00,B9,
1766793,000001A0,false,Rx,0,8,00,80,00,A0,FF,12,70,45,
1767063,000001A6,false,Rx,0,8,00,00,00,00,00,00,60,FB,
1767321,000002B2,false,Rx,0,8,00,00,00,00,4F,00,00,04,
1767556,000000A8,false,Rx,0,8,88,E9,F8,00,00,0D,CF,20,
1767790,000000A9,false,Rx,0,8,54,09,8E,8F,0C,8E,EF,F8,
1768028,000000AA,false,Rx,0,8,82,E9,F8,00,00,00,F4,00,
1768595,00000130,false,Rx,0,5,00,0E,D0,0F,21,00,00,00,
1775826,000000C4,false,Rx,0,7,54,FF,FD,00,00,FF,F1,00,
1777420,000000A8,false,Rx,0,8,89,EA,F8,00,00,0D,CF,20,
1777643,000000A9,false,Rx,0,8,55,0A,8E,8F,0C,8E,EF,F8,
1777888,000000AA,false,Rx,0,8,83,EA,F8,00,00,00,F4,00,
1785803,000000C4,false,Rx,0,7,54,FF,FD,00,00,FF,F1,00,
1786056,000000CE,false,Rx,0,8,00,00,00,00,00,00,00,00,
1786247,000000B6,false,Rx,0,5,47,08,80,00,08,00,00,00,
1786515,0000019E,false,Rx,0,8,00,EA,DF,FC,FE,63,00,C9,
1786772,000001A0,false,Rx,0,8,00,80,00,90,FF,12,80,45,
1787043,000002B2,false,Rx,0,8,00,00,00,00,4F,00,00,04,
1787432,000000A8,false,Rx,0,8,8A,EB,F8,00,00,0D,CF,20,
1787656,000000A9,false,Rx,0,8,56,0B,8E,8F,0C,8E,EF,F8,
1787901,000000AA,false,Rx,0,8,84,EB,F8,00,00,00,F4,00,
1795782,000000C4,false,Rx,0,7,54,FF,FD,00,00,FF,F1,00,
1797421,000000A8,false,Rx,0,8,8B,EC,F8,00,00,0D,CF,20,
1797645,000000A9,false,Rx,0,8,57,0C,8E,8F,0C,8E,EF,F8,
1797889,000000AA,false,Rx,0,8,85,EC,F8,00,00,00,F4,00,
1798125,000001D0,false,Rx,0,8,3B,08,0B,C6,00,00,0D,AE,
1803655,00000480,false,Rx,0,8,12,42,01,01,FF,FF,FF,FF,
1805872,000000C4,false,Rx,0,7,54,FF,FD,00,00,FF,F1,00,
1806125,000000CE,false,Rx,0,8,00,00,00,00,00,00,00,00,
1806306,000000B6,false,Rx,0,5,48,09,80,00,08,00,00,00,
1806596,0000019E,false,Rx,0,8,00,EA,DF,FC,FE,63,00,C9,
1806852,000001A0,false,Rx,0,8,00,80,00,A0,FF,0F,90,62,
1807123,000002B2,false,Rx,0,8,00,00,00,00,3F,00,00,04,
1807435,000000A8,false,Rx,0,8,8C,ED,F8,00,00,0D,CF,20,
1807659,000000A9,false,Rx,0,8,58,0D,8E,8F,0C,8E,EF,F8,
1807895,000000AA,false,Rx,0,8,86,ED,F8,00,00,00,F4,00,
1815773,000000C4,false,Rx,0,7,54,FF,FD,00,00,FF,F1,00,
1817433,000000A8,false,Rx,0,8,8D,EE,F8,00,00,0D,CF,20,
1817657,000000A9,false,Rx,0,8,59,0E,8E,8F,0C,8E,EF,F8,
1817902,000000AA,false,Rx,0,8,87,EE,F8,00,00,00,F4,00,
1825808,000000C4,false,Rx,0,7,54,FF,FD,00,00,FF,F1,00,
1826061,000000CE,false,Rx,0,8,00,00,00,00,00,00,00,00,
1826241,000000B6,false,Rx,0,5,49,0A,80,00,08,00,00,00,
1826520,0000019E,false,Rx,0,8,00,EA,DF,FC,FE,63,00,C9,
1826777,000001A0,false,Rx,0,8,00,80,00,A0,FF,12,A0,75,
1827036,000002B2,false,Rx,0,8,00,00,00,00,4F,00,00,04,
1827436,000000A8,false,Rx,0,8,7F,E0,F8,00,00,0D,CF,20,
1827660,000000A9,false,Rx,0,8,4B,00,8E,8F,0C,8E,EF,F8,
1827905,000000AA,false,Rx,0,8,79,E0,F8,00,00,00,F4,00,
1835775,000000C4,false,Rx,0,7,54,FF,FD,00,00,FF,F1,00,
1837424,000000A8,false,Rx,0,8,80,E1,F8,00,00,0D,CF,20,
1837648,000000A9,false,Rx,0,8,4C,01,8E,8F,0C,8E,EF,F8,
1837893,000000AA,false,Rx,0,8,7A,E1,F8,00,00,00,F4,00,
1845752,000000C4,false,Rx,0,7,54,FF,FD,00,00,FF,F1,00,
1846006,000000CE,false,Rx,0,8,00,00,00,00,00,00,00,00,
1846186,000000B6,false,Rx,0,5,4A,0B,80,00,08,00,00,00,
1846454,0000019E,false,Rx,0,8,00,EA,DF,FC,FE,63,00,C9,
1846710,000001A0,false,Rx,0,8,00,80,00,90,FF,12,B0,75,
1846970,000002B2,false,Rx,0,8,00,00,00,00,4F,00,00,04,
1847436,000000A8,false,Rx,0,8,81,E2,F8,00,00,0D,CF,20,
1847660,000000A9,false,Rx,0,8,4D,02,8E,8F,0C,8E,EF,F8,
1847905,000000AA,false,Rx,0,8,7B,E2,F8,00,00,00,F4,00,
1855755,000000C4,false,Rx,0,7,54,FF,FD,00,00,FF,F1,00,
1857437,000000A8,false,Rx,0,8,82,E3,F8,00,00,0D,CF,20,
1857661,000000A9,false,Rx,0,8,4E,03,8E,8F,0C,8E,EF,F8,
1857906,000000AA,false,Rx,0,8,7C,E3,F8,00,00,00,F4,00,
1865743,000000C4,false,Rx,0,7,54,FF,FD,00,00,FF,F1,00,
1865996,000000CE,false,Rx,0,8,00,00,00,00,00,00,00,00,
1866177,000000B6,false,Rx,0,5,4B,0C,80,00,08,00,00,00,
1866500,0000019E,false,Rx,0,8,00,EA,DF,FC,FE,63,00,C9,
1866757,000001A0,false,Rx,0,8,00,80,00,A0,FF,0F,C0,92,
1867016,000001A6,false,Rx,0,8,00,00,00,00,00,00,F0,FC,
1867284,000002B2,false,Rx,0,8,00,00,00,00,3F,00,00,04,
1867519,000000A8,false,Rx,0,8,83,E4,F8,00,00,0D,CF,20,
1867755,000000A9,false,Rx,0,8,4F,04,8E,8F,0C,8E,EF,F8,
1867990,000000AA,false,Rx,0,8,7D,E4,F8,00,00,00,F4,00,
1868569,00000130,false,Rx,0,5,00,0E,D0,0F,32,00,00,00,
1875799,000000C4,false,Rx,0,7,54,FF,FD,00,00,FF,F1,00,
1877427,000000A8,false,Rx,0,8,84,E5,F8,00,00,0D,CF,20,
1877661,000000A9,false,Rx,0,8,50,05,8E,8F,0C,8E,EF,F8,
1877895,000000AA,false,Rx,0,8,7E,E5,F8,00,00,00,F4,00,
1885777,000000C4,false,Rx,0,7,54,FF,FD,00,00,FF,F1,00,
1886030,000000CE,false,Rx,0,8,00,00,00,00,00,00,00,00,
1886222,000000B6,false,Rx,0,5,4C,0D,80,00,08,00,00,00,
1886489,0000019E,false,Rx,0,8,00,EA,DF,FC,FE,63,00,C9,
1886746,000001A0,false,Rx,0,8,00,80,00,90,FF,12,D0,95,
1887006,000002B2,false,Rx,0,8,00,00,00,00,4F,00,00,04,
1887428,000000A8,false,Rx,0,8,85,E6,F8,00,00,0D,CF,20,
1887654,000000A9,false,Rx,0,8,51,06,8E,8F,0C,8E,EF,F8,
1887896,000000AA,false,Rx,0,8,7F,E6,F8,00,00,00,F4,00,
1892748,000001FB,false,Rx,0,2,F9,FF,00,00,00,00,00,00,
1895760,000000C4,false,Rx,0,7,54,FF,FD,00,00,FF,F1,00,
1897431,000000A8,false,Rx,0,8,86,E7,F8,00,00,0D,CF,20,
1897656,000000A9,false,Rx,0,8,52,07,8E,8F,0C,8E,EF,F8,
1897901,000000AA,false,Rx,0,8,80,E7,F8,00,00,00,F4,00,
1898147,000001D0,false,Rx,0,8,3B,08,0C,C6,00,00,0D,AE,
1905822,000000C4,false,Rx,0,7,54,FF,FD,00,00,FF,F1,00,
1906075,000000CE,false,Rx,0,8,00,00,00,00,00,00,00,00,
1906267,000000B6,false,Rx,0,5,4D,0E,80,00,08,00,00,00,
1906435,00000194,false,Rx,0,4,F9,FC,00,FC,00,00,00,00,
1906668,0000019E,false,Rx,0,8,00,EA,DF,FC,FE,63,00,C9,
1906928,000001A0,false,Rx,0,8,00,80,00,A0,FF,0F,E0,B2,
1907196,000002B2,false,Rx,0,8,00,00,00,00,3F,00,00,04,
1907453,00000492,false,Rx,0,8,17,52,FF,FF,FF,FF,FF,FF,
1907689,000000A8,false,Rx,0,8,87,E8,F8,00,00,0D,CF,20,
1907912,000000A9,false,Rx,0,8,53,08,8E,8F,0C,8E,EF,F8,
1908158,000000AA,false,Rx,0,8,81,E8,F8,00,00,00,F4,00,
1915788,000000C4,false,Rx,0,7,54,FF,FD,00,00,FF,F1,00,
1917449,000000A8,false,Rx,0,8,88,E9,F8,00,00,0D,CF,20,
1917674,000000A9,false,Rx,0,8,54,09,8E,8F,0C,8E,EF,F8,
1917918,000000AA,false,Rx,0,8,82,E9,F8,00,00,00,F4,00,
1925812,000000C4,false,Rx,0,7,54,FF,FD,00,00,FF,F1,00,
1926067,000000CE,false,Rx,0,8,00,00,00,00,00,00,00,00,
1926258,000000B6,false,Rx,0,5,3F,00,80,00,08,00,00,00,
1926525,0000019E,false,Rx,0,8,00,EA,DF,FC,FE,63,00,C9,
1926782,000001A0,false,Rx,0,8,00,80,00,90,FF,0F,00,C1,
1927053,000002B2,false,Rx,0,8,00,00,00,00,3F,00,00,04,
1927453,000000A8,false,Rx,0,8,89,EA,F8,00,00,0D,CF,20,
1927678,000000A9,false,Rx,0,8,55,0A,8E,8F,0C,8E,EF,F8,
1927922,000000AA,false,Rx,0,8,83,EA,F8,00,00,00,F4,00,
1935771,000000C4,false,Rx,0,7,54,FF,FD,00,00,FF,F1,00,
1935980,000000C8,false,Rx,0,6,54,FF,01,00,00,7C,00,00,
1937367,000000A8,false,Rx,0,8,8A,EB,F8,00,00,0D,CF,20,
1937592,000000A9,false,Rx,0,8,56,0B,8E,8F,0C,8E,EF,F8,
1937827,000000AA,false,Rx,0,8,84,EB,F8,00,00,00,F4,00,
1945753,000000C4,false,Rx,0,7,54,FF,FD,00,00,FF,F1,00,
1945995,000000CE,false,Rx,0,8,00,00,00,00,00,00,00,00,
1946187,000000B6,false,Rx,0,5,40,01,80,00,08,00,00,00,
1946454,0000019E,false,Rx,0,8,00,EA,DF,FC,FE,63,00,C9,
1946711,000001A0,false,Rx,0,8,00,80,00,A0,FF,0F,10,E1,
1946970,000002B2,false,Rx,0,8,00,00,00,00,3F,00,00,04,
1947437,000000A8,false,Rx,0,8,8B,EC,F8,00,00,0D,CF,20,
1947673,000000A9,false,Rx,0,8,57,0C,8E,8F,0C,8E,EF,F8,
1947906,000000AA,false,Rx,0,8,85,EC,F8,00,00,00,F4,00,
1955755,000000C4,false,Rx,0,7,54,FF,FD,00,00,FF,F1,00,
1957437,000000A8,false,Rx,0,8,8C,ED,F8,00,00,0D,CF,20,
1957662,000000A9,false,Rx,0,8,58,0D,8E,8F,0C,8E,EF,F8,
1957906,000000AA,false,Rx,0,8,86,ED,F8,00,00,00,F4,00,
1965754,000000C4,false,Rx,0,7,54,FF,FD,00,00,FF,F1,00,
1966009,000000CE,false,Rx,0,8,00,00,00,00,00,00,00,00,
1966199,000000B6,false,Rx,0,5,41,02,80,00,08,00,00,00,
1966500,0000019E,false,Rx,0,8,00,EA,DF,FC,FE,63,00,C9,
1966758,000001A0,false,Rx,0,8,00,80,00,90,FF,0F,20,E1,
1967017,000001A6,false,Rx,0,8,00,00,00,00,00,00,80,FE,
1967285,000002B2,false,Rx,0,8,00,00,00,00,3F,00,00,04,
1967520,000000A8,false,Rx,0,8,8D,EE,F8,00,00,0D,CF,20,
1967745,000000A9,false,Rx,0,8,59,0E,8E,8F,0C,8E,EF,F8,
1967991,000000AA,false,Rx,0,8,87,EE,F8,00,00,00,F4,00,
1968580,00000130,false,Rx,0,5,00,0E,D0,0F,43,00,00,00,
1975800,000000C4,false,Rx,0,7,54,FF,FD,00,00,FF,F1,00,
1977426,000000A8,false,Rx,0,8,7F,E0,F8,00,00,0D,CF,20,
1977652,000000A9,false,Rx,0,8,4B,00,8E,8F,0C,8E,EF,F8,
1977895,000000AA,false,Rx,0,8,79,E0,F8,00,00,00,F4,00,
1985777,000000C4,false,Rx,0,7,54,FF,FD,00,00,FF,F1,00,
1986031,000000CE,false,Rx,0,8,00,00,00,00,00,00,00,00,
1986211,000000B6,false,Rx,0,5,42,03,80,00,08,00,00,00,
1986489,0000019E,false,Rx,0,8,00,EA,EF,FC,FE,63,00,D9,
1986748,000001A0,false,Rx,0,8,00,80,00,C0,FF,0F,30,22,
1987017,000002B2,false,Rx,0,8,00,00,00,00,3F,00,00,04,
1987462,000000A8,false,Rx,0,8,80,E1,F8,00,00,0D,CF,20,
1987687,000000A9,false,Rx,0,8,4C,01,8E,8F,0C,8E,EF,F8,
1987931,000000AA,false,Rx,0,8,7A,E1,F8,00,00,00,F4,00,
1990134,00000497,false,Rx,0,8,29,52,FF,FF,FF,FF,FF,FF,
1995775,000000C4,false,Rx,0,7,54,FF,FD,00,00,FF,F1,00,
1997424,000000A8,false,Rx,0,8,81,E2,F8,00,00,0D,CF,20,
1997649,000000A9,false,Rx,0,8,4D,02,8E,8F,0C,8E,EF,F8,
1997892,000000AA,false,Rx,0,8,7B,E2,F8,00,00,00,F4,00,
1998128,000001D0,false,Rx,0,8,3B,08,0C,C6,00,00,0D,AE,
2005858,000000C4,false,Rx,0,7,54,FF,FD,00,00,FF,F1,00,
2006102,000000CE,false,Rx,0,8,00,00,00,00,00,00,00,00,
2006292,000000B6,false,Rx,0,5,43,04,80,00,08,00,00,00,
2006570,0000019E,false,Rx,0,8,00,EA,EF,FC,FE,63,00,D9,
2006829,000001A0,false,Rx,0,8,00,80,00,A0,FF,0F,40,12,
2007087,000002B2,false,Rx,0,8,00,00,00,00,3F,00,00,04,
2007443,000000A8,false,Rx,0,8,82,E3,F8,00,00,0D,CF,20,
2007679,000000A9,false,Rx,0,8,4E,03,8E,8F,0C,8E,EF,F8,
2007923,000000AA,false,Rx,0,8,7C,E3,F8,00,00,00,F4,00,
2015827,000000C4,false,Rx,0,7,54,FF,FD,00,00,FF,F1,00,
2017421,000000A8,false,Rx,0,8,83,E4,F8,00,00,0D,CF,20,
2017646,000000A9,false,Rx,0,8,4F,04,8E,8F,0C,8E,EF,F8,
2017889,000000AA,false,Rx,0,8,7D,E4,F8,00,00,00,F4,00,
2025849,000000C4,false,Rx,0,7,54,FF,FD,00,00,FF,F1,00,
2026104,000000CE,false,Rx,0,8,00,00,00,00,00,00,00,00,
2026283,000000B6,false,Rx,0,5,44,05,80,00,08,00,00,00,
2026573,0000019E,false,Rx,0,8,00,EA,EF,FC,FE,63,00,D9,
2026831,000001A0,false,Rx,0,8,00,80,00,A0,FF,12,50,25,
2027100,000002B2,false,Rx,0,8,00,00,00,00,4F,00,00,04,
2027447,000000A8,false,Rx,0,8,84,E5,F8,00,00,0D,CF,20,
2027670,000000A9,false,Rx,0,8,50,05,8E,8F,0C,8E,EF,F8,
2027914,000000AA,false,Rx,0,8,7E,E5,F8,00,00,00,F4,00,
2035818,000000C4,false,Rx,0,7,54,FF,FD,00,00,FF,F1,00,
2037413,000000A8,false,Rx,0,8,85,E6,F8,00,00,0D,CF,20,
2037637,000000A9,false,Rx,0,8,51,06,8E,8F,0C,8E,EF,F8,
2037880,000000AA,false,Rx,0,8,7F,E6,F8,00,00,00,F4,00,
2045797,000000C4,false,Rx,0,7,54,FF,FD,00,00,FF,F1,00,
2046040,000000CE,false,Rx,0,8,00,00,00,00,00,00,00,00,
2046231,000000B6,false,Rx,0,5,45,06,80,00,08,00,00,00,
2046509,0000019E,false,Rx,0,8,00,EA,EF,FC,FE,63,00,D9,
2046767,000001A0,false,Rx,0,8,00,80,00,A0,FF,0F,60,32,
2047036,000002B2,false,Rx,0,8,00,00,00,00,3F,00,00,04,
2047449,000000A8,false,Rx,0,8,86,E7,F8,00,00,0D,CF,20,
2047673,000000A9,false,Rx,0,8,52,07,8E,8F,0C,8E,EF,F8,
2047917,000000AA,false,Rx,0,8,80,E7,F8,00,00,00,F4,00,
2055789,000000C4,false,Rx,0,7,54,FF,FD,00,00,FF,F1,00,
2057418,000000A8,false,Rx,0,8,87,E8,F8,00,00,0D,CF,20,
2057641,000000A9,false,Rx,0,8,53,08,8E,8F,0C,8E,EF,F8,
2057885,000000AA,false,Rx,0,8,81,E8,F8,00,00,00,F4,00,
2065779,000000C4,false,Rx,0,7,54,FF,FD,00,00,FF,F1,00,
2066033,000000CE,false,Rx,0,8,00,00,00,00,00,00,00,00,
2066213,000000B6,false,Rx,0,5,46,07,80,00,08,00,00,00,
2066524,0000019E,false,Rx,0,8,00,EA,EF,FC,FE,63,00,D9,
2066782,000001A0,false,Rx,0,8,00,80,00,A0,FF,0F,70,42,
2067052,000001A6,false,Rx,0,8,00,00,00,00,00,00,10,F0,
2067309,000002B2,false,Rx,0,8,00,00,00,00,3F,00,00,04,
2067545,000000A8,false,Rx,0,8,88,E9,F8,00,00,0D,CF,20,
2067780,000000A9,false,Rx,0,8,54,09,8E,8F,0C,8E,EF,F8,
2068026,000000AA,false,Rx,0,8,82,E9,F8,00,00,00,F4,00,
2068604,00000130,false,Rx,0,5,00,0E,D0,0F,54,00,00,00,
2075790,000000C4,false,Rx,0,7,54,FF,FD,00,00,FF,F1,00,
2077408,000000A8,false,Rx,0,8,89,EA,F8,00,00,0D,CF,20,
2077643,000000A9,false,Rx,0,8,55,0A,8E,8F,0C,8E,EF,F8,
2077886,000000AA,false,Rx,0,8,83,EA,F8,00,00,00,F4,00,
2082763,000001FB,false,Rx,0,2,FA,FF,00,00,00,00,00,00,
2085784,000000C4,false,Rx,0,7,54,FF,FD,00,00,FF,F1,00,
2086039,000000CE,false,Rx,0,8,00,00,00,00,00,00,00,00,
2086229,000000B6,false,Rx,0,5,47,08,80,00,08,00,00,00,
2086507,0000019E,false,Rx,0,8,00,EA,EF,FC,FE,63,00,D9,
2086766,000001A0,false,Rx,0,8,00,80,00,A0,FF,12,80,55,
2087035,000002B2,false,Rx,0,8,00,00,00,00,4F,00,00,04,
2087292,000004A9,false,Rx,0,8,30,52,FF,FF,FF,FF,FF,FF,
2087528,000000A8,false,Rx,0,8,8A,EB,F8,00,00,0D,CF,20,
2087763,000000A9,false,Rx,0,8,56,0B,8E,8F,0C,8E,EF,F8,
2087998,000000AA,false,Rx,0,8,84,EB,F8,00,00,00,F4,00,
2095758,000000C4,false,Rx,0,7,54,FF,FD,00,00,FF,F1,00,
2097419,000000A8,false,Rx,0,8,8B,EC,F8,00,00,0D,CF,20,
2097654,000000A9,false,Rx,0,8,57,0C,8E,8F,0C,8E,EF,F8,
2097887,000000AA,false,Rx,0,8,85,EC,F8,00,00,00,F4,00,
2098124,000001D0,false,Rx,0,8,3B,08,0D,C6,00,00,0D,AE,
2105833,000000C4,false,Rx,0,7,54,FF,FD,00,00,FF,F1,00,
2106086,000000CE,false,Rx,0,8,00,00,00,00,00,00,00,00,
2106266,000000B6,false,Rx,0,5,48,09,80,00,08,00,00,00,
2106433,00000194,false,Rx,0,4,FA,FD,00,FC,00,00,00,00,
2106668,0000019E,false,Rx,0,8,00,EA,EF,FC,FE,63,00,D9,
2106926,000001A0,false,Rx,0,8,00,80,00,A0,FF,0F,90,62,
2107194,000002B2,false,Rx,0,8,00,00,00,00,3F,00,00,04,
2107430,000000A8,false,Rx,0,8,8C,ED,F8,00,00,0D,CF,20,
2107654,000000A9,false,Rx,0,8,58,0D,8E,8F,0C,8E,EF,F8,
2107899,000000AA,false,Rx,0,8,86,ED,F8,00,00,00,F4,00,
2115782,000000C4,false,Rx,0,7,54,FF,FD,00,00,FF,F1,00,
2117410,000000A8,false,Rx,0,8,8D,EE,F8,00,00,0D,CF,20,
2117634,000000A9,false,Rx,0,8,59,0E,8E,8F,0C,8E,EF,F8,
2117877,000000AA,false,Rx,0,8,87,EE,F8,00,00,00,F4,00,
2125817,000000C4,false,Rx,0,7,54,FF,FD,00,00,FF,F1,00,
2126070,000000CE,false,Rx,0,8,00,00,00,00,00,00,00,00,
2126250,000000B6,false,Rx,0,5,49,0A,80,00,08,00,00,00,
2126529,0000019E,false,Rx,0,8,00,EA,EF,FC,FE,63,00,D9,
2126786,000001A0,false,Rx,0,8,00,80,00,90,FF,0F,A0,62,
2127055,000002B2,false,Rx,0,8,00,00,00,00,3F,00,00,04,
2127435,000000A8,false,Rx,0,8,7F,E0,F8,00,00,0D,CF,20,
2127659,000000A9,false,Rx,0,8,4B,00,8E,8F,0C,8E,EF,F8,
2127903,000000AA,false,Rx,0,8,79,E0,F8,00,00,00,F4,00,
2135785,000000C4,false,Rx,0,7,54,FF,FD,00,00,FF,F1,00,
2135984,000000C8,false,Rx,0,6,54,FF,51,00,00,7C,00,00,
2137416,000000A8,false,Rx,0,8,80,E1,F8,00,00,0D,CF,20,
2137640,000000A9,false,Rx,0,8,4C,01,8E,8F,0C,8E,EF,F8,
2137885,000000AA,false,Rx,0,8,7A,E1,F8,00,00,00,F4,00,
2145746,000000C4,false,Rx,0,7,54,FF,FD,00,00,FF,F1,00,
2146000,000000CE,false,Rx,0,8,00,00,00,00,00,00,00,00,
2146191,000000B6,false,Rx,0,5,4A,0B,80,00,08,00,00,00,
2146447,0000019E,false,Rx,0,8,00,EA,EF,FC,FE,63,00,D9,
2146705,000001A0,false,Rx,0,8,00,80,00,90,FF,0F,B0,72,
2146974,000002B2,false,Rx,0,8,00,00,00,00,3F,00,00,04,
2147431,000000A8,false,Rx,0,8,81,E2,F8,00,00,0D,CF,20,
2147666,000000A9,false,Rx,0,8,4D,02,8E,8F,0C,8E,EF,F8,
2147898,000000AA,false,Rx,0,8,7B,E2,F8,00,00,00,F4,00,
2155748,000000C4,false,Rx,0,7,54,FF,FD,00,00,FF,F1,00,
2157420,000000A8,false,Rx,0,8,82,E3,F8,00,00,0D,CF,20,
2157643,000000A9,false,Rx,0,8,4E,03,8E,8F,0C,8E,EF,F8,
2157887,000000AA,false,Rx,0,8,7C,E3,F8,00,00,00,F4,00,
2165760,000000C4,false,Rx,0,7,54,FF,FD,00,00,FF,F1,00,
2166013,000000CE,false,Rx,0,8,00,00,00,00,00,00,00,00,
2166193,000000B6,false,Rx,0,5,4B,0C,80,00,08,00,00,00,
2166505,0000019E,false,Rx,0,8,00,EA,EF,FC,FE,63,00,D9,
2166762,000001A0,false,Rx,0,8,00,80,00,C0,FF,12,C0,B5,
2167031,000001A6,false,Rx,0,8,00,00,00,00,00,00,A0,F1,
2167290,000002B2,false,Rx,0,8,00,00,00,00,4F,00,00,04,
2167536,000000A8,false,Rx,0,8,83,E4,F8,00,00,0D,CF,20,
2167759,000000A9,false,Rx,0,8,4F,04,8E,8F,0C,8E,EF,F8,
2168007,000000AA,false,Rx,0,8,7D,E4,F8,00,00,00,F4,00,
2168573,00000130,false,Rx,0,5,00,0E,D0,0F,65,00,00,00,
2175805,000000C4,false,Rx,0,7,54,FF,FD,00,00,FF,F1,00,
2177421,000000A8,false,Rx,0,8,84,E5,F8,00,00,0D,CF,20,
2177645,000000A9,false,Rx,0,8,50,05,8E,8F,0C,8E,EF,F8,
2177888,000000AA,false,Rx,0,8,7E,E5,F8,00,00,00,F4,00,
2181799,000004B0,false,Rx,0,8,00,52,FE,01,FF,FF,FF,FF,
2185799,000000C4,false,Rx,0,7,54,FF,FD,00,00,FF,F1,00,
2186053,000000CE,false,Rx,0,8,00,00,00,00,00,00,00,00,
2186243,000000B6,false,Rx,0,5,4C,0D,80,00,08,00,00,00,
2186523,0000019E,false,Rx,0,8,00,EA,EF,FC,FE,63,00,D9,
2186780,000001A0,false,Rx,0,8,00,80,00,A0,FF,0F,D0,A2,
2187039,000002B2,false,Rx,0,8,00,00,00,00,3F,00,00,04,
2187430,000000A8,false,Rx,0,8,85,E6,F8,00,00,0D,CF,20,
2187654,000000A9,false,Rx,0,8,51,06,8E,8F,0C,8E,EF,F8,
2187897,000000AA,false,Rx,0,8,7F,E6,F8,00,00,00,F4,00,
2195769,000000C4,false,Rx,0,7,54,FF,FD,00,00,FF,F1,00,
2197473,000000A8,false,Rx,0,8,86,E7,F8,00,00,0D,CF,20,
2197697,000000A9,false,Rx,0,8,52,07,8E,8F,0C,8E,EF,F8,
2197942,000000AA,false,Rx,0,8,80,E7,F8,00,00,00,F4,00,
2198177,000001D0,false,Rx,0,8,3B,08,0D,C6,00,00,0D,AE,
2205830,000000C4,false,Rx,0,7,54,FF,FD,00,00,FF,F1,00,
2206083,000000CE,false,Rx,0,8,00,00,00,00,00,00,00,00,
2206262,000000B6,false,Rx,0,5,4D,0E,80,00,08,00,00,00,
2206542,0000019E,false,Rx,0,8,00,EA,0F,FC,FE,63,00,F8,
2206810,000001A0,false,Rx,0,8,00,80,00,C0,FF,0F,E0,D2,
2207068,000002B2,false,Rx,0,8,00,00,00,00,3F,00,00,04,
2207470,000000A8,false,Rx,0,8,87,E8,F8,00,00,0D,CF,20,
2207694,000000A9,false,Rx,0,8,53,08,8E,8F,0C,8E,EF,F8,
2207939,000000AA,false,Rx,0,8,81,E8,F8,00,00,00,F4,00,
2215798,000000C4,false,Rx,0,7,54,FF,FD,00,00,FF,F1,00,
2217425,000000A8,false,Rx,0,8,88,E9,F8,00,00,0D,CF,20,
2217649,000000A9,false,Rx,0,8,54,09,8E,8F,0C,8E,EF,F8,
2217894,000000AA,false,Rx,0,8,82,E9,F8,00,00,00,F4,00,
2225832,000000C4,false,Rx,0,7,54,FF,FD,00,00,FF,F1,00,
2226085,000000CE,false,Rx,0,8,00,00,00,00,00,00,00,00,
2226264,000000B6,false,Rx,0,5,3F,00,80,00,08,00,00,00,
2226544,0000019E,false,Rx,0,8,00,EA,0F,FC,FE,63,00,F8,
2226812,000001A0,false,Rx,0,8,00,80,00,A0,FF,0F,00,D1,
2227070,000002B2,false,Rx,0,8,00,00,00,00,3F,00,00,04,
2227450,000000A8,false,Rx,0,8,89,EA,F8,00,00,0D,CF,20,
2227674,000000A9,false,Rx,0,8,55,0A,8E,8F,0C,8E,EF,F8,
2227918,000000AA,false,Rx,0,8,83,EA,F8,00,00,00,F4,00,
2235789,000000C4,false,Rx,0,7,54,FF,FD,00,00,FF,F1,00,
2237450,000000A8,false,Rx,0,8,8A,EB,F8,00,00,0D,CF,20,
2237673,000000A9,false,Rx,0,8,56,0B,8E,8F,0C,8E,EF,F8,
2237908,000000AA,false,Rx,0,8,84,EB,F8,00,00,00,F4,00,
2245767,000000C4,false,Rx,0,7,54,FF,FD,00,00,FF,F1,00,
2246020,000000CE,false,Rx,0,8,00,00,00,00,00,00,00,00,
2246200,000000B6,false,Rx,0,5,40,01,80,00,08,00,00,00,
2246491,0000019E,false,Rx,0,8,00,EA,0F,FC,FE,63,00,F8,
2246736,000001A0,false,Rx,0,8,00,80,00,90,FF,0F,10,D1,
2247006,000002B2,false,Rx,0,8,00,00,00,00,3F,00,00,04,
2247452,000000A8,false,Rx,0,8,8B,EC,F8,00,00,0D,CF,20,
2247676,000000A9,false,Rx,0,8,57,0C,8E,8F,0C,8E,EF,F8,
2247921,000000AA,false,Rx,0,8,85,EC,F8,00,00,00,F4,00,
2255758,000000C4,false,Rx,0,7,54,FF,FD,00,00,FF,F1,00,
2257462,000000A8,false,Rx,0,8,8C,ED,F8,00,00,0D,CF,20,
2257686,000000A9,false,Rx,0,8,58,0D,8E,8F,0C,8E,EF,F8,
2257920,000000AA,false,Rx,0,8,86,ED,F8,00,00,00,F4,00,
2263692,00000480,false,Rx,0,8,12,42,01,01,FF,FF,FF,FF,
2265808,000000C4,false,Rx,0,7,54,FF,FD,00,00,FF,F1,00,
2266050,000000CE,false,Rx,0,8,00,00,00,00,00,00,00,00,
2266241,000000B6,false,Rx,0,5,41,02,80,00,08,00,00,00,
2266554,0000019E,false,Rx,0,8,00,EA,0F,FC,FE,63,00,F8,
2266811,000001A0,false,Rx,0,8,00,80,00,A0,FF,0F,20,F1,
2267081,000001A6,false,Rx,0,8,00,00,00,00,00,00,30,F3,
2267338,000002B2,false,Rx,0,8,00,00,00,00,3F,00,00,04,
2267573,000000A8,false,Rx,0,8,8D,EE,F8,00,00,0D,CF,20,
2267796,000000A9,false,Rx,0,8,59,0E,8E,8F,0C,8E,EF,F8,
2268044,000000AA,false,Rx,0,8,87,EE,F8,00,00,00,F4,00,
2268644,00000130,false,Rx,0,5,00,0E,D0,0F,76,00,00,00,
2272812,000001FB,false,Rx,0,2,FB,FF,00,00,00,00,00,00,
2275847,000000C4,false,Rx,0,7,54,FF,FD,00,00,FF,F1,00,
2277441,000000A8,false,Rx,0,8,7F,E0,F8,00,00,0D,CF,20,
2277665,000000A9,false,Rx,0,8,4B,00,8E,8F,0C,8E,EF,F8,
2277910,000000AA,false,Rx,0,8,79,E0,F8,00,00,00,F4,00,
2285818,000000C4,false,Rx,0,7,54,FF,FD,00,00,FF,F1,00,
2286071,000000CE,false,Rx,0,8,00,00,00,00,00,00,00,00,
2286263,000000B6,false,Rx,0,5,42,03,80,00,08,00,00,00,
2286541,0000019E,false,Rx,0,8,00,EA,0F,FC,FE,63,00,F8,
2286798,000001A0,false,Rx,0,8,00,80,00,A0,FF,12,30,05,
2287068,000002B2,false,Rx,0,8,00,00,00,00,4F,00,00,04,
2287425,000000A8,false,Rx,0,8,80,E1,F8,00,00,0D,CF,20,
2287660,000000A9,false,Rx,0,8,4C,01,8E,8F,0C,8E,EF,F8,
2287893,000000AA,false,Rx,0,8,7A,E1,F8,00,00,00,F4,00,
2295797,000000C4,false,Rx,0,7,54,FF,FD,00,00,FF,F1,00,
2297424,000000A8,false,Rx,0,8,81,E2,F8,00,00,0D,CF,20,
2297647,000000A9,false,Rx,0,8,4D,02,8E,8F,0C,8E,EF,F8,
2297892,000000AA,false,Rx,0,8,7B,E2,F8,00,00,00,F4,00,
2298128,000001D0,false,Rx,0,8,3B,08,0E,C6,00,00,0D,AE,
2305870,000000C4,false,Rx,0,7,54,FF,FD,00,00,FF,F1,00,
2306123,000000CE,false,Rx,0,8,00,00,00,00,00,00,00,00,
2306315,000000B6,false,Rx,0,5,43,04,80,00,08,00,00,00,
2306483,00000194,false,Rx,0,4,FB,FE,00,FC,00,00,00,00,
2306717,0000019E,false,Rx,0,8,00,EA,0F,FC,FE,63,00,F8,
2306975,000001A0,false,Rx,0,8,00,80,00,C0,FF,0F,40,32,
2307244,000002B2,false,Rx,0,8,00,00,00,00,3F,00,00,04,
2307479,000000A8,false,Rx,0,8,82,E3,F8,00,00,0D,CF,20,
2307703,000000A9,false,Rx,0,8,4E,03,8E,8F,0C,8E,EF,F8,
2307950,000000AA,false,Rx,0,8,7C,E3,F8,00,00,00,F4,00,
2315820,000000C4,false,Rx,0,7,54,FF,FD,00,00,FF,F1,00,
2317414,000000A8,false,Rx,0,8,83,E4,F8,00,00,0D,CF,20,
2317638,000000A9,false,Rx,0,8,4F,04,8E,8F,0C,8E,EF,F8,
2317882,000000AA,false,Rx,0,8,7D,E4,F8,00,00,00,F4,00,
2325857,000000C4,false,Rx,0,7,54,FF,FD,00,00,FF,F1,00,
2326110,000000CE,false,Rx,0,8,00,00,00,00,00,00,00,00,
2326291,000000B6,false,Rx,0,5,44,05,80,00,08,00,00,00,
2326569,0000019E,false,Rx,0,8,00,EA,0F,FC,FE,63,00,F8,
2326837,000001A0,false,Rx,0,8,00,80,00,A0,FF,0F,50,22,
2327096,000002B2,false,Rx,0,8,00,00,00,00,3F,00,00,04,
2327431,000000A8,false,Rx,0,8,84,E5,F8,00,00,0D,CF,20,
2327666,000000A9,false,Rx,0,8,50,05,8E,8F,0C,8E,EF,F8,
2327922,000000AA,false,Rx,0,8,7E,E5,F8,00,00,00,F4,00,
2335814,000000C4,false,Rx,0,7,54,FF,FD,00,00,FF,F1,00,
2336023,000000C8,false,Rx,0,6,54,FF,A1,00,00,7C,00,00,
2337410,000000A8,false,Rx,0,8,85,E6,F8,00,00,0D,CF,20,
2337634,000000A9,false,Rx,0,8,51,06,8E,8F,0C,8E,EF,F8,
2337881,000000AA,false,Rx,0,8,7F,E6,F8,00,00,00,F4,00,
2345763,000000C4,false,Rx,0,7,54,FF,FD,00,00,FF,F1,00,
2346006,000000CE,false,Rx,0,8,00,00,00,00,00,00,00,00,
2346198,000000B6,false,Rx,0,5,45,06,80,00,08,00,00,00,
2346465,0000019E,false,Rx,0,8,00,EA,0F,FC,FE,63,00,F8,
2346733,000001A0,false,Rx,0,8,00,80,00,A0,FF,0F,60,32,
2346992,000002B2,false,Rx,0,8,00,00,00,00,3F,00,00,04,
2347426,000000A8,false,Rx,0,8,86,E7,F8,00,00,0D,CF,20,
2347661,000000A9,false,Rx,0,8,52,07,8E,8F,0C,8E,EF,F8,
2347894,000000AA,false,Rx,0,8,80,E7,F8,00,00,00,F4,00,
2355755,000000C4,false,Rx,0,7,54,FF,FD,00,00,FF,F1,00,
2357415,000000A8,false,Rx,0,8,87,E8,F8,00,00,0D,CF,20,
2357639,000000A9,false,Rx,0,8,53,08,8E,8F,0C,8E,EF,F8,
2357883,000000AA,false,Rx,0,8,81,E8,F8,00,00,00,F4,00,
2365766,000000C4,false,Rx,0,7,54,FF,FD,00,00,FF,F1,00,
2366018,000000CE,false,Rx,0,8,00,00,00,00,00,00,00,00,
2366199,000000B6,false,Rx,0,5,46,07,80,00,08,00,00,00,
2366522,0000019E,false,Rx,0,8,00,EA,0F,FC,FE,63,00,F8,
2366768,000001A0,false,Rx,0,8,00,80,00,90,FF,12,70,35,
2367039,000001A6,false,Rx,0,8,00,00,00,00,00,00,C0,F4,
2367296,000002B2,false,Rx,0,8,00,00,00,00,4F,00,00,04,
2367542,00000492,false,Rx,0,8,17,52,FF,FF,FF,FF,FF,FF,
2367778,000000A8,false,Rx,0,8,88,E9,F8,00,00,0D,CF,20,
2368013,000000A9,false,Rx,0,8,54,09,8E,8F,0C,8E,EF,F8,
2368258,000000AA,false,Rx,0,8,82,E9,F8,00,00,00,F4,00,
2368539,00000130,false,Rx,0,5,00,0E,D0,0F,87,00,00,00,
2375826,000000C4,false,Rx,0,7,54,FF,FD,00,00,FF,F1,00,
2377408,000000A8,false,Rx,0,8,89,EA,F8,00,00,0D,CF,20,
2377632,000000A9,false,Rx,0,8,55,0A,8E,8F,0C,8E,EF,F8,
2377888,000000AA,false,Rx,0,8,83,EA,F8,00,00,00,F4,00,
2385792,000000C4,false,Rx,0,7,54,FF,FD,00,00,FF,F1,00,
2386045,000000CE,false,Rx,0,8,00,00,00,00,00,00,00,00,
2386226,000000B6,false,Rx,0,5,47,08,80,00,08,00,00,00,
2386504,0000019E,false,Rx,0,8,00,EA,0F,FC,FE,63,00,F8,
2386761,000001A0,false,Rx,0,8,00,80,00,A0,FF,12,80,55,
2387031,000002B2,false,Rx,0,8,00,00,00,00,4F,00,00,04,
2387443,000000A8,false,Rx,0,8,8A,EB,F8,00,00,0D,CF,20,
2387668,000000A9,false,Rx,0,8,56,0B,8E,8F,0C,8E,EF,F8,
2387913,000000AA,false,Rx,0,8,84,EB,F8,00,00,00,F4,00,
2395762,000000C4,false,Rx,0,7,54,FF,FD,00,00,FF,F1,00,
2397422,000000A8,false,Rx,0,8,8B,EC,F8,00,00,0D,CF,20,
2397647,000000A9,false,Rx,0,8,57,0C,8E,8F,0C,8E,EF,F8,
2397879,000000AA,false,Rx,0,8,85,EC,F8,00,00,00,F4,00,
2398116,000001D0,false,Rx,0,8,3B,08,0E,C6,00,00,0D,AE,
2405824,000000C4,false,Rx,0,7,54,FF,FD,00,00,FF,F1,00,
2406078,000000CE,false,Rx,0,8,00,00,00,00,00,00,00,00,
2406269,000000B6,false,Rx,0,5,48,09,80,00,08,00,00,00,
2406547,0000019E,false,Rx,0,8,00,EA,1F,FC,FE,63,00,09,
2406815,000001A0,false,Rx,0,8,00,80,00,A0,FF,12,90,65,
2407074,000002B2,false,Rx,0,8,00,00,00,00,4F,00,00,04,
2407442,000000A8,false,Rx,0,8,8C,ED,F8,00,00,0D,CF,20,
2407667,000000A9,false,Rx,0,8,58,0D,8E,8F,0C,8E,EF,F8,
2407899,000000AA,false,Rx,0,8,86,ED,F8,00,00,00,F4,00,
2415792,000000C4,false,Rx,0,7,54,FF,FD,00,00,FF,F1,00,
2417409,000000A8,false,Rx,0,8,8D,EE,F8,00,00,0D,CF,20,
2417634,000000A9,false,Rx,0,8,59,0E,8E,8F,0C,8E,EF,F8,
2417877,000000AA,false,Rx,0,8,87,EE,F8,00,00,00,F4,00,
2418589,000002FC,false,Rx,0,7,80,04,00,FF,FF,FF,FF,00,
2425819,000000C4,false,Rx,0,7,54,FF,FD,00,00,FF,F1,00,
2426074,000000CE,false,Rx,0,8,00,00,00,00,00,00,00,00,
2426253,000000B6,false,Rx,0,5,49,0A,80,00,08,00,00,00,
2426543,0000019E,false,Rx,0,8,00,EA,1F,FC,FE,63,00,09,
2426801,000001A0,false,Rx,0,8,00,80,00,A0,FF,12,A0,75,
2427059,000002B2,false,Rx,0,8,00,00,00,00,4F,00,00,04,
2427393,000000A8,false,Rx,0,8,7F,E0,F8,00,00,0D,CF,20,
2427618,000000A9,false,Rx,0,8,4B,00,8E,8F,0C,8E,EF,F8,
2427883,000000AA,false,Rx,0,8,79,E0,F8,00,00,00,F4,00,
2435788,000000C4,false,Rx,0,7,54,FF,FD,00,00,FF,F1,00,
2437404,000000A8,false,Rx,0,8,80,E1,F8,00,00,0D,CF,20,
2437640,000000A9,false,Rx,0,8,4C,01,8E,8F,0C,8E,EF,F8,
2437873,000000AA,false,Rx,0,8,7A,E1,F8,00,00,00,F4,00,
2445766,000000C4,false,Rx,0,7,54,FF,FD,00,00,FF,F1,00,
2446020,000000CE,false,Rx,0,8,00,00,00,00,00,00,00,00,
2446200,000000B6,false,Rx,0,5,4A,0B,80,00,08,00,00,00,
2446467,0000019E,false,Rx,0,8,00,EA,1F,FC,FE,63,00,09,
2446724,000001A0,false,Rx,0,8,00,80,00,A0,FF,12,B0,85,
2446984,000002B2,false,Rx,0,8,00,00,00,00,4F,00,00,04,
2447450,000000A8,false,Rx,0,8,81,E2,F8,00,00,0D,CF,20,
2447676,000000A9,false,Rx,0,8,4D,02,8E,8F,0C,8E,EF,F8,
2447919,000000AA,false,Rx,0,8,7B,E2,F8,00,00,00,F4,00,
2450167,00000497,false,Rx,0,8,29,52,FF,FF,FF,FF,FF,FF,
2455774,000000C4,false,Rx,0,7,54,FF,FD,00,00,FF,F1,00,
2457413,000000A8,false,Rx,0,8,82,E3,F8,00,00,0D,CF,20,
2457638,000000A9,false,Rx,0,8,4E,03,8E,8F,0C,8E,EF,F8,
2457881,000000AA,false,Rx,0,8,7C,E3,F8,00,00,00,F4,00,
2461960,000001FB,false,Rx,0,2,FC,FF,00,00,00,00,00,00,
2465756,000000C4,false,Rx,0,7,54,FF,FD,00,00,FF,F1,00,
2466011,000000CE,false,Rx,0,8,00,00,00,00,00,00,00,00,
2466190,000000B6,false,Rx,0,5,4B,0C,80,00,08,00,00,00,
2466524,0000019E,false,Rx,0,8,00,EA,1F,FC,FE,63,00,09,
2466782,000001A0,false,Rx,0,8,00,80,00,90,FF,12,C0,85,
2467040,000001A6,false,Rx,0,8,00,00,00,00,00,00,50,F6,
2467308,000002B2,false,Rx,0,8,00,00,00,00,4F,00,00,04,
2467544,000000A8,false,Rx,0,8,83,E4,F8,00,00,0D,CF,20,
2467779,000000A9,false,Rx,0,8,4F,04,8E,8F,0C,8E,EF,F8,
2468014,000000AA,false,Rx,0,8,7D,E4,F8,00,00,00,F4,00,
2468637,00000130,false,Rx,0,5,00,0E,D0,0F,98,00,00,00,
2475812,000000C4,false,Rx,0,7,54,FF,FD,00,00,FF,F1,00,
2477418,000000A8,false,Rx,0,8,84,E5,F8,00,00,0D,CF,20,
2477643,000000A9,false,Rx,0,8,50,05,8E,8F,0C,8E,EF,F8,
2477875,000000AA,false,Rx,0,8,7E,E5,F8,00,00,00,F4,00,
2478698,000001B5,false,Rx,0,7,00,FF,00,00,C8,FF,FF,00,
2485806,000000C4,false,Rx,0,7,54,FF,FD,00,00,FF,F1,00,
2486060,000000CE,false,Rx,0,8,00,00,00,00,00,00,00,00,
2486251,000000B6,false,Rx,0,5,4C,0D,80,00,08,00,00,00,
2486529,0000019E,false,Rx,0,8,00,EA,1F,FC,FE,63,00,09,
2486787,000001A0,false,Rx,0,8,00,80,00,A0,FF,0F,D0,A2,
2487056,000002B2,false,Rx,0,8,00,00,00,00,3F,00,00,04,
2487424,000000A8,false,Rx,0,8,85,E6,F8,00,00,0D,CF,20,
2487649,000000A9,false,Rx,0,8,51,06,8E,8F,0C,8E,EF,F8,
2487891,000000AA,false,Rx,0,8,7F,E6,F8,00,00,00,F4,00,
2495786,000000C4,false,Rx,0,7,54,FF,FD,00,00,FF,F1,00,
2497424,000000A8,false,Rx,0,8,86,E7,F8,00,00,0D,CF,20,
2497649,000000A9,false,Rx,0,8,52,07,8E,8F,0C,8E,EF,F8,
2497893,000000AA,false,Rx,0,8,80,E7,F8,00,00,00,F4,00,
2498129,000001D0,false,Rx,0,8,3B,08,00,C6,00,00,0D,AE,
2505929,000000C4,false,Rx,0,7,54,FF,FD,00,00,FF,F1,00,
2506180,000000CE,false,Rx,0,8,00,00,00,00,00,00,00,00,
2506371,000000B6,false,Rx,0,5,4D,0E,80,00,08,00,00,00,
2506539,00000194,false,Rx,0,4,ED,F0,00,FC,00,00,00,00,
2506774,0000019E,false,Rx,0,8,00,EA,1F,FC,FE,63,00,09,
2506910,000001D6,false,Rx,0,2,C0,0C,00,00,00,00,00,00,
2507155,000001A0,false,Rx,0,8,00,80,00,A0,FF,12,E0,B5,
2507290,000002A6,false,Rx,0,2,00,F8,00,00,00,00,00,00,
2507525,000000A8,false,Rx,0,8,87,E8,F8,00,00,0D,CF,20,
2507748,000000A9,false,Rx,0,8,53,08,8E,8F,0C,8E,EF,F8,
2507995,000000AA,false,Rx,0,8,81,E8,F8,00,00,00,F4,00,
2508231,000002B2,false,Rx,0,8,00,00,00,00,4F,00,00,04,
2515802,000000C4,false,Rx,0,7,54,FF,FD,00,00,FF,F1,00,
2517431,000000A8,false,Rx,0,8,88,E9,F8,00,00,0D,CF,20,
2517666,000000A9,false,Rx,0,8,54,09,8E,8F,0C,8E,EF,F8,
2517910,000000AA,false,Rx,0,8,82,E9,F8,00,00,00,F4,00,
2525829,000000C4,false,Rx,0,7,54,FF,FD,00,00,FF,F1,00,
2526083,000000CE,false,Rx,0,8,00,00,00,00,00,00,00,00,
2526263,000000B6,false,Rx,0,5,3F,00,80,00,08,00,00,00,
2526552,0000019E,false,Rx,0,8,00,EA,1F,FC,FE,63,00,09,
2526799,000001A0,false,Rx,0,8,00,80,00,90,FF,12,00,C4,
2527068,000002B2,false,Rx,0,8,00,00,00,00,4F,00,00,04,
2527448,000000A8,false,Rx,0,8,89,EA,F8,00,00,0D,CF,20,
2527683,000000A9,false,Rx,0,8,55,0A,8E,8F,0C,8E,EF,F8,
2527927,000000AA,false,Rx,0,8,83,EA,F8,00,00,00,F4,00,
2535808,000000C4,false,Rx,0,7,54,FF,FD,00,00,FF,F1,00,
2536007,000000C8,false,Rx,0,6,54,FF,01,00,00,7C,00,00,
2537450,000000A8,false,Rx,0,8,8A,EB,F8,00,00,0D,CF,20,
2537673,000000A9,false,Rx,0,8,56,0B,8E,8F,0C,8E,EF,F8,
2537909,000000AA,false,Rx,0,8,84,EB,F8,00,00,00,F4,00,
2545802,000000C4,false,Rx,0,7,54,FF,FD,00,00,FF,F1,00,
2546057,000000CE,false,Rx,0,8,00,00,00,00,00,00,00,00,
2546247,000000B6,false,Rx,0,5,40,01,80,00,08,00,00,00,
2546537,0000019E,false,Rx,0,8,00,EA,1F,FC,FE,63,00,09,
2546795,000001A0,false,Rx,0,8,00,80,00,A0,FF,0F,10,E1,
2547053,000002B2,false,Rx,0,8,00,00,00,00,3F,00,00,04,
2547321,000004A9,false,Rx,0,8,30,52,FF,FF,FF,FF,FF,FF,
2547557,000000A8,false,Rx,0,8,8B,EC,F8,00,00,0D,CF,20,
2547792,000000A9,false,Rx,0,8,57,0C,8E,8F,0C,8E,EF,F8,
2548028,000000AA,false,Rx,0,8,85,EC,F8,00,00,00,F4,00,
2555799,000000C4,false,Rx,0,7,54,FF,FD,00,00,FF,F1,00,
2557428,000000A8,false,Rx,0,8,8C,ED,F8,00,00,0D,CF,20,
2557662,000000A9,false,Rx,0,8,58,0D,8E,8F,0C,8E,EF,F8,
2557895,000000AA,false,Rx,0,8,86,ED,F8,00,00,00,F4,00,
2565812,000000C4,false,Rx,0,7,54,FF,FD,00,00,FF,F1,00,
2566055,000000CE,false,Rx,0,8,00,00,00,00,00,00,00,00,
2566279,000000B6,false,Rx,0,5,41,02,80,00,08,00,00,00,
2566603,0000019E,false,Rx,0,8,00,EA,1F,FC,FE,63,00,09,
2566860,000001A0,false,Rx,0,8,00,80,00,A0,FF,12,20,F4,
2567129,000001A6,false,Rx,0,8,00,00,00,00,00,00,E0,F7,
2567398,000002B2,false,Rx,0,8,00,00,00,00,4F,00,00,04,
2567633,000000A8,false,Rx,0,8,8D,EE,F8,00,00,0D,CF,20,
2567876,000000A9,false,Rx,0,8,59,0E,8E,8F,0C,8E,EF,F8,
2568102,000000AA,false,Rx,0,8,87,EE,F8,00,00,00,F4,00,
2568282,00000374,false,Rx,0,5,00,00,FF,FF,FC,00,00,00,
2568681,00000130,false,Rx,0,5,00,0E,D0,0F,A9,00,00,00,
2575851,000000C4,false,Rx,0,7,54,FF,FD,00,00,FF,F1,00,
2577433,000000A8,false,Rx,0,8,7F,E0,F8,00,00,0D,CF,20,
2577657,000000A9,false,Rx,0,8,4B,00,8E,8F,0C,8E,EF,F8,
2577913,000000AA,false,Rx,0,8,79,E0,F8,00,00,00,F4,00,
2585828,000000C4,false,Rx,0,7,54,FF,FD,00,00,FF,F1,00,
2586081,000000CE,false,Rx,0,8,00,00,00,00,00,00,00,00,
2586261,000000B6,false,Rx,0,5,42,03,80,00,08,00,00,00,
2586551,0000019E,false,Rx,0,8,00,EA,1F,FC,FE,63,00,09,
2586808,000001A0,false,Rx,0,8,00,80,00,A0,FF,12,30,05,
2587066,000002B2,false,Rx,0,8,00,00,00,00,4F,00,00,04,
2587457,000000A8,false,Rx,0,8,80,E1,F8,00,00,0D,CF,20,
2587692,000000A9,false,Rx,0,8,4C,01,8E,8F,0C,8E,EF,F8,
2587925,000000AA,false,Rx,0,8,7A,E1,F8,00,00,00,F4,00,
2595808,000000C4,false,Rx,0,7,54,FF,FD,00,00,FF,F1,00,
2597424,000000A8,false,Rx,0,8,81,E2,F8,00,00,0D,CF,20,
2597648,000000A9,false,Rx,0,8,4D,02,8E,8F,0C,8E,EF,F8,
2597891,000000AA,false,Rx,0,8,7B,E2,F8,00,00,00,F4,00,
2598128,000001D0,false,Rx,0,8,3B,08,00,C6,00,00,0D,AE,
2605859,000000C4,false,Rx,0,7,54,FF,FD,00,00,FF,F1,00,
2606112,000000CE,false,Rx,0,8,00,00,00,00,00,00,00,00,
2606302,000000B6,false,Rx,0,5,43,04,80,00,08,00,00,00,
2606582,0000019E,false,Rx,0,8,00,EA,1F,FC,FE,63,00,09,
2606839,000001A0,false,Rx,0,8,00,80,00,A0,FF,0F,40,12,
2607108,000002B2,false,Rx,0,8,00,00,00,00,3F,00,00,04,
2607432,000000A8,false,Rx,0,8,82,E3,F8,00,00,0D,CF,20,
2607656,000000A9,false,Rx,0,8,4E,03,8E,8F,0C,8E,EF,F8,
2607891,000000AA,false,Rx,0,8,7C,E3,F8,00,00,00,F4,00,
2615793,000000C4,false,Rx,0,7,54,FF,FD,00,00,FF,F1,00,
2617431,000000A8,false,Rx,0,8,83,E4,F8,00,00,0D,CF,20,
2617655,000000A9,false,Rx,0,8,4F,04,8E,8F,0C,8E,EF,F8,
2617898,000000AA,false,Rx,0,8,7D,E4,F8,00,00,00,F4,00,
2625827,000000C4,false,Rx,0,7,54,FF,FD,00,00,FF,F1,00,
2626069,000000CE,false,Rx,0,8,00,00,00,00,00,00,00,00,
2626260,000000B6,false,Rx,0,5,44,05,80,00,08,00,00,00,
2626539,0000019E,false,Rx,0,8,00,EA,2F,FC,FE,63,00,19,
2626796,000001A0,false,Rx,0,8,00,80,00,A0,FF,0F,50,22,
2627055,000002B2,false,Rx,0,8,00,00,00,00,3F,00,00,04,
2627424,000000A8,false,Rx,0,8,84,E5,F8,00,00,0D,CF,20,
2627648,000000A9,false,Rx,0,8,50,05,8E,8F,0C,8E,EF,F8,
2627890,000000AA,false,Rx,0,8,7E,E5,F8,00,00,00,F4,00,
2635785,000000C4,false,Rx,0,7,54,FF,FD,00,00,FF,F1,00,
2637424,000000A8,false,Rx,0,8,85,E6,F8,00,00,0D,CF,20,
2637647,000000A9,false,Rx,0,8,51,06,8E,8F,0C,8E,EF,F8,
2637891,000000AA,false,Rx,0,8,7F,E6,F8,00,00,00,F4,00,
2641937,000004B0,false,Rx,0,8,00,52,FE,01,FF,FF,FF,FF,
2645791,000000C4,false,Rx,0,7,54,FF,FD,00,00,FF,F1,00,
2646044,000000CE,false,Rx,0,8,00,00,00,00,00,00,00,00,
2646235,000000B6,false,Rx,0,5,45,06,80,00,08,00,00,00,
2646514,0000019E,false,Rx,0,8,00,EA,2F,FC,FE,63,00,19,
2646771,000001A0,false,Rx,0,8,00,80,00,90,FF,12,60,25,
2647029,000002B2,false,Rx,0,8,00,00,00,00,4F,00,00,04,
2647431,000000A8,false,Rx,0,8,86,E7,F8,00,00,0D,CF,20,
2647655,000000A9,false,Rx,0,8,52,07,8E,8F,0C,8E,EF,F8,
2647897,000000AA,false,Rx,0,8,80,E7,F8,00,00,00,F4,00,
2652763,000001FB,false,Rx,0,2,FD,FF,00,00,00,00,00,00,
2655763,000000C4,false,Rx,0,7,54,FF,FD,00,00,FF,F1,00,
2657424,000000A8,false,Rx,0,8,87,E8,F8,00,00,0D,CF,20,
2657647,000000A9,false,Rx,0,8,53,08,8E,8F,0C,8E,EF,F8,
2657891,000000AA,false,Rx,0,8,81,E8,F8,00,00,00,F4,00,
2665774,000000C4,false,Rx,0,7,54,FF,FD,00,00,FF,F1,00,
2666016,000000CE,false,Rx,0,8,00,00,00,00,00,00,00,00,
2666207,000000B6,false,Rx,0,5,46,07,80,00,08,00,00,00,
2666520,0000019E,false,Rx,0,8,00,EA,2F,FC,FE,63,00,19,
2666777,000001A0,false,Rx,0,8,00,80,00,A0,FF,12,70,45,
2667046,000001A6,false,Rx,0,8,00,00,00,00,00,00,70,F9,
2667304,000002B2,false,Rx,0,8,00,00,00,00,4F,00,00,04,
2667539,000000A8,false,Rx,0,8,88,E9,F8,00,00,0D,CF,20,
2667774,000000A9,false,Rx,0,8,54,09,8E,8F,0C,8E,EF,F8,
2668010,000000AA,false,Rx,0,8,82,E9,F8,00,00,00,F4,00,
2668654,00000130,false,Rx,0,5,00,0E,D0,0F,BA,00,00,00,
2675819,000000C4,false,Rx,0,7,54,FF,FD,00,00,FF,F1,00,
2677401,000000A8,false,Rx,0,8,89,EA,F8,00,00,0D,CF,20,
2677636,000000A9,false,Rx,0,8,55,0A,8E,8F,0C,8E,EF,F8,
2677880,000000AA,false,Rx,0,8,83,EA,F8,00,00,00,F4,00,
2685797,000000C4,false,Rx,0,7,54,FF,FD,00,00,FF,F1,00,
2686049,000000CE,false,Rx,0,8,00,00,00,00,00,00,00,00,
2686240,000000B6,false,Rx,0,5,47,08,80,00,08,00,00,00,
2686531,0000019E,false,Rx,0,8,00,EA,2F,FC,FE,63,00,19,
2686788,000001A0,false,Rx,0,8,00,80,00,A0,FF,12,80,55,
2687046,000002B2,false,Rx,0,8,00,00,00,00,4F,00,00,04,
2687425,000000A8,false,Rx,0,8,8A,EB,F8,00,00,0D,CF,20,
2687660,000000A9,false,Rx,0,8,56,0B,8E,8F,0C,8E,EF,F8,
2687892,000000AA,false,Rx,0,8,84,EB,F8,00,00,00,F4,00,
2695774,000000C4,false,Rx,0,7,54,FF,FD,00,00,FF,F1,00,
2697412,000000A8,false,Rx,0,8,8B,EC,F8,00,00,0D,CF,20,
2697636,000000A9,false,Rx,0,8,57,0C,8E,8F,0C,8E,EF,F8,
2697880,000000AA,false,Rx,0,8,85,EC,F8,00,00,00,F4,00,
2698106,000001B6,false,Rx,0,7,FF,00,00,00,00,AC,00,00,
2698351,000001D0,false,Rx,0,8,3B,08,01,C6,00,00,0D,AE,
2698542,000003B3,false,Rx,0,6,1F,00,FF,7F,00,F1,00,00,
2698700,000002F3,false,Rx,0,3,01,FC,F3,00,00,00,00,00,
2703882,00000310,false,Rx,0,7,6D,A5,00,00,00,42,20,00,
2705864,000000C4,false,Rx,0,7,54,FF,FD,00,00,FF,F1,00,
2706117,000000CE,false,Rx,0,8,00,00,00,00,00,00,00,00,
2706308,000000B6,false,Rx,0,5,48,09,80,00,08,00,00,00,
2706477,00000194,false,Rx,0,4,EE,F1,00,FC,00,00,00,00,
2706711,0000019E,false,Rx,0,8,00,EA,2F,FC,FE,63,00,19,
2706969,000001A0,false,Rx,0,8,00,80,00,A0,FF,12,90,65,
2707238,000002B2,false,Rx,0,8,00,00,00,00,4F,00,00,04,
2707473,000000A8,false,Rx,0,8,8C,ED,F8,00,00,0D,CF,20,
2707697,000000A9,false,Rx,0,8,58,0D,8E,8F,0C,8E,EF,F8,
2707934,000000AA,false,Rx,0,8,86,ED,F8,00,00,00,F4,00,
2715800,000000C4,false,Rx,0,7,54,FF,FD,00,00,FF,F1,00,
2717405,000000A8,false,Rx,0,8,8D,EE,F8,00,00,0D,CF,20,
2717629,000000A9,false,Rx,0,8,59,0E,8E,8F,0C,8E,EF,F8,
2717873,000000AA,false,Rx,0,8,87,EE,F8,00,00,00,F4,00,
2721573,000005E2,false,Rx,0,8,08,02,00,FE,FF,FF,FF,FF,
2723722,00000480,false,Rx,0,8,12,42,01,01,FF,FF,FF,FF,
2725892,000000C4,false,Rx,0,7,54,FF,FD,00,00,FF,F1,00,
2726134,000000CE,false,Rx,0,8,00,00,00,00,00,00,00,00,
2726326,000000B6,false,Rx,0,5,49,0A,80,00,08,00,00,00,
2726604,0000019E,false,Rx,0,8,00,EA,2F,FC,FE,63,00,19,
2726861,000001A0,false,Rx,0,8,00,80,00,A0,FF,12,A0,75,
2727121,000002B2,false,Rx,0,8,00,00,00,00,4F,00,00,04,
2727433,000000A8,false,Rx,0,8,7F,E0,F8,00,00,0D,CF,20,
2727656,000000A9,false,Rx,0,8,4B,00,8E,8F,0C,8E,EF,F8,
2727905,000000AA,false,Rx,0,8,79,E0,F8,00,00,00,F4,00,
2735802,000000C4,false,Rx,0,7,54,FF,FD,00,00,FF,F1,00,
2736000,000000C8,false,Rx,0,6,54,FF,51,00,00,7C,00,00,
2737409,000000A8,false,Rx,0,8,80,E1,F8,00,00,0D,CF,20,
2737644,000000A9,false,Rx,0,8,4C,01,8E,8F,0C,8E,EF,F8,
2737880,000000AA,false,Rx,0,8,7A,E1,F8,00,00,00,F4,00,
2745774,000000C4,false,Rx,0,7,54,FF,FD,00,00,FF,F1,00,
2746027,000000CE,false,Rx,0,8,00,00,00,00,00,00,00,00,
2746207,000000B6,false,Rx,0,5,4A,0B,80,00,08,00,00,00,
2746475,0000019E,false,Rx,0,8,00,EA,2F,FC,FE,63,00,19,
2746732,000001A0,false,Rx,0,8,00,80,00,A0,FF,12,B0,85,
2746990,000002B2,false,Rx,0,8,00,00,00,00,4F,00,00,04,
2747425,000000A8,false,Rx,0,8,81,E2,F8,00,00,0D,CF,20,
2747660,000000A9,false,Rx,0,8,4D,02,8E,8F,0C,8E,EF,F8,
2747893,000000AA,false,Rx,0,8,7B,E2,F8,00,00,00,F4,00,
2755777,000000C4,false,Rx,0,7,54,FF,FD,00,00,FF,F1,00,
2757416,000000A8,false,Rx,0,8,82,E3,F8,00,00,0D,CF,20,
2757640,000000A9,false,Rx,0,8,4E,03,8E,8F,0C,8E,EF,F8,
2757874,000000AA,false,Rx,0,8,7C,E3,F8,00,00,00,F4,00,
2765778,000000C4,false,Rx,0,7,54,FF,FD,00,00,FF,F1,00,
2766031,000000CE,false,Rx,0,8,00,00,00,00,00,00,00,00,
2766211,000000B6,false,Rx,0,5,4B,0C,80,00,08,00,00,00,
2766523,0000019E,false,Rx,0,8,00,EA,2F,FC,FE,63,00,19,
2766780,000001A0,false,Rx,0,8,00,80,00,90,FF,12,C0,85,
2767051,000001A6,false,Rx,0,8,00,00,00,00,00,00,00,FB,
2767308,000002B2,false,Rx,0,8,00,00,00,00,4F,00,00,04,
2767554,000000A8,false,Rx,0,8,83,E4,F8,00,00,0D,CF,20,
2767779,000000A9,false,Rx,0,8,4F,04,8E,8F,0C,8E,EF,F8,
2768014,000000AA,false,Rx,0,8,7D,E4,F8,00,00,00,F4,00,
2768648,00000130,false,Rx,0,5,00,0E,D0,0F,CB,00,00,00,
2775823,000000C4,false,Rx,0,7,54,FF,FD,00,00,FF,F1,00,
2777407,000000A8,false,Rx,0,8,84,E5,F8,00,00,0D,CF,20,
2777642,000000A9,false,Rx,0,8,50,05,8E,8F,0C,8E,EF,F8,
2777875,000000AA,false,Rx,0,8,7E,E5,F8,00,00,00,F4,00,
2778122,000005F8,false,Rx,0,8,08,08,00,00,FF,FF,FF,FF,
2785797,000000C4,false,Rx,0,7,54,FF,FD,00,00,FF,F1,00,
2786050,000000CE,false,Rx,0,8,00,00,00,00,00,00,00,00,
2786231,000000B6,false,Rx,0,5,4C,0D,80,00,08,00,00,00,
2786509,0000019E,false,Rx,0,8,00,EA,2F,FC,FE,63,00,19,
2786766,000001A0,false,Rx,0,8,00,80,00,90,FF,12,D0,95,
2787026,000002B2,false,Rx,0,8,00,00,00,00,4F,00,00,04,
2787426,000000A8,false,Rx,0,8,85,E6,F8,00,00,0D,CF,20,
2787661,000000A9,false,Rx,0,8,51,06,8E,8F,0C,8E,EF,F8,
2787894,000000AA,false,Rx,0,8,7F,E6,F8,00,00,00,F4,00,
2795776,000000C4,false,Rx,0,7,54,FF,FD,00,00,FF,F1,00,
2797425,000000A8,false,Rx,0,8,86,E7,F8,00,00,0D,CF,20,
2797649,000000A9,false,Rx,0,8,52,07,8E,8F,0C,8E,EF,F8,
2797893,000000AA,false,Rx,0,8,80,E7,F8,00,00,00,F4,00,
2798129,000001D0,false,Rx,0,8,3B,08,01,C6,00,00,0D,AE,
2805847,000000C4,false,Rx,0,7,54,FF,FD,00,00,FF,F1,00,
2806089,000000CE,false,Rx,0,8,00,00,00,00,00,00,00,00,
2806281,000000B6,false,Rx,0,5,4D,0E,80,00,08,00,00,00,
2806560,0000019E,false,Rx,0,8,00,EA,2F,FC,FE,63,00,19,
2806816,000001A0,false,Rx,0,8,00,80,00,A0,FF,12,E0,B5,
2807076,000002B2,false,Rx,0,8,00,00,00,00,4F,00,00,04,
2807476,000000A8,false,Rx,0,8,87,E8,F8,00,00,0D,CF,20,
2807700,000000A9,false,Rx,0,8,53,08,8E,8F,0C,8E,EF,F8,
2807945,000000AA,false,Rx,0,8,81,E8,F8,00,00,00,F4,00,
2815838,000000C4,false,Rx,0,7,54,FF,FD,00,00,FF,F1,00,
2817421,000000A8,false,Rx,0,8,88,E9,F8,00,00,0D,CF,20,
2817655,000000A9,false,Rx,0,8,54,09,8E,8F,0C,8E,EF,F8,
2817901,000000AA,false,Rx,0,8,82,E9,F8,00,00,00,F4,00,
2825861,000000C4,false,Rx,0,7,54,FF,FD,00,00,FF,F1,00,
2826114,000000CE,false,Rx,0,8,00,00,00,00,00,00,00,00,
2826306,000000B6,false,Rx,0,5,3F,00,80,00,08,00,00,00,
2826584,0000019E,false,Rx,0,8,00,EA,3F,FC,FE,63,00,29,
2826841,000001A0,false,Rx,0,8,00,80,00,A0,FF,12,00,D4,
2827100,000002B2,false,Rx,0,8,00,00,00,00,4F,00,00,04,
2827446,00000492,false,Rx,0,8,17,52,FF,FF,FF,FF,FF,FF,
2827680,000000A8,false,Rx,0,8,89,EA,F8,00,00,0D,CF,20,
2827925,000000A9,false,Rx,0,8,55,0A,8E,8F,0C,8E,EF,F8,
2828149,000000AA,false,Rx,0,8,83,EA,F8,00,00,00,F4,00,
2835846,000000C4,false,Rx,0,7,54,FF,FD,00,00,FF,F1,00,
2837429,000000A8,false,Rx,0,8,8A,EB,F8,00,00,0D,CF,20,
2837663,000000A9,false,Rx,0,8,56,0B,8E,8F,0C,8E,EF,F8,
2837909,000000AA,false,Rx,0,8,84,EB,F8,00,00,00,F4,00,
2842827,000001FB,false,Rx,0,2,FE,FF,00,00,00,00,00,00,
2845817,000000C4,false,Rx,0,7,54,FF,FD,00,00,FF,F1,00,
2846070,000000CE,false,Rx,0,8,00,00,00,00,00,00,00,00,
2846251,000000B6,false,Rx,0,5,40,01,80,00,08,00,00,00,
2846529,0000019E,false,Rx,0,8,00,EA,3F,FC,FE,63,00,29,
2846786,000001A0,false,Rx,0,8,00,80,00,A0,FF,12,10,E4,
2847046,000002B2,false,Rx,0,8,00,00,00,00,4F,00,00,04,
2847446,000000A8,false,Rx,0,8,8B,EC,F8,00,00,0D,CF,20,
2847671,000000A9,false,Rx,0,8,57,0C,8E,8F,0C,8E,EF,F8,
2847915,000000AA,false,Rx,0,8,85,EC,F8,00,00,00,F4,00,
2855808,000000C4,false,Rx,0,7,54,FF,FD,00,00,FF,F1,00,
2857413,000000A8,false,Rx,0,8,8C,ED,F8,00,00,0D,CF,20,
2857638,000000A9,false,Rx,0,8,58,0D,8E,8F,0C,8E,EF,F8,
2857881,000000AA,false,Rx,0,8,86,ED,F8,00,00,00,F4,00,
2865808,000000C4,false,Rx,0,7,54,FF,FD,00,00,FF,F1,00,
2866061,000000CE,false,Rx,0,8,00,00,00,00,00,00,00,00,
2866253,000000B6,false,Rx,0,5,41,02,80,00,08,00,00,00,
2866553,0000019E,false,Rx,0,8,00,EA,3F,FC,FE,63,00,29,
2866810,000001A0,false,Rx,0,8,00,80,00,90,FF,12,20,E4,
2867080,000001A6,false,Rx,0,8,00,00,00,00,00,00,90,FC,
2867337,000002B2,false,Rx,0,8,00,00,00,00,4F,00,00,04,
2867572,000000A8,false,Rx,0,8,8D,EE,F8,00,00,0D,CF,20,
2867797,000000A9,false,Rx,0,8,59,0E,8E,8F,0C,8E,EF,F8,
2868044,000000AA,false,Rx,0,8,87,EE,F8,00,00,00,F4,00,
2868667,00000130,false,Rx,0,5,00,0E,D0,0F,DC,00,00,00,
2875853,000000C4,false,Rx,0,7,54,FF,FD,00,00,FF,F1,00,
2877448,000000A8,false,Rx,0,8,7F,E0,F8,00,00,0D,CF,20,
2877673,000000A9,false,Rx,0,8,4B,00,8E,8F,0C,8E,EF,F8,
2877918,000000AA,false,Rx,0,8,79,E0,F8,00,00,00,F4,00,
2885810,000000C4,false,Rx,0,7,54,FF,FD,00,00,FF,F1,00,
2886053,000000CE,false,Rx,0,8,00,00,00,00,00,00,00,00,
2886244,000000B6,false,Rx,0,5,42,03,80,00,08,00,00,00,
2886522,0000019E,false,Rx,0,8,00,EA,3F,FC,FE,63,00,29,
2886779,000001A0,false,Rx,0,8,00,80,00,A0,FF,0F,30,01,
2887050,000002B2,false,Rx,0,8,00,00,00,00,3F,00,00,04,
2887428,000000A8,false,Rx,0,8,80,E1,F8,00,00,0D,CF,20,
2887664,000000A9,false,Rx,0,8,4C,01,8E,8F,0C,8E,EF,F8,
2887896,000000AA,false,Rx,0,8,7A,E1,F8,00,00,00,F4,00,
2895778,000000C4,false,Rx,0,7,54,FF,FD,00,00,FF,F1,00,
2897417,000000A8,false,Rx,0,8,81,E2,F8,00,00,0D,CF,20,
2897642,000000A9,false,Rx,0,8,4D,02,8E,8F,0C,8E,EF,F8,
2897885,000000AA,false,Rx,0,8,7B,E2,F8,00,00,00,F4,00,
2898121,000001D0,false,Rx,0,8,3B,08,02,C6,00,00,0D,AE,
2905851,000000C4,false,Rx,0,7,54,FF,FD,00,00,FF,F1,00,
2906107,000000CE,false,Rx,0,8,00,00,00,00,00,00,00,00,
2906297,000000B6,false,Rx,0,5,43,04,80,00,08,00,00,00,
2906454,00000194,false,Rx,0,4,EF,F2,00,FC,00,00,00,00,
2906699,0000019E,false,Rx,0,8,00,EA,3F,FC,FE,63,00,29,
2906947,000001A0,false,Rx,0,8,00,80,00,90,FF,12,40,05,
2907215,000002B2,false,Rx,0,8,00,00,00,00,4F,00,00,04,
2907450,000000A8,false,Rx,0,8,82,E3,F8,00,00,0D,CF,20,
2907675,000000A9,false,Rx,0,8,4E,03,8E,8F,0C,8E,EF,F8,
2907921,000000AA,false,Rx,0,8,7C,E3,F8,00,00,00,F4,00,
2910157,00000497,false,Rx,0,8,29,52,FF,FF,FF,FF,FF,FF,
2915819,000000C4,false,Rx,0,7,54,FF,FD,00,00,FF,F1,00,
2917358,000000A8,false,Rx,0,8,83,E4,F8,00,00,0D,CF,20,
2917594,000000A9,false,Rx,0,8,4F,04,8E,8F,0C,8E,EF,F8,
2917829,000000AA,false,Rx,0,8,7D,E4,F8,00,00,00,F4,00,
2925841,000000C4,false,Rx,0,7,54,FF,FD,00,00,FF,F1,00,
2926095,000000CE,false,Rx,0,8,00,00,00,00,00,00,00,00,
2926275,000000B6,false,Rx,0,5,44,05,80,00,08,00,00,00,
2926553,0000019E,false,Rx,0,8,00,EA,3F,FC,FE,63,00,29,
2926812,000001A0,false,Rx,0,8,00,80,00,A0,FF,12,50,25,
2927070,000002B2,false,Rx,0,8,00,00,00,00,4F,00,00,04,
2927426,000000A8,false,Rx,0,8,84,E5,F8,00,00,0D,CF,20,
2927651,000000A9,false,Rx,0,8,50,05,8E,8F,0C,8E,EF,F8,
2927906,000000AA,false,Rx,0,8,7E,E5,F8,00,00,00,F4,00,
2935797,000000C4,false,Rx,0,7,54,FF,FD,00,00,FF,F1,00,
2936008,000000C8,false,Rx,0,6,54,FF,A1,00,00,7C,00,00,
2937405,000000A8,false,Rx,0,8,85,E6,F8,00,00,0D,CF,20,
2937641,000000A9,false,Rx,0,8,51,06,8E,8F,0C,8E,EF,F8,
2937875,000000AA,false,Rx,0,8,7F,E6,F8,00,00,00,F4,00,
2945768,000000C4,false,Rx,0,7,54,FF,FD,00,00,FF,F1,00,
2946022,000000CE,false,Rx,0,8,00,00,00,00,00,00,00,00,
2946213,000000B6,false,Rx,0,5,45,06,80,00,08,00,00,00,
2946469,0000019E,false,Rx,0,8,00,EA,3F,FC,FE,63,00,29,
2946738,000001A0,false,Rx,0,8,00,80,00,90,FF,12,60,25,
2946996,000002B2,false,Rx,0,8,00,00,00,00,4F,00,00,04,
2947430,000000A8,false,Rx,0,8,86,E7,F8,00,00,0D,CF,20,
2947655,000000A9,false,Rx,0,8,52,07,8E,8F,0C,8E,EF,F8,
2947898,000000AA,false,Rx,0,8,80,E7,F8,00,00,00,F4,00,
2955769,000000C4,false,Rx,0,7,54,FF,FD,00,00,FF,F1,00,
2957429,000000A8,false,Rx,0,8,87,E8,F8,00,00,0D,CF,20,
2957654,000000A9,false,Rx,0,8,53,08,8E,8F,0C,8E,EF,F8,
2957887,000000AA,false,Rx,0,8,81,E8,F8,00,00,00,F4,00,
2965769,000000C4,false,Rx,0,7,54,FF,FD,00,00,FF,F1,00,
2966023,000000CE,false,Rx,0,8,00,00,00,00,00,00,00,00,
2966214,000000B6,false,Rx,0,5,46,07,80,00,08,00,00,00,
2966525,0000019E,false,Rx,0,8,00,EA,3F,FC,FE,63,00,29,
2966783,000001A0,false,Rx,0,8,00,80,00,90,FF,0F,70,32,
2967041,000001A6,false,Rx,0,8,00,00,00,00,00,00,20,FE,
2967309,000002B2,false,Rx,0,8,00,00,00,00,3F,00,00,04,
2967546,000000A8,false,Rx,0,8,88,E9,F8,00,00,0D,CF,20,
2967780,000000A9,false,Rx,0,8,54,09,8E,8F,0C,8E,EF,F8,
2968015,000000AA,false,Rx,0,8,82,E9,F8,00,00,00,F4,00,
2968671,00000130,false,Rx,0,5,00,0E,D0,0F,ED,00,00,00,
2975824,000000C4,false,Rx,0,7,54,FF,FD,00,00,FF,F1,00,
2977418,000000A8,false,Rx,0,8,89,EA,F8,00,00,0D,CF,20,
2977643,000000A9,false,Rx,0,8,55,0A,8E,8F,0C,8E,EF,F8,
2977886,000000AA,false,Rx,0,8,83,EA,F8,00,00,00,F4,00,
2985790,000000C4,false,Rx,0,7,54,FF,FD,00,00,FF,F1,00,
2986044,000000CE,false,Rx,0,8,00,00,00,00,00,00,00,00,
2986224,000000B6,false,Rx,0,5,47,08,80,00,08,00,00,00,
2986502,0000019E,false,Rx,0,8,00,EA,3F,FC,FE,63,00,29,
2986761,000001A0,false,Rx,0,8,00,80,00,A0,FF,12,80,55,
2987019,000002B2,false,Rx,0,8,00,00,00,00,4F,00,00,04,
2987431,000000A8,false,Rx,0,8,8A,EB,F8,00,00,0D,CF,20,
2987655,000000A9,false,Rx,0,8,56,0B,8E,8F,0C,8E,EF,F8,
2987887,000000AA,false,Rx,0,8,84,EB,F8,00,00,00,F4,00,
2995780,000000C4,false,Rx,0,7,54,FF,FD,00,00,FF,F1,00,
2997430,000000A8,false,Rx,0,8,8B,EC,F8,00,00,0D,CF,20,
2997654,000000A9,false,Rx,0,8,57,0C,8E,8F,0C,8E,EF,F8,
2997897,000000AA,false,Rx,0,8,85,EC,F8,00,00,00,F4,00,
2998133,000001D0,false,Rx,0,8,3B,08,02,C6,00,00,0D,AE,
3005853,000000C4,false,Rx,0,7,54,FF,FD,00,00,FF,F1,00,
3006107,000000CE,false,Rx,0,8,00,00,00,00,00,00,00,00,
3006297,000000B6,false,Rx,0,5,48,09,80,00,08,00,00,00,
3006587,0000019E,false,Rx,0,8,00,EA,3F,FC,FE,63,00,29,
3006845,000001A0,false,Rx,0,8,00,80,00,90,FF,12,90,55,
3007103,000002B2,false,Rx,0,8,00,00,00,00,4F,00,00,04,
3007371,000004A9,false,Rx,0,8,30,52,FF,FF,FF,FF,FF,FF,
3007607,000000A8,false,Rx,0,8,8C,ED,F8,00,00,0D,CF,20,
3007831,000000A9,false,Rx,0,8,58,0D,8E,8F,0C,8E,EF,F8,
3008077,000000AA,false,Rx,0,8,86,ED,F8,00,00,00,F4,00,
3015814,000000C4,false,Rx,0,7,54,FF,FD,00,00,FF,F1,00,
3017433,000000A8,false,Rx,0,8,8D,EE,F8,00,00,0D,CF,20,
3017656,000000A9,false,Rx,0,8,59,0E,8E,8F,0C,8E,EF,F8,
3017889,000000AA,false,Rx,0,8,87,EE,F8,00,00,00,F4,00,
3025840,000000C4,false,Rx,0,7,54,FF,FD,00,00,FF,F1,00,
3026094,000000CE,false,Rx,0,8,00,00,00,00,00,00,00,00,
3026274,000000B6,false,Rx,0,5,49,0A,80,00,08,00,00,00,
3026552,0000019E,false,Rx,0,8,00,EA,3F,FC,FE,63,00,29,
3026810,000001A0,false,Rx,0,8,00,80,00,90,FF,12,A0,65,
3027079,000002B2,false,Rx,0,8,00,00,00,00,4F,00,00,04,
3027426,000000A8,false,Rx,0,8,7F,E0,F8,00,00,0D,CF,20,
3027661,000000A9,false,Rx,0,8,4B,00,8E,8F,0C,8E,EF,F8,
3027905,000000AA,false,Rx,0,8,79,E0,F8,00,00,00,F4,00,
3032790,000001FB,false,Rx,0,2,F0,FF,00,00,00,00,00,00,
3035800,000000C4,false,Rx,0,7,54,FF,FD,00,00,FF,F1,00,
3037407,000000A8,false,Rx,0,8,80,E1,F8,00,00,0D,CF,20,
3037641,000000A9,false,Rx,0,8,4C,01,8E,8F,0C,8E,EF,F8,
3037885,000000AA,false,Rx,0,8,7A,E1,F8,00,00,00,F4,00,
3045780,000000C4,false,Rx,0,7,54,FF,FD,00,00,FF,F1,00,
3046035,000000CE,false,Rx,0,8,00,00,00,00,00,00,00,00,
3046214,000000B6,false,Rx,0,5,4A,0B,80,00,08,00,00,00,
3046481,0000019E,false,Rx,0,8,00,EA,4F,FC,FE,63,00,39,
3046740,000001A0,false,Rx,0,8,00,80,00,A0,FF,12,B0,85,
3046998,000002B2,false,Rx,0,8,00,00,00,00,4F,00,00,04,
3047422,000000A8,false,Rx,0,8,81,E2,F8,00,00,0D,CF,20,
3047656,000000A9,false,Rx,0,8,4D,02,8E,8F,0C,8E,EF,F8,
3047888,000000AA,false,Rx,0,8,7B,E2,F8,00,00,00,F4,00,
3055783,000000C4,false,Rx,0,7,54,FF,FD,00,00,FF,F1,00,
3057433,000000A8,false,Rx,0,8,82,E3,F8,00,00,0D,CF,20,
3057656,000000A9,false,Rx,0,8,4E,03,8E,8F,0C,8E,EF,F8,
3057901,000000AA,false,Rx,0,8,7C,E3,F8,00,00,00,F4,00,
3065784,000000C4,false,Rx,0,7,54,FF,FD,00,00,FF,F1,00,
3066037,000000CE,false,Rx,0,8,00,00,00,00,00,00,00,00,
3066216,000000B6,false,Rx,0,5,4B,0C,80,00,08,00,00,00,
3066540,0000019E,false,Rx,0,8,00,EA,4F,FC,FE,63,00,39,
3066797,000001A0,false,Rx,0,8,00,80,00,90,FF,12,C0,85,
3067055,000001A6,false,Rx,0,8,00,00,00,00,00,00,B0,FF,
3067324,000002B2,false,Rx,0,8,00,00,00,00,4F,00,00,04,
3067559,000000A8,false,Rx,0,8,83,E4,F8,00,00,0D,CF,20,
3067794,000000A9,false,Rx,0,8,4F,04,8E,8F,0C,8E,EF,F8,
3068029,000000AA,false,Rx,0,8,7D,E4,F8,00,00,00,F4,00,
3068685,00000130,false,Rx,0,5,00,0E,D0,0F,FE,00,00,00,
3075862,000000C4,false,Rx,0,7,54,FF,FD,00,00,FF,F1,00,
3077413,000000A8,false,Rx,0,8,84,E5,F8,00,00,0D,CF,20,
3077636,000000A9,false,Rx,0,8,50,05,8E,8F,0C,8E,EF,F8,
3077882,000000AA,false,Rx,0,8,7E,E5,F8,00,00,00,F4,00,
3085850,000000C4,false,Rx,0,7,54,FF,FD,00,00,FF,F1,00,
3086103,000000CE,false,Rx,0,8,00,00,00,00,00,00,00,00,
3086294,000000B6,false,Rx,0,5,4C,0D,80,00,08,00,00,00,
3086573,0000019E,false,Rx,0,8,00,EA,4F,FC,FE,63,00,39,
3086830,000001A0,false,Rx,0,8,00,80,00,90,FF,0F,D0,92,
3087088,000002B2,false,Rx,0,8,00,00,00,00,3F,00,00,04,
3087424,000000A8,false,Rx,0,8,85,E6,F8,00,00,0D,CF,20,
3087648,000000A9,false,Rx,0,8,51,06,8E,8F,0C,8E,EF,F8,
3087914,000000AA,false,Rx,0,8,7F,E6,F8,00,00,00,F4,00,
3095830,000000C4,false,Rx,0,7,54,FF,FD,00,00,FF,F1,00,
3097435,000000A8,false,Rx,0,8,86,E7,F8,00,00,0D,CF,20,
3097659,000000A9,false,Rx,0,8,52,07,8E,8F,0C,8E,EF,F8,
3097904,000000AA,false,Rx,0,8,80,E7,F8,00,00,00,F4,00,
3098140,000001D0,false,Rx,0,8,3B,08,03,C6,00,00,0D,AE,
3101819,000004B0,false,Rx,0,8,00,52,FE,01,FF,FF,FF,FF,
3105935,000000C4,false,Rx,0,7,54,FF,FD,00,00,FF,F1,00,
3106186,000000CE,false,Rx,0,8,00,00,00,00,00,00,00,00,
3106366,000000B6,false,Rx,0,5,4D,0E,80,00,08,00,00,00,
3106535,00000194,false,Rx,0,4,F0,F3,00,FC,00,00,00,00,
3106769,0000019E,false,Rx,0,8,00,EA,4F,FC,FE,63,00,39,
3107027,000001A0,false,Rx,0,8,00,80,00,A0,FF,12,E0,B5,
3107286,000002B2,false,Rx,0,8,00,00,00,00,4F,00,00,04,
3107532,000000A8,false,Rx,0,8,87,E8,F8,00,00,0D,CF,20,
3107755,000000A9,false,Rx,0,8,53,08,8E,8F,0C,8E,EF,F8,
3108001,000000AA,false,Rx,0,8,81,E8,F8,00,00,00,F4,00,
3115851,000000C4,false,Rx,0,7,54,FF,FD,00,00,FF,F1,00,
3117413,000000A8,false,Rx,0,8,88,E9,F8,00,00,0D,CF,20,
3117648,000000A9,false,Rx,0,8,54,09,8E,8F,0C,8E,EF,F8,
3117883,000000AA,false,Rx,0,8,82,E9,F8,00,00,00,F4,00,
3125873,000000C4,false,Rx,0,7,54,FF,FD,00,00,FF,F1,00,
3126126,000000CE,false,Rx,0,8,00,00,00,00,00,00,00,00,
3126305,000000B6,false,Rx,0,5,3F,00,80,00,08,00,00,00,
3126607,0000019E,false,Rx,0,8,00,EA,4F,FC,FE,63,00,39,
3126864,000001A0,false,Rx,0,8,00,80,00,90,FF,12,00,C4,
3127122,000002B2,false,Rx,0,8,00,00,00,00,4F,00,00,04,
3127458,000000A8,false,Rx,0,8,89,EA,F8,00,00,0D,CF,20,
3127693,000000A9,false,Rx,0,8,55,0A,8E,8F,0C,8E,EF,F8,
3127936,000000AA,false,Rx,0,8,83,EA,F8,00,00,00,F4,00,
3135830,000000C4,false,Rx,0,7,54,FF,FD,00,00,FF,F1,00,
3136039,000000C8,false,Rx,0,6,54,FF,01,00,00,7C,00,00,
3137427,000000A8,false,Rx,0,8,8A,EB,F8,00,00,0D,CF,20,
3137651,000000A9,false,Rx,0,8,56,0B,8E,8F,0C,8E,EF,F8,
3137885,000000AA,false,Rx,0,8,84,EB,F8,00,00,00,F4,00,
3145779,000000C4,false,Rx,0,7,54,FF,FD,00,00,FF,F1,00,
3146022,000000CE,false,Rx,0,8,00,00,00,00,00,00,00,00,
3146212,000000B6,false,Rx,0,5,40,01,80,00,08,00,00,00,
3146481,0000019E,false,Rx,0,8,00,EA,4F,FC,FE,63,00,39,
3146738,000001A0,false,Rx,0,8,00,80,00,90,FF,12,10,D4,
3146996,000002B2,false,Rx,0,8,00,00,00,00,4F,00,00,04,
3147431,000000A8,false,Rx,0,8,8B,EC,F8,00,00,0D,CF,20,
3147655,000000A9,false,Rx,0,8,57,0C,8E,8F,0C,8E,EF,F8,
3147897,000000AA,false,Rx,0,8,85,EC,F8,00,00,00,F4,00,
3155771,000000C4,false,Rx,0,7,54,FF,FD,00,00,FF,F1,00,
3157432,000000A8,false,Rx,0,8,8C,ED,F8,00,00,0D,CF,20,
3157656,000000A9,false,Rx,0,8,58,0D,8E,8F,0C,8E,EF,F8,
3157900,000000AA,false,Rx,0,8,86,ED,F8,00,00,00,F4,00,
3165785,000000C4,false,Rx,0,7,54,FF,FD,00,00,FF,F1,00,
3166039,000000CE,false,Rx,0,8,00,00,00,00,00,00,00,00,
3166229,000000B6,false,Rx,0,5,41,02,80,00,08,00,00,00,
3166531,0000019E,false,Rx,0,8,00,EA,4F,FC,FE,63,00,39,
3166788,000001A0,false,Rx,0,8,00,80,00,90,FF,12,20,E4,
3167057,000001A6,false,Rx,0,8,00,00,00,00,00,00,40,F1,
3167315,000002B2,false,Rx,0,8,00,00,00,00,4F,00,00,04,
3167550,000000A8,false,Rx,0,8,8D,EE,F8,00,00,0D,CF,20,
3167774,000000A9,false,Rx,0,8,59,0E,8E,8F,0C,8E,EF,F8,
3168021,000000AA,false,Rx,0,8,87,EE,F8,00,00,00,F4,00,
3168677,00000130,false,Rx,0,5,00,0E,D0,0F,00,00,00,00,
3175830,000000C4,false,Rx,0,7,54,FF,FD,00,00,FF,F1,00,
3177446,000000A8,false,Rx,0,8,7F,E0,F8,00,00,0D,CF,20,
3177670,000000A9,false,Rx,0,8,4B,00,8E,8F,0C,8E,EF,F8,
3177915,000000AA,false,Rx,0,8,79,E0,F8,00,00,00,F4,00,
3183753,00000480,false,Rx,0,8,12,42,01,01,FF,FF,FF,FF,
3185837,000000C4,false,Rx,0,7,54,FF,FD,00,00,FF,F1,00,
3186090,000000CE,false,Rx,0,8,00,00,00,00,00,00,00,00,
3186280,000000B6,false,Rx,0,5,42,03,80,00,08,00,00,00,
3186560,0000019E,false,Rx,0,8,00,EA,4F,FC,FE,63,00,39,
3186817,000001A0,false,Rx,0,8,00,80,00,A0,FF,12,30,05,
3187075,000002B2,false,Rx,0,8,00,00,00,00,4F,00,00,04,
3187466,000000A8,false,Rx,0,8,80,E1,F8,00,00,0D,CF,20,
3187701,000000A9,false,Rx,0,8,4C,01,8E,8F,0C,8E,EF,F8,
3187935,000000AA,false,Rx,0,8,7A,E1,F8,00,00,00,F4,00,
3195782,000000C4,false,Rx,0,7,54,FF,FD,00,00,FF,F1,00,
3197410,000000A8,false,Rx,0,8,81,E2,F8,00,00,0D,CF,20,
3197645,000000A9,false,Rx,0,8,4D,02,8E,8F,0C,8E,EF,F8,
3197889,000000AA,false,Rx,0,8,7B,E2,F8,00,00,00,F4,00,
3198125,000001D0,false,Rx,0,8,3B,08,03,C6,00,00,0D,AE,
3205855,000000C4,false,Rx,0,7,54,FF,FD,00,00,FF,F1,00,
3206097,000000CE,false,Rx,0,8,00,00,00,00,00,00,00,00,
3206287,000000B6,false,Rx,0,5,43,04,80,00,08,00,00,00,
3206567,0000019E,false,Rx,0,8,00,EA,4F,FC,FE,63,00,39,
3206824,000001A0,false,Rx,0,8,00,80,00,90,FF,12,40,05,
3207084,000002B2,false,Rx,0,8,00,00,00,00,4F,00,00,04,
3207430,000000A8,false,Rx,0,8,82,E3,F8,00,00,0D,CF,20,
3207654,000000A9,false,Rx,0,8,4E,03,8E,8F,0C,8E,EF,F8,
3207921,000000AA,false,Rx,0,8,7C,E3,F8,00,00,00,F4,00,
3215812,000000C4,false,Rx,0,7,54,FF,FD,00,00,FF,F1,00,
3217407,000000A8,false,Rx,0,8,83,E4,F8,00,00,0D,CF,20,
3217642,000000A9,false,Rx,0,8,4F,04,8E,8F,0C,8E,EF,F8,
3217886,000000AA,false,Rx,0,8,7D,E4,F8,00,00,00,F4,00,
3221987,000001FB,false,Rx,0,2,F1,FF,00,00,00,00,00,00,
3225840,000000C4,false,Rx,0,7,54,FF,FD,00,00,FF,F1,00,
3226094,000000CE,false,Rx,0,8,00,00,00,00,00,00,00,00,
3226275,000000B6,false,Rx,0,5,44,05,80,00,08,00,00,00,
3226553,0000019E,false,Rx,0,8,00,EA,4F,FC,FE,63,00,39,
3226810,000001A0,false,Rx,0,8,00,80,00,A0,FF,12,50,25,
3227081,000002B2,false,Rx,0,8,00,00,00,00,4F,00,00,04,
3227426,000000A8,false,Rx,0,8,84,E5,F8,00,00,0D,CF,20,
3227661,000000A9,false,Rx,0,8,50,05,8E,8F,0C,8E,EF,F8,
3227906,000000AA,false,Rx,0,8,7E,E5,F8,00,00,00,F4,00,
3235811,000000C4,false,Rx,0,7,54,FF,FD,00,00,FF,F1,00,
3237405,000000A8,false,Rx,0,8,85,E6,F8,00,00,0D,CF,20,
3237629,000000A9,false,Rx,0,8,51,06,8E,8F,0C,8E,EF,F8,
3237873,000000AA,false,Rx,0,8,7F,E6,F8,00,00,00,F4,00,
3245792,000000C4,false,Rx,0,7,54,FF,FD,00,00,FF,F1,00,
3246045,000000CE,false,Rx,0,8,00,00,00,00,00,00,00,00,
3246224,000000B6,false,Rx,0,5,45,06,80,00,08,00,00,00,
3246493,0000019E,false,Rx,0,8,00,EA,5F,FC,FE,63,00,49,
3246750,000001A0,false,Rx,0,8,00,80,00,A0,FF,0F,60,32,
3247020,000002B2,false,Rx,0,8,00,00,00,00,3F,00,00,04,
3247432,000000A8,false,Rx,0,8,86,E7,F8,00,00,0D,CF,20,
3247656,000000A9,false,Rx,0,8,52,07,8E,8F,0C,8E,EF,F8,
3247901,000000AA,false,Rx,0,8,80,E7,F8,00,00,00,F4,00,
3255782,000000C4,false,Rx,0,7,54,FF,FD,00,00,FF,F1,00,
3257410,000000A8,false,Rx,0,8,87,E8,F8,00,00,0D,CF,20,
3257634,000000A9,false,Rx,0,8,53,08,8E,8F,0C,8E,EF,F8,
3257879,000000AA,false,Rx,0,8,81,E8,F8,00,00,00,F4,00,
3265785,000000C4,false,Rx,0,7,54,FF,FD,00,00,FF,F1,00,
3266028,000000CE,false,Rx,0,8,00,00,00,00,00,00,00,00,
3266220,000000B6,false,Rx,0,5,46,07,80,00,08,00,00,00,
3266531,0000019E,false,Rx,0,8,00,EA,5F,FC,FE,63,00,49,
3266788,000001A0,false,Rx,0,8,00,80,00,A0,FF,12,70,45,
3267047,000001A6,false,Rx,0,8,00,00,00,00,00,00,D0,F2,
3267315,000002B2,false,Rx,0,8,00,00,00,00,4F,00,00,04,
3267550,000000A8,false,Rx,0,8,88,E9,F8,00,00,0D,CF,20,
3267775,000000A9,false,Rx,0,8,54,09,8E,8F,0C,8E,EF,F8,
3268022,000000AA,false,Rx,0,8,82,E9,F8,00,00,00,F4,00,
3268700,00000130,false,Rx,0,5,00,0E,D0,0F,21,00,00,00,
3275830,000000C4,false,Rx,0,7,54,FF,FD,00,00,FF,F1,00,
3277402,000000A8,false,Rx,0,8,89,EA,F8,00,00,0D,CF,20,
3277626,000000A9,false,Rx,0,8,55,0A,8E,8F,0C,8E,EF,F8,
3277881,000000AA,false,Rx,0,8,83,EA,F8,00,00,00,F4,00,
3285819,000000C4,false,Rx,0,7,54,FF,FD,00,00,FF,F1,00,
3286072,000000CE,false,Rx,0,8,00,00,00,00,00,00,00,00,
3286264,000000B6,false,Rx,0,5,47,08,80,00,08,00,00,00,
3286542,0000019E,false,Rx,0,8,00,EA,5F,FC,FE,63,00,49,
3286799,000001A0,false,Rx,0,8,00,80,00,90,FF,12,80,45,
3287059,000002B2,false,Rx,0,8,00,00,00,00,4F,00,00,04,
3287437,00000492,false,Rx,0,8,17,52,FF,FF,FF,FF,FF,FF,
3287672,000000A8,false,Rx,0,8,8A,EB,F8,00,00,0D,CF,20,
3287906,000000A9,false,Rx,0,8,56,0B,8E,8F,0C,8E,EF,F8,
3288141,000000AA,false,Rx,0,8,84,EB,F8,00,00,00,F4,00,
3295803,000000C4,false,Rx,0,7,54,FF,FD,00,00,FF,F1,00,
3297419,000000A8,false,Rx,0,8,8B,EC,F8,00,00,0D,CF,20,
3297643,000000A9,false,Rx,0,8,57,0C,8E,8F,0C,8E,EF,F8,
3297876,000000AA,false,Rx,0,8,85,EC,F8,00,00,00,F4,00,
3298112,000001D0,false,Rx,0,8,3B,08,04,C6,00,00,0D,AE,
3305864,000000C4,false,Rx,0,7,54,FF,FD,00,00,FF,F1,00,
3306117,000000CE,false,Rx,0,8,00,00,00,00,00,00,00,00,
3306298,000000B6,false,Rx,0,5,48,09,80,00,08,00,00,00,
3306465,00000194,false,Rx,0,4,F1,F4,00,FC,00,00,00,00,
3306699,0000019E,false,Rx,0,8,00,EA,5F,FC,FE,63,00,49,
3306958,000001A0,false,Rx,0,8,00,80,00,C0,FF,12,90,85,
3307226,000002B2,false,Rx,0,8,00,00,00,00,4F,00,00,04,
3307461,000000A8,false,Rx,0,8,8C,ED,F8,00,00,0D,CF,20,
3307686,000000A9,false,Rx,0,8,58,0D,8E,8F,0C,8E,EF,F8,
3307932,000000AA,false,Rx,0,8,86,ED,F8,00,00,00,F4,00,
3315812,000000C4,false,Rx,0,7,54,FF,FD,00,00,FF,F1,00,
3317407,000000A8,false,Rx,0,8,8D,EE,F8,00,00,0D,CF,20,
3317631,000000A9,false,Rx,0,8,59,0E,8E,8F,0C,8E,EF,F8,
3317875,000000AA,false,Rx,0,8,87,EE,F8,00,00,00,F4,00,
3325847,000000C4,false,Rx,0,7,54,FF,FD,00,00,FF,F1,00,
3326100,000000CE,false,Rx,0,8,00,00,00,00,00,00,00,00,
3326281,000000B6,false,Rx,0,5,49,0A,80,00,08,00,00,00,
3326559,0000019E,false,Rx,0,8,00,EA,5F,FC,FE,63,00,49,
3326816,000001A0,false,Rx,0,8,00,80,00,A0,FF,0F,A0,72,
3327087,000002B2,false,Rx,0,8,00,00,00,00,3F,00,00,04,
3327454,000000A8,false,Rx,0,8,7F,E0,F8,00,00,0D,CF,20,
3327680,000000A9,false,Rx,0,8,4B,00,8E,8F,0C,8E,EF,F8,
3327923,000000AA,false,Rx,0,8,79,E0,F8,00,00,00,F4,00,
3335827,000000C4,false,Rx,0,7,54,FF,FD,00,00,FF,F1,00,
3336025,000000C8,false,Rx,0,6,54,FF,51,00,00,7C,00,00,
3337412,000000A8,false,Rx,0,8,80,E1,F8,00,00,0D,CF,20,
3337637,000000A9,false,Rx,0,8,4C,01,8E,8F,0C,8E,EF,F8,
3337882,000000AA,false,Rx,0,8,7A,E1,F8,00,00,00,F4,00,
3345819,000000C4,false,Rx,0,7,54,FF,FD,00,00,FF,F1,00,
3346072,000000CE,false,Rx,0,8,00,00,00,00,00,00,00,00,
3346253,000000B6,false,Rx,0,5,4A,0B,80,00,08,00,00,00,
3346542,0000019E,false,Rx,0,8,00,EA,5F,FC,FE,63,00,49,
3346799,000001A0,false,Rx,0,8,00,80,00,A0,FF,12,B0,85,
3347069,000002B2,false,Rx,0,8,00,00,00,00,4F,00,00,04,
3347437,000000A8,false,Rx,0,8,81,E2,F8,00,00,0D,CF,20,
3347673,000000A9,false,Rx,0,8,4D,02,8E,8F,0C,8E,EF,F8,
3347905,000000AA,false,Rx,0,8,7B,E2,F8,00,00,00,F4,00,
3355822,000000C4,false,Rx,0,7,54,FF,FD,00,00,FF,F1,00,
3357405,000000A8,false,Rx,0,8,82,E3,F8,00,00,0D,CF,20,
3357630,000000A9,false,Rx,0,8,4E,03,8E,8F,0C,8E,EF,F8,
3357884,000000AA,false,Rx,0,8,7C,E3,F8,00,00,00,F4,00,
3365833,000000C4,false,Rx,0,7,54,FF,FD,00,00,FF,F1,00,
3366077,000000CE,false,Rx,0,8,00,00,00,00,00,00,00,00,
3366267,000000B6,false,Rx,0,5,4B,0C,80,00,08,00,00,00,
3366579,0000019E,false,Rx,0,8,00,EA,5F,FC,FE,63,00,49,
3366837,000001A0,false,Rx,0,8,00,80,00,90,FF,0F,C0,82,
3367095,000001A6,false,Rx,0,8,00,00,00,00,00,00,60,F4,
3367363,000002B2,false,Rx,0,8,00,00,00,00,3F,00,00,04,
3367599,000000A8,false,Rx,0,8,83,E4,F8,00,00,0D,CF,20,
3367834,000000A9,false,Rx,0,8,4F,04,8E,8F,0C,8E,EF,F8,
3368069,000000AA,false,Rx,0,8,7D,E4,F8,00,00,00,F4,00,
3368692,00000130,false,Rx,0,5,00,0E,D0,0F,32,00,00,00,
3370166,00000497,false,Rx,0,8,29,52,FF,FF,FF,FF,FF,FF,
3375883,000000C4,false,Rx,0,7,54,FF,FD,00,00,FF,F1,00,
3377422,000000A8,false,Rx,0,8,84,E5,F8,00,00,0D,CF,20,
3377647,000000A9,false,Rx,0,8,50,05,8E,8F,0C,8E,EF,F8,
3377882,000000AA,false,Rx,0,8,7E,E5,F8,00,00,00,F4,00,
3385850,000000C4,false,Rx,0,7,54,FF,FD,00,00,FF,F1,00,
3386104,000000CE,false,Rx,0,8,00,00,00,00,00,00,00,00,
3386284,000000B6,false,Rx,0,5,4C,0D,80,00,08,00,00,00,
3386562,0000019E,false,Rx,0,8,00,EA,5F,FC,FE,63,00,49,
3386820,000001A0,false,Rx,0,8,00,80,00,A0,FF,0F,D0,A2,
3387089,000002B2,false,Rx,0,8,00,00,00,00,3F,00,00,04,
3387423,000000A8,false,Rx,0,8,85,E6,F8,00,00,0D,CF,20,
3387648,000000A9,false,Rx,0,8,51,06,8E,8F,0C,8E,EF,F8,
3387914,000000AA,false,Rx,0,8,7F,E6,F8,00,00,00,F4,00,
3395828,000000C4,false,Rx,0,7,54,FF,FD,00,00,FF,F1,00,
3397444,000000A8,false,Rx,0,8,86,E7,F8,00,00,0D,CF,20,
3397670,000000A9,false,Rx,0,8,52,07,8E,8F,0C,8E,EF,F8,
3397914,000000AA,false,Rx,0,8,80,E7,F8,00,00,00,F4,00,
3398149,000001D0,false,Rx,0,8,3B,08,04,C6,00,00,0D,AE,
3405879,000000C4,false,Rx,0,7,54,FF,FD,00,00,FF,F1,00,
3406134,000000CE,false,Rx,0,8,00,00,00,00,00,00,00,00,
3406313,000000B6,false,Rx,0,5,4D,0E,80,00,08,00,00,00,
3406592,0000019E,false,Rx,0,8,00,EA,5F,FC,FE,63,00,49,
3406850,000001A0,false,Rx,0,8,00,80,00,90,FF,12,E0,A5,
3407119,000002B2,false,Rx,0,8,00,00,00,00,4F,00,00,04,
3407409,000000A8,false,Rx,0,8,87,E8,F8,00,00,0D,CF,20,
3407634,000000A9,false,Rx,0,8,53,08,8E,8F,0C,8E,EF,F8,
3407880,000000AA,false,Rx,0,8,81,E8,F8,00,00,00,F4,00,
3412793,000001FB,false,Rx,0,2,F2,FF,00,00,00,00,00,00,
3415815,000000C4,false,Rx,0,7,54,FF,FD,00,00,FF,F1,00,
3417442,000000A8,false,Rx,0,8,88,E9,F8,00,00,0D,CF,20,
3417667,000000A9,false,Rx,0,8,54,09,8E,8F,0C,8E,EF,F8,
3417913,000000AA,false,Rx,0,8,82,E9,F8,00,00,00,F4,00,
3425840,000000C4,false,Rx,0,7,54,FF,FD,00,00,FF,F1,00,
3426094,000000CE,false,Rx,0,8,00,00,00,00,00,00,00,00,
3426285,000000B6,false,Rx,0,5,3F,00,80,00,08,00,00,00,
3426563,0000019E,false,Rx,0,8,00,EA,5F,FC,FE,63,00,49,
3426821,000001A0,false,Rx,0,8,00,80,00,A0,FF,12,00,D4,
3427079,000002B2,false,Rx,0,8,00,00,00,00,4F,00,00,04,
3427436,000000A8,false,Rx,0,8,89,EA,F8,00,00,0D,CF,20,
3427661,000000A9,false,Rx,0,8,55,0A,8E,8F,0C,8E,EF,F8,
3427905,000000AA,false,Rx,0,8,83,EA,F8,00,00,00,F4,00,
3435808,000000C4,false,Rx,0,7,54,FF,FD,00,00,FF,F1,00,
3437445,000000A8,false,Rx,0,8,8A,EB,F8,00,00,0D,CF,20,
3437671,000000A9,false,Rx,0,8,56,0B,8E,8F,0C,8E,EF,F8,
3437904,000000AA,false,Rx,0,8,84,EB,F8,00,00,00,F4,00,
3445795,000000C4,false,Rx,0,7,54,FF,FD,00,00,FF,F1,00,
3446039,000000CE,false,Rx,0,8,00,00,00,00,00,00,00,00,
3446229,000000B6,false,Rx,0,5,40,01,80,00,08,00,00,00,
3446496,0000019E,false,Rx,0,8,00,EA,5F,FC,FE,63,00,49,
3446743,000001A0,false,Rx,0,8,00,80,00,A0,FF,12,10,E4,
3447012,000002B2,false,Rx,0,8,00,00,00,00,4F,00,00,04,
3447446,000000A8,false,Rx,0,8,8B,EC,F8,00,00,0D,CF,20,
3447671,000000A9,false,Rx,0,8,57,0C,8E,8F,0C,8E,EF,F8,
3447915,000000AA,false,Rx,0,8,85,EC,F8,00,00,00,F4,00,
3455786,000000C4,false,Rx,0,7,54,FF,FD,00,00,FF,F1,00,
3457435,000000A8,false,Rx,0,8,8C,ED,F8,00,00,0D,CF,20,
3457660,000000A9,false,Rx,0,8,58,0D,8E,8F,0C,8E,EF,F8,
3457892,000000AA,false,Rx,0,8,86,ED,F8,00,00,00,F4,00,
3465797,000000C4,false,Rx,0,7,54,FF,FD,00,00,FF,F1,00,
3466051,000000CE,false,Rx,0,8,00,00,00,00,00,00,00,00,
3466231,000000B6,false,Rx,0,5,41,02,80,00,08,00,00,00,
3466553,0000019E,false,Rx,0,8,00,EA,6F,FC,FE,63,00,59,
3466822,000001A0,false,Rx,0,8,00,80,00,C0,FF,12,20,15,
3467080,000001A6,false,Rx,0,8,00,00,00,00,00,00,F0,F5,
3467338,000002B2,false,Rx,0,8,00,00,00,00,4F,00,00,04,
3467574,000000A8,false,Rx,0,8,8D,EE,F8,00,00,0D,CF,20,
3467798,000000A9,false,Rx,0,8,59,0E,8E,8F,0C,8E,EF,F8,
3468044,000000AA,false,Rx,0,8,87,EE,F8,00,00,00,F4,00,
3468291,000004A9,false,Rx,0,8,30,52,FF,FF,FF,FF,FF,FF,
3469423,00000130,false,Rx,0,5,00,0E,D0,0F,43,00,00,00,
3475836,000000C4,false,Rx,0,7,54,FF,FD,00,00,FF,F1,00,
3477454,000000A8,false,Rx,0,8,7F,E0,F8,00,00,0D,CF,20,
3477678,000000A9,false,Rx,0,8,4B,00,8E,8F,0C,8E,EF,F8,
3477922,000000AA,false,Rx,0,8,79,E0,F8,00,00,00,F4,00,
3478733,000001B5,false,Rx,0,7,00,FF,00,00,C8,FF,FF,00,
3482129,000002F6,false,Rx,0,2,54,F5,00,00,00,00,00,00,
3485823,000000C4,false,Rx,0,7,54,FF,FD,00,00,FF,F1,00,
3486077,000000CE,false,Rx,0,8,00,00,00,00,00,00,00,00,
3486257,000000B6,false,Rx,0,5,42,03,80,00,08,00,00,00,
3486535,0000019E,false,Rx,0,8,00,EA,6F,FC,FE,63,00,59,
3486793,000001A0,false,Rx,0,8,00,80,00,90,FF,0F,30,F1,
3487051,000002B2,false,Rx,0,8,00,00,00,00,3F,00,00,04,
3487431,000000A8,false,Rx,0,8,80,E1,F8,00,00,0D,CF,20,
3487666,000000A9,false,Rx,0,8,4C,01,8E,8F,0C,8E,EF,F8,
3487910,000000AA,false,Rx,0,8,7A,E1,F8,00,00,00,F4,00,
3495791,000000C4,false,Rx,0,7,54,FF,FD,00,00,FF,F1,00,
3497430,000000A8,false,Rx,0,8,81,E2,F8,00,00,0D,CF,20,
3497654,000000A9,false,Rx,0,8,4D,02,8E,8F,0C,8E,EF,F8,
3497898,000000AA,false,Rx,0,8,7B,E2,F8,00,00,00,F4,00,
3498134,000001D0,false,Rx,0,8,3B,08,05,C6,00,00,0D,AE,
3505956,000000C4,false,Rx,0,7,54,FF,FD,00,00,FF,F1,00,
3506208,000000CE,false,Rx,0,8,00,00,00,00,00,00,00,00,
3506398,000000B6,false,Rx,0,5,43,04,80,00,08,00,00,00,
3506566,00000194,false,Rx,0,4,F2,F5,00,FC,00,00,00,00,
3506801,0000019E,false,Rx,0,8,00,EA,6F,FC,FE,63,00,59,
3506927,000001D6,false,Rx,0,2,C0,0C,00,00,00,00,00,00,
3507171,000001A0,false,Rx,0,8,00,80,00,A0,FF,12,40,15,
3507307,000002A6,false,Rx,0,2,00,F8,00,00,00,00,00,00,
3507541,000000A8,false,Rx,0,8,82,E3,F8,00,00,0D,CF,20,
3507765,000000A9,false,Rx,0,8,4E,03,8E,8F,0C,8E,EF,F8,
3508022,000000AA,false,Rx,0,8,7C,E3,F8,00,00,00,F4,00,
3508259,000002B2,false,Rx,0,8,00,00,00,00,4F,00,00,04,
3515831,000000C4,false,Rx,0,7,54,FF,FD,00,00,FF,F1,00,
3517425,000000A8,false,Rx,0,8,83,E4,F8,00,00,0D,CF,20,
3517649,000000A9,false,Rx,0,8,4F,04,8E,8F,0C,8E,EF,F8,
3517892,000000AA,false,Rx,0,8,7D,E4,F8,00,00,00,F4,00,
3525854,000000C4,false,Rx,0,7,54,FF,FD,00,00,FF,F1,00,
3526107,000000CE,false,Rx,0,8,00,00,00,00,00,00,00,00,
3526286,000000B6,false,Rx,0,5,44,05,80,00,08,00,00,00,
3526566,0000019E,false,Rx,0,8,00,EA,6F,FC,FE,63,00,59,
3526823,000001A0,false,Rx,0,8,00,80,00,90,FF,0F,50,12,
3527081,000002B2,false,Rx,0,8,00,00,00,00,3F,00,00,04,
3527428,000000A8,false,Rx,0,8,84,E5,F8,00,00,0D,CF,20,
3527651,000000A9,false,Rx,0,8,50,05,8E,8F,0C,8E,EF,F8,
3527917,000000AA,false,Rx,0,8,7E,E5,F8,00,00,00,F4,00,
3535821,000000C4,false,Rx,0,7,54,FF,FD,00,00,FF,F1,00,
3536030,000000C8,false,Rx,0,6,54,FF,A1,00,00,7C,00,00,
3537417,000000A8,false,Rx,0,8,85,E6,F8,00,00,0D,CF,20,
3537641,000000A9,false,Rx,0,8,51,06,8E,8F,0C,8E,EF,F8,
3537887,000000AA,false,Rx,0,8,7F,E6,F8,00,00,00,F4,00,
3545793,000000C4,false,Rx,0,7,54,FF,FD,00,00,FF,F1,00,
3546045,000000CE,false,Rx,0,8,00,00,00,00,00,00,00,00,
3546225,000000B6,false,Rx,0,5,45,06,80,00,08,00,00,00,
3546492,0000019E,false,Rx,0,8,00,EA,6F,FC,FE,63,00,59,
3546750,000001A0,false,Rx,0,8,00,80,00,90,FF,12,60,25,
3547009,000002B2,false,Rx,0,8,00,00,00,00,4F,00,00,04,
3547421,000000A8,false,Rx,0,8,86,E7,F8,00,00,0D,CF,20,
3547656,000000A9,false,Rx,0,8,52,07,8E,8F,0C,8E,EF,F8,
3547888,000000AA,false,Rx,0,8,80,E7,F8,00,00,00,F4,00,
3555795,000000C4,false,Rx,0,7,54,FF,FD,00,00,FF,F1,00,
3557410,000000A8,false,Rx,0,8,87,E8,F8,00,00,0D,CF,20,
3557634,000000A9,false,Rx,0,8,53,08,8E,8F,0C,8E,EF,F8,
3557877,000000AA,false,Rx,0,8,81,E8,F8,00,00,00,F4,00,
3561969,000004B0,false,Rx,0,8,00,52,FE,01,FF,FF,FF,FF,
3565835,000000C4,false,Rx,0,7,54,FF,FD,00,00,FF,F1,00,
3566088,000000CE,false,Rx,0,8,00,00,00,00,00,00,00,00,
3566312,000000B6,false,Rx,0,5,46,07,80,00,08,00,00,00,
3566569,0000019E,false,Rx,0,8,00,EA,6F,FC,FE,63,00,59,
3566826,000001A0,false,Rx,0,8,00,80,00,90,FF,12,70,35,
3567084,000001A6,false,Rx,0,8,00,00,00,00,00,00,80,F7,
3567343,000002B2,false,Rx,0,8,00,00,00,00,4F,00,00,04,
3567588,000000A8,false,Rx,0,8,88,E9,F8,00,00,0D,CF,20,
3567812,000000A9,false,Rx,0,8,54,09,8E,8F,0C,8E,EF,F8,
3568060,000000AA,false,Rx,0,8,82,E9,F8,00,00,00,F4,00,
3568250,00000374,false,Rx,0,5,00,00,FF,FF,FC,00,00,00,
3568749,00000130,false,Rx,0,5,00,0E,D0,0F,54,00,00,00,
3575838,000000C4,false,Rx,0,7,54,FF,FD,00,00,FF,F1,00,
3577399,000000A8,false,Rx,0,8,89,EA,F8,00,00,0D,CF,20,
3577633,000000A9,false,Rx,0,8,55,0A,8E,8F,0C,8E,EF,F8,
3577888,000000AA,false,Rx,0,8,83,EA,F8,00,00,00,F4,00,
3585815,000000C4,false,Rx,0,7,54,FF,FD,00,00,FF,F1,00,
3586068,000000CE,false,Rx,0,8,00,00,00,00,00,00,00,00,
3586259,000000B6,false,Rx,0,5,47,08,80,00,08,00,00,00,
3586538,0000019E,false,Rx,0,8,00,EA,6F,FC,FE,63,00,59,
3586795,000001A0,false,Rx,0,8,00,80,00,90,FF,0F,80,42,
3587053,000002B2,false,Rx,0,8,00,00,00,00,3F,00,00,04,
3587433,000000A8,false,Rx,0,8,8A,EB,F8,00,00,0D,CF,20,
3587657,000000A9,false,Rx,0,8,56,0B,8E,8F,0C,8E,EF,F8,
3587889,000000AA,false,Rx,0,8,84,EB,F8,00,00,00,F4,00,
3595797,000000C4,false,Rx,0,7,54,FF,FD,00,00,FF,F1,00,
3597413,000000A8,false,Rx,0,8,8B,EC,F8,00,00,0D,CF,20,
3597637,000000A9,false,Rx,0,8,57,0C,8E,8F,0C,8E,EF,F8,
3597880,000000AA,false,Rx,0,8,85,EC,F8,00,00,00,F4,00,
3598118,000001D0,false,Rx,0,8,3B,08,05,C6,00,00,0D,AE,
3602817,000001FB,false,Rx,0,2,F3,FF,00,00,00,00,00,00,
3605873,000000C4,false,Rx,0,7,54,FF,FD,00,00,FF,F1,00,
3606127,000000CE,false,Rx,0,8,00,00,00,00,00,00,00,00,
3606307,000000B6,false,Rx,0,5,48,09,80,00,08,00,00,00,
3606587,0000019E,false,Rx,0,8,00,EA,6F,FC,FE,63,00,59,
3606855,000001A0,false,Rx,0,8,00,80,00,A0,FF,12,90,65,
3607112,000002B2,false,Rx,0,8,00,00,00,00,4F,00,00,04,
3607426,000000A8,false,Rx,0,8,8C,ED,F8,00,00,0D,CF,20,
3607650,000000A9,false,Rx,0,8,58,0D,8E,8F,0C,8E,EF,F8,
3607885,000000AA,false,Rx,0,8,86,ED,F8,00,00,00,F4,00,
3615864,000000C4,false,Rx,0,7,54,FF,FD,00,00,FF,F1,00,
3617402,000000A8,false,Rx,0,8,8D,EE,F8,00,00,0D,CF,20,
3617626,000000A9,false,Rx,0,8,59,0E,8E,8F,0C,8E,EF,F8,
3617872,000000AA,false,Rx,0,8,87,EE,F8,00,00,00,F4,00,
3625886,000000C4,false,Rx,0,7,54,FF,FD,00,00,FF,F1,00,
3626139,000000CE,false,Rx,0,8,00,00,00,00,00,00,00,00,
3626318,000000B6,false,Rx,0,5,49,0A,80,00,08,00,00,00,
3626609,0000019E,false,Rx,0,8,00,EA,6F,FC,FE,63,00,59,
3626866,000001A0,false,Rx,0,8,00,80,00,90,FF,12,A0,65,
3627124,000002B2,false,Rx,0,8,00,00,00,00,4F,00,00,04,
3627437,000000A8,false,Rx,0,8,7F,E0,F8,00,00,0D,CF,20,
3627661,000000A9,false,Rx,0,8,4B,00,8E,8F,0C,8E,EF,F8,
3627908,000000AA,false,Rx,0,8,79,E0,F8,00,00,00,F4,00,
3635852,000000C4,false,Rx,0,7,54,FF,FD,00,00,FF,F1,00,
3637402,000000A8,false,Rx,0,8,80,E1,F8,00,00,0D,CF,20,
3637637,000000A9,false,Rx,0,8,4C,01,8E,8F,0C,8E,EF,F8,
3637871,000000AA,false,Rx,0,8,7A,E1,F8,00,00,00,F4,00,
3643785,00000480,false,Rx,0,8,12,42,01,01,FF,FF,FF,FF,
3645868,000000C4,false,Rx,0,7,54,FF,FD,00,00,FF,F1,00,
3646121,000000CE,false,Rx,0,8,00,00,00,00,00,00,00,00,
3646300,000000B6,false,Rx,0,5,4A,0B,80,00,08,00,00,00,
3646580,0000019E,false,Rx,0,8,00,EA,6F,FC,FE,63,00,59,
3646837,000001A0,false,Rx,0,8,00,80,00,90,FF,0F,B0,72,
3647106,000002B2,false,Rx,0,8,00,00,00,00,3F,00,00,04,
3647441,000000A8,false,Rx,0,8,81,E2,F8,00,00,0D,CF,20,
3647676,000000A9,false,Rx,0,8,4D,02,8E,8F,0C,8E,EF,F8,
3647932,000000AA,false,Rx,0,8,7B,E2,F8,00,00,00,F4,00,
3655837,000000C4,false,Rx,0,7,54,FF,FD,00,00,FF,F1,00,
3657409,000000A8,false,Rx,0,8,82,E3,F8,00,00,0D,CF,20,
3657632,000000A9,false,Rx,0,8,4E,03,8E,8F,0C,8E,EF,F8,
3657887,000000AA,false,Rx,0,8,7C,E3,F8,00,00,00,F4,00,
3665837,000000C4,false,Rx,0,7,54,FF,FD,00,00,FF,F1,00,
3666090,000000CE,false,Rx,0,8,00,00,00,00,00,00,00,00,
3666270,000000B6,false,Rx,0,5,4B,0C,80,00,08,00,00,00,
3666582,0000019E,false,Rx,0,8,00,EA,7F,FC,FE,63,00,69,
3666839,000001A0,false,Rx,0,8,00,80,00,A0,FF,0F,C0,92,
3667097,000001A6,false,Rx,0,8,00,00,00,00,00,00,10,F9,
3667367,000002B2,false,Rx,0,8,00,00,00,00,3F,00,00,04,
3667601,000000A8,false,Rx,0,8,83,E4,F8,00,00,0D,CF,20,
3667836,000000A9,false,Rx,0,8,4F,04,8E,8F,0C,8E,EF,F8,
3668072,000000AA,false,Rx,0,8,7D,E4,F8,00,00,00,F4,00,
3668728,00000130,false,Rx,0,5,00,0E,D0,0F,65,00,00,00,
3675870,000000C4,false,Rx,0,7,54,FF,FD,00,00,FF,F1,00,
3677408,000000A8,false,Rx,0,8,84,E5,F8,00,00,0D,CF,20,
3677632,000000A9,false,Rx,0,8,50,05,8E,8F,0C,8E,EF,F8,
3677868,000000AA,false,Rx,0,8,7E,E5,F8,00,00,00,F4,00,
3685825,000000C4,false,Rx,0,7,54,FF,FD,00,00,FF,F1,00,
3686078,000000CE,false,Rx,0,8,00,00,00,00,00,00,00,00,
3686269,000000B6,false,Rx,0,5,4C,0D,80,00,08,00,00,00,
3686538,0000019E,false,Rx,0,8,00,EA,7F,FC,FE,63,00,69,
3686795,000001A0,false,Rx,0,8,00,80,00,A0,FF,12,D0,A5,
3687064,000002B2,false,Rx,0,8,00,00,00,00,4F,00,00,04,
3687443,000000A8,false,Rx,0,8,85,E6,F8,00,00,0D,CF,20,
3687667,000000A9,false,Rx,0,8,51,06,8E,8F,0C,8E,EF,F8,
3687912,000000AA,false,Rx,0,8,7F,E6,F8,00,00,00,F4,00,
3695804,000000C4,false,Rx,0,7,54,FF,FD,00,00,FF,F1,00,
3697443,000000A8,false,Rx,0,8,86,E7,F8,00,00,0D,CF,20,
3697678,000000A9,false,Rx,0,8,52,07,8E,8F,0C,8E,EF,F8,
3697914,000000AA,false,Rx,0,8,80,E7,F8,00,00,00,F4,00,
3698148,000001B6,false,Rx,0,7,FF,00,00,00,00,AC,00,00,
3698383,000001D0,false,Rx,0,8,3B,08,06,C6,00,00,0D,AE,
3698529,000002F3,false,Rx,0,3,02,FC,F4,00,00,00,00,00,
3703261,00000310,false,Rx,0,7,6D,A6,00,00,00,42,20,00,
3705904,000000C4,false,Rx,0,7,54,FF,FD,00,00,FF,F1,00,
3706145,000000CE,false,Rx,0,8,00,00,00,00,00,00,00,00,
3706337,000000B6,false,Rx,0,5,4D,0E,80,00,08,00,00,00,
3706505,00000194,false,Rx,0,4,F3,F6,00,FC,00,00,00,00,
3706739,0000019E,false,Rx,0,8,00,EA,7F,FC,FE,63,00,69,
3706997,000001A0,false,Rx,0,8,00,80,00,C0,FF,12,E0,D5,
3707255,000002B2,false,Rx,0,8,00,00,00,00,4F,00,00,04,
3707501,000000A8,false,Rx,0,8,87,E8,F8,00,00,0D,CF,20,
