Time Stamp,ID,Extended,Dir,Bus,LEN,D1,D2,D3,D4,D5,D6,D7,D8
1764426,000000C4,false,Rx,0,7,51,FF,FD,00,00,FF,F1,00,
1766197,000000A8,false,Rx,0,8,A3,01,FA,00,00,0D,CF,22,
1766432,000000A9,false,Rx,0,8,12,01,A0,EF,11,BB,0F,FA,
1766677,000000AA,false,Rx,0,8,A1,F1,10,00,00,00,F4,00,
1774426,000000C4,false,Rx,0,7,51,FF,FD,00,00,FF,F1,00,
1774678,000000CE,false,Rx,0,8,00,00,00,00,00,00,00,00,
1774869,000000B6,false,Rx,0,5,43,04,80,00,08,00,00,00,
1775128,0000019E,false,Rx,0,8,00,EA,2F,FC,FE,63,00,19,
1775384,000001A0,false,Rx,0,8,00,80,00,C0,FF,12,40,35,
1775652,000002B2,false,Rx,0,8,00,00,00,00,40,00,00,04,
1776144,000000A8,false,Rx,0,8,A4,02,FA,00,00,0D,CF,22,
1776379,000000A9,false,Rx,0,8,13,02,A0,EF,11,BB,0F,FA,
1776623,000000AA,false,Rx,0,8,A2,F2,10,00,00,00,F4,00,
1776758,000001FB,false,Rx,0,2,F7,FF,00,00,00,00,00,00,
1784430,000000C4,false,Rx,0,7,51,FF,FD,00,00,FF,F1,00,
1786134,000000A8,false,Rx,0,8,A5,03,FA,00,00,0D,CF,22,
1786358,000000A9,false,Rx,0,8,14,03,A0,EF,11,BB,0F,FA,
1786602,000000AA,false,Rx,0,8,A3,F3,10,00,00,00,F4,00,
1792947,00000130,false,Rx,0,5,00,0D,D0,0F,01,00,00,00,
1794552,000000C4,false,Rx,0,7,51,FF,FD,00,00,FF,F1,00,
1794808,000000CE,false,Rx,0,8,00,00,00,00,00,00,00,00,
1794989,000000B6,false,Rx,0,5,44,05,80,00,08,00,00,00,
1795268,0000019E,false,Rx,0,8,00,EA,2F,FC,FE,63,00,19,
1795525,000001A0,false,Rx,0,8,00,80,00,A0,FF,0F,50,22,
1795793,000002B2,false,Rx,0,8,00,00,00,00,30,00,00,04,
1796163,000000A8,false,Rx,0,8,A6,04,FA,00,00,0D,CF,22,
1796386,000000A9,false,Rx,0,8,15,04,A0,EF,11,BB,0F,FA,
1796634,000000AA,false,Rx,0,8,A4,F4,10,00,00,00,F4,00,
1796880,000004B0,false,Rx,0,8,00,52,FE,01,FF,FF,FF,FF,
1804507,000000C4,false,Rx,0,7,4F,FF,FD,EE,FF,FF,F1,00,
1806178,000000A8,false,Rx,0,8,A7,05,FA,00,00,0D,CF,22,
1806402,000000A9,false,Rx,0,8,16,05,A0,EF,11,BB,0F,FA,
1806646,000000AA,false,Rx,0,8,A5,F5,10,00,00,00,F4,00,
1814497,000000C4,false,Rx,0,7,51,FF,FD,EE,FF,FF,F1,00,
1814749,000000CE,false,Rx,0,8,00,00,00,00,00,00,00,00,
1814940,000000B6,false,Rx,0,5,45,06,80,00,08,00,00,00,
1815220,0000019E,false,Rx,0,8,00,EA,2F,FC,FE,63,00,19,
1815477,000001A0,false,Rx,0,8,00,80,00,C0,FF,12,60,55,
1815745,000002B2,false,Rx,0,8,00,00,00,00,40,00,00,04,
1816159,000000A8,false,Rx,0,8,A8,06,FA,00,00,0D,CF,22,
1816383,000000A9,false,Rx,0,8,17,06,A0,EF,11,BB,0F,FA,
1816627,000000AA,false,Rx,0,8,A6,F6,10,00,00,00,F4,00,
1816851,000001B6,false,Rx,0,7,FF,00,00,00,00,AC,24,00,
1817075,000001D0,false,Rx,0,8,40,3C,0B,C6,FC,60,8D,AA,
1817233,000002F3,false,Rx,0,3,00,FC,F2,00,00,00,00,00,
1824467,000000C4,false,Rx,0,7,51,FF,FD,00,00,FF,F1,00,
1826149,000000A8,false,Rx,0,8,A9,07,FA,00,00,0D,CF,22,
1826384,000000A9,false,Rx,0,8,18,07,A0,EF,11,BB,0F,FA,
1826618,000000AA,false,Rx,0,8,A7,F7,10,00,00,00,F4,00,
1834445,000000C4,false,Rx,0,7,51,FF,FD,00,00,FF,F1,00,
1834697,000000CE,false,Rx,0,8,00,00,00,00,00,00,00,00,
1834888,000000B6,false,Rx,0,5,46,07,80,00,08,00,00,00,
1835191,0000019E,false,Rx,0,8,00,EA,2F,FC,FE,63,00,19,
1835448,000001A0,false,Rx,0,8,00,80,00,C0,FF,0F,70,62,
1835716,000001A6,false,Rx,0,8,00,00,00,00,00,00,70,F7,
1835974,000002B2,false,Rx,0,8,00,00,00,00,30,00,00,04,
1836210,000000A8,false,Rx,0,8,AA,08,FA,00,00,0D,CF,22,
1836445,000000A9,false,Rx,0,8,19,08,A0,EF,11,BB,0F,FA,
1836691,000000AA,false,Rx,0,8,A8,F8,10,00,00,00,F4,00,
1844441,000000C4,false,Rx,0,7,51,FF,FD,00,00,FF,F1,00,
1846167,000000A8,false,Rx,0,8,AB,09,FA,00,00,0D,CF,22,
1846402,000000A9,false,Rx,0,8,1A,09,A0,EF,11,BB,0F,FA,
1846635,000000AA,false,Rx,0,8,A9,F9,10,00,00,00,F4,00,
1854430,000000C4,false,Rx,0,7,51,FF,FD,00,00,FF,F1,00,
1854682,000000CE,false,Rx,0,8,00,00,00,00,00,00,00,00,
1854872,000000B6,false,Rx,0,5,47,08,80,00,08,00,00,00,
1855131,0000019E,false,Rx,0,8,00,EA,2F,FC,FE,63,00,19,
1855388,000001A0,false,Rx,0,8,00,80,00,C0,FF,0F,80,72,
1855656,000002B2,false,Rx,0,8,00,00,00,00,30,00,00,04,
1856158,000000A8,false,Rx,0,8,AC,0A,FA,00,00,0D,CF,22,
1856382,000000A9,false,Rx,0,8,1B,0A,A0,EF,11,BB,0F,FA,
1856626,000000AA,false,Rx,0,8,AA,FA,10,00,00,00,F4,00,
1864431,000000C4,false,Rx,0,7,4F,FF,FD,D3,FF,FF,F1,00,
1866158,000000A8,false,Rx,0,8,AD,0B,FA,00,00,0D,CF,22,
1866382,000000A9,false,Rx,0,8,1C,0B,A0,EF,11,BB,0F,FA,
1866626,000000AA,false,Rx,0,8,AB,FB,10,00,00,00,F4,00,
1874431,000000C4,false,Rx,0,7,51,FF,FD,D3,FF,FF,F1,00,
1874683,000000CE,false,Rx,0,8,00,00,00,00,00,00,00,00,
1874863,000000B6,false,Rx,0,5,48,09,80,00,08,00,00,00,
1875144,0000019E,false,Rx,0,8,00,EA,2F,FC,FE,63,00,19,
1875401,000001A0,false,Rx,0,8,00,80,00,C0,FF,0F,90,82,
1875669,000002B2,false,Rx,0,8,00,00,00,00,30,00,00,04,
1876160,000000A8,false,Rx,0,8,AE,0C,FA,00,00,0D,CF,22,
1876395,000000A9,false,Rx,0,8,1D,0C,A0,EF,11,BB,0F,FA,
1876639,000000AA,false,Rx,0,8,AC,FC,10,00,00,00,F4,00,
1884444,000000C4,false,Rx,0,7,51,FF,FD,00,00,FF,F1,00,
1885783,00000480,false,Rx,0,8,12,42,FD,01,FF,FF,FF,FF,
1886174,000000A8,false,Rx,0,8,AF,0D,FA,00,00,0D,CF,22,
1886397,000000A9,false,Rx,0,8,1E,0D,A0,EF,11,BB,0F,FA,
1886644,000000AA,false,Rx,0,8,AD,FD,10,00,00,00,F4,00,
1892991,00000130,false,Rx,0,5,00,0D,D0,0F,22,00,00,00,
1894616,000000C4,false,Rx,0,7,51,FF,FD,00,00,FF,F1,00,
1894861,000000CE,false,Rx,0,8,00,00,00,00,00,00,00,00,
1895052,000000B6,false,Rx,0,5,49,0A,80,00,08,00,00,00,
1895220,00000194,false,Rx,0,4,FA,FD,00,FC,00,00,00,00,
1895454,0000019E,false,Rx,0,8,00,EA,2F,FC,FE,63,00,19,
1895712,000001A0,false,Rx,0,8,00,80,00,C0,FF,12,A0,95,
1895980,000002B2,false,Rx,0,8,00,00,00,00,40,00,00,04,
1896216,000000A8,false,Rx,0,8,B0,0E,FA,00,00,0D,CF,22,
1896441,000000A9,false,Rx,0,8,1F,0E,A0,EF,11,BB,0F,FA,
1896687,000000AA,false,Rx,0,8,AE,FE,10,00,00,00,F4,00,
1904447,000001B5,false,Rx,0,7,00,FF,00,00,C8,FF,FF,00,
1904677,000000C4,false,Rx,0,7,4F,FF,FD,B5,FF,FF,F1,00,
1906144,000000A8,false,Rx,0,8,A2,00,FA,00,00,0D,CF,22,
1906368,000000A9,false,Rx,0,8,11,00,A0,EF,11,BB,0F,FA,
1906615,000000AA,false,Rx,0,8,A0,F0,10,00,00,00,F4,00,
1914533,000000C4,false,Rx,0,7,51,FF,FD,B5,FF,FF,F1,00,
1914784,000000CE,false,Rx,0,8,00,00,00,00,00,00,00,00,
1914976,000000B6,false,Rx,0,5,4A,0B,80,00,08,00,00,00,
1915256,0000019E,false,Rx,0,8,00,EA,2F,FC,FE,63,00,19,
1915512,000001A0,false,Rx,0,8,00,80,00,A0,FF,12,B0,85,
1915771,000002B2,false,Rx,0,8,00,00,00,00,40,00,00,04,
1916150,000000A8,false,Rx,0,8,A3,01,FA,00,00,0D,CF,22,
1916374,000000A9,false,Rx,0,8,12,01,A0,EF,11,BB,0F,FA,
1916618,000000AA,false,Rx,0,8,A1,F1,10,00,00,00,F4,00,
1916853,000001D0,false,Rx,0,8,40,3C,0B,C6,FC,60,8D,AA,
1924494,000000C4,false,Rx,0,7,51,FF,FD,00,00,FF,F1,00,
1924701,000000C8,false,Rx,0,6,51,FF,31,00,00,BC,00,00,
1926156,000000A8,false,Rx,0,8,A4,02,FA,00,00,0D,CF,22,
1926392,000000A9,false,Rx,0,8,13,02,A0,EF,11,BB,0F,FA,
1926627,000000AA,false,Rx,0,8,A2,F2,10,00,00,00,F4,00,
1934466,000000C4,false,Rx,0,7,51,FF,FD,00,00,FF,F1,00,
1934718,000000CE,false,Rx,0,8,00,00,00,00,00,00,00,00,
1934899,000000B6,false,Rx,0,5,4B,0C,80,00,08,00,00,00,
1935211,0000019E,false,Rx,0,8,00,EA,3F,FC,FE,63,00,29,
1935468,000001A0,false,Rx,0,8,00,80,00,C0,FF,0F,C0,B2,
1935737,000001A6,false,Rx,0,8,00,00,00,00,00,00,00,F9,
1936006,000002B2,false,Rx,0,8,00,00,00,00,30,00,00,04,
1936241,000000A8,false,Rx,0,8,A5,03,FA,00,00,0D,CF,22,
1936477,000000A9,false,Rx,0,8,14,03,A0,EF,11,BB,0F,FA,
1936711,000000AA,false,Rx,0,8,A3,F3,10,00,00,00,F4,00,
1944473,000000C4,false,Rx,0,7,4F,FF,FD,B5,FF,FF,F1,00,
1946133,000000A8,false,Rx,0,8,A6,04,FA,00,00,0D,CF,22,
1946369,000000A9,false,Rx,0,8,15,04,A0,EF,11,BB,0F,FA,
1946612,000000AA,false,Rx,0,8,A4,F4,10,00,00,00,F4,00,
1954462,000000C4,false,Rx,0,7,4F,FF,FD,B5,FF,FF,F1,00,
1954713,000000CE,false,Rx,0,8,00,00,00,00,00,00,00,00,
1954906,000000B6,false,Rx,0,5,4C,0D,80,00,08,00,00,00,
1955174,0000019E,false,Rx,0,8,00,EA,3F,FC,FE,63,00,29,
1955442,000001A0,false,Rx,0,8,00,80,00,C0,FF,12,D0,C5,
1955700,000002B2,false,Rx,0,8,00,00,00,00,40,00,00,04,
1956147,000000A8,false,Rx,0,8,A7,05,FA,00,00,0D,CF,22,
1956372,000000A9,false,Rx,0,8,16,05,A0,EF,11,BB,0F,FA,
1956615,000000AA,false,Rx,0,8,A5,F5,10,00,00,00,F4,00,
1964432,000000C4,false,Rx,0,7,51,FF,FD,71,00,FF,F1,00,
1966158,000000A8,false,Rx,0,8,A8,06,FA,00,00,0D,CF,22,
1966384,000000A9,false,Rx,0,8,17,06,A0,EF,11,BB,0F,FA,
1966627,000000AA,false,Rx,0,8,A6,F6,10,00,00,00,F4,00,
1967262,000001FB,false,Rx,0,2,F8,FF,00,00,00,00,00,00,
1974424,000000C4,false,Rx,0,7,51,FF,FD,71,00,FF,F1,00,
1974675,000000CE,false,Rx,0,8,00,00,00,00,00,00,00,00,
1974856,000000B6,false,Rx,0,5,4D,0E,80,00,08,00,00,00,
1975124,0000019E,false,Rx,0,8,00,EA,3F,FC,FE,63,00,29,
1975392,000001A0,false,Rx,0,8,00,80,00,A0,FF,12,E0,B5,
1975651,000002B2,false,Rx,0,8,00,00,00,00,40,00,00,04,
1976130,000000A8,false,Rx,0,8,A9,07,FA,00,00,0D,CF,22,
1976366,000000A9,false,Rx,0,8,18,07,A0,EF,11,BB,0F,FA,
1976597,000000AA,false,Rx,0,8,A7,F7,10,00,00,00,F4,00,
1984425,000000C4,false,Rx,0,7,51,FF,FD,00,00,FF,F1,00,
1986141,00000492,false,Rx,0,8,17,52,FF,FF,FF,FF,FF,FF,
1986377,000000A8,false,Rx,0,8,AA,08,FA,00,00,0D,CF,22,
1986610,000000A9,false,Rx,0,8,19,08,A0,EF,11,BB,0F,FA,
1986845,000000AA,false,Rx,0,8,A8,F8,10,00,00,00,F4,00,
1992905,00000130,false,Rx,0,5,00,0D,D0,0F,33,00,00,00,
1994565,000000C4,false,Rx,0,7,51,FF,FD,00,00,FF,F1,00,
1994812,000000CE,false,Rx,0,8,00,00,00,00,00,00,00,00,
1995001,000000B6,false,Rx,0,5,3F,00,80,00,08,00,00,00,
1995279,0000019E,false,Rx,0,8,00,EA,3F,FC,FE,63,00,29,
1995526,000001A0,false,Rx,0,8,00,80,00,A0,FF,0F,00,D1,
1995794,000002B2,false,Rx,0,8,00,00,00,00,30,00,00,04,
1996141,000000A8,false,Rx,0,8,AB,09,FA,00,00,0D,CF,22,
1996366,000000A9,false,Rx,0,8,1A,09,A0,EF,11,BB,0F,FA,
1996612,000000AA,false,Rx,0,8,A9,F9,10,00,00,00,F4,00,
2004494,000000C4,false,Rx,0,7,51,FF,FD,00,00,FF,F1,00,
2006154,000000A8,false,Rx,0,8,AC,0A,FA,00,00,0D,CF,22,
2006380,000000A9,false,Rx,0,8,1B,0A,A0,EF,11,BB,0F,FA,
2006623,000000AA,false,Rx,0,8,AA,FA,10,00,00,00,F4,00,
2014507,000000C4,false,Rx,0,7,51,FF,FD,00,00,FF,F1,00,
2014760,000000CE,false,Rx,0,8,00,00,00,00,00,00,00,00,
2014940,000000B6,false,Rx,0,5,40,01,80,00,08,00,00,00,
2015219,0000019E,false,Rx,0,8,00,EA,3F,FC,FE,63,00,29,
2015478,000001A0,false,Rx,0,8,00,80,00,C0,FF,12,10,05,
2015734,000002B2,false,Rx,0,8,00,00,00,00,40,00,00,04,
2016158,000000A8,false,Rx,0,8,AD,0B,FA,00,00,0D,CF,22,
2016383,000000A9,false,Rx,0,8,1C,0B,A0,EF,11,BB,0F,FA,
2016626,000000AA,false,Rx,0,8,AB,FB,10,00,00,00,F4,00,
2016850,000001D0,false,Rx,0,8,40,3C,0C,C6,FC,60,8D,AA,
2024470,000000C4,false,Rx,0,7,51,FF,FD,00,00,FF,F1,00,
2026141,000000A8,false,Rx,0,8,AE,0C,FA,00,00,0D,CF,22,
2026377,000000A9,false,Rx,0,8,1D,0C,A0,EF,11,BB,0F,FA,
2026610,000000AA,false,Rx,0,8,AC,FC,10,00,00,00,F4,00,
2034447,000000C4,false,Rx,0,7,51,FF,FD,00,00,FF,F1,00,
2034700,000000CE,false,Rx,0,8,00,00,00,00,00,00,00,00,
2034880,000000B6,false,Rx,0,5,41,02,80,00,08,00,00,00,
2035193,0000019E,false,Rx,0,8,00,EA,3F,FC,FE,63,00,29,
2035451,000001A0,false,Rx,0,8,00,80,00,C0,FF,0F,20,12,
2035708,000001A6,false,Rx,0,8,00,00,00,00,00,00,90,FA,
2035976,000002B2,false,Rx,0,8,00,00,00,00,30,00,00,04,
2036213,000000A8,false,Rx,0,8,AF,0D,FA,00,00,0D,CF,22,
2036436,000000A9,false,Rx,0,8,1E,0D,A0,EF,11,BB,0F,FA,
2036681,000000AA,false,Rx,0,8,AD,FD,10,00,00,00,F4,00,
2044443,000000C4,false,Rx,0,7,51,FF,FD,00,00,FF,F1,00,
2046192,000000A8,false,Rx,0,8,B0,0E,FA,00,00,0D,CF,22,
2046427,000000A9,false,Rx,0,8,1F,0E,A0,EF,11,BB,0F,FA,
2046671,000000AA,false,Rx,0,8,AE,FE,10,00,00,00,F4,00,
2054445,000000C4,false,Rx,0,7,4F,FF,FD,00,00,FF,F1,00,
2054698,000000CE,false,Rx,0,8,00,00,00,00,00,00,00,00,
2054878,000000B6,false,Rx,0,5,42,03,80,00,08,00,00,00,
2055136,0000019E,false,Rx,0,8,00,EA,3F,FC,FE,63,00,29,
2055406,000001A0,false,Rx,0,8,00,80,00,A0,FF,12,30,05,
2055663,000002B2,false,Rx,0,8,00,00,00,00,40,00,00,04,
2056130,000000A8,false,Rx,0,8,A2,00,FA,00,00,0D,CF,22,
2056367,000000A9,false,Rx,0,8,11,00,A0,EF,11,BB,0F,FA,
2056609,000000AA,false,Rx,0,8,A0,F0,10,00,00,00,F4,00,
2064436,000000C4,false,Rx,0,7,51,FF,FD,E4,00,FF,F1,00,
2066153,000000A8,false,Rx,0,8,A3,01,FA,00,00,0D,CF,22,
2066388,000000A9,false,Rx,0,8,12,01,A0,EF,11,BB,0F,FA,
2066631,000000AA,false,Rx,0,8,A1,F1,10,00,00,00,F4,00,
2074447,000000C4,false,Rx,0,7,51,FF,FD,E4,00,FF,F1,00,
2074701,000000CE,false,Rx,0,8,00,00,00,00,00,00,00,00,
2074880,000000B6,false,Rx,0,5,43,04,80,00,08,00,00,00,
2075149,0000019E,false,Rx,0,8,00,EA,3F,FC,FE,63,00,29,
2075407,000001A0,false,Rx,0,8,00,80,00,C0,FF,0F,40,32,
2075675,000002B2,false,Rx,0,8,00,00,00,00,30,00,00,04,
2076144,000000A8,false,Rx,0,8,A4,02,FA,00,00,0D,CF,22,
2076368,000000A9,false,Rx,0,8,13,02,A0,EF,11,BB,0F,FA,
2076610,000000AA,false,Rx,0,8,A2,F2,10,00,00,00,F4,00,
2078454,00000497,false,Rx,0,8,29,52,FF,FF,FF,FF,FF,FF,
2084454,000000C4,false,Rx,0,7,51,FF,FD,00,00,FF,F1,00,
2086149,000000A8,false,Rx,0,8,A5,03,FA,00,00,0D,CF,22,
2086384,000000A9,false,Rx,0,8,14,03,A0,EF,11,BB,0F,FA,
2086616,000000AA,false,Rx,0,8,A3,F3,10,00,00,00,F4,00,
2092983,00000130,false,Rx,0,5,00,0D,D0,0F,44,00,00,00,
2094567,000000C4,false,Rx,0,7,51,FF,FD,00,00,FF,F1,00,
2094813,000000CE,false,Rx,0,8,00,00,00,00,00,00,00,00,
2095004,000000B6,false,Rx,0,5,44,05,80,00,08,00,00,00,
2095171,00000194,false,Rx,0,4,FB,FE,00,FC,00,00,00,00,
2095406,0000019E,false,Rx,0,8,00,EA,3F,FC,FE,63,00,29,
2095663,000001A0,false,Rx,0,8,00,80,00,C0,FF,12,50,45,
2095931,000002B2,false,Rx,0,8,00,00,00,00,40,00,00,04,
2096169,000000A8,false,Rx,0,8,A6,04,FA,00,00,0D,CF,22,
2096392,000000A9,false,Rx,0,8,15,04,A0,EF,11,BB,0F,FA,
2096638,000000AA,false,Rx,0,8,A4,F4,10,00,00,00,F4,00,
2104488,000000C4,false,Rx,0,7,51,FF,FD,00,00,FF,F1,00,
2106128,000000A8,false,Rx,0,8,A7,05,FA,00,00,0D,CF,22,
2106351,000000A9,false,Rx,0,8,16,05,A0,EF,11,BB,0F,FA,
2106595,000000AA,false,Rx,0,8,A5,F5,10,00,00,00,F4,00,
2114512,000000C4,false,Rx,0,7,51,FF,FD,00,00,FF,F1,00,
2114765,000000CE,false,Rx,0,8,00,00,00,00,00,00,00,00,
2114956,000000B6,false,Rx,0,5,45,06,80,00,08,00,00,00,
2115224,0000019E,false,Rx,0,8,00,EA,3F,FC,FE,63,00,29,
2115493,000001A0,false,Rx,0,8,00,80,00,A0,FF,0F,60,32,
2115750,000002B2,false,Rx,0,8,00,00,00,00,30,00,00,04,
2116142,000000A8,false,Rx,0,8,A8,06,FA,00,00,0D,CF,22,
2116377,000000A9,false,Rx,0,8,17,06,A0,EF,11,BB,0F,FA,
2116609,000000AA,false,Rx,0,8,A6,F6,10,00,00,00,F4,00,
2116845,000001D0,false,Rx,0,8,40,3C,0C,C6,FC,60,8D,AA,
2124473,000000C4,false,Rx,0,7,4F,FF,FD,DC,FF,FF,F1,00,
2124671,000000C8,false,Rx,0,6,4F,FF,81,DC,FF,BC,00,00,
2126148,000000A8,false,Rx,0,8,A9,07,FA,00,00,0D,CF,22,
2126372,000000A9,false,Rx,0,8,18,07,A0,EF,11,BB,0F,FA,
2126617,000000AA,false,Rx,0,8,A7,F7,10,00,00,00,F4,00,
2134433,000000C4,false,Rx,0,7,51,FF,FD,DC,FF,FF,F1,00,
2134686,000000CE,false,Rx,0,8,00,00,00,00,00,00,00,00,
2134866,000000B6,false,Rx,0,5,46,07,80,00,08,00,00,00,
2135179,0000019E,false,Rx,0,8,00,EA,4F,FC,FE,63,00,39,
2135437,000001A0,false,Rx,0,8,00,80,00,C0,FF,12,70,65,
2135705,000001A6,false,Rx,0,8,00,00,00,00,00,00,20,FC,
2135973,000002B2,false,Rx,0,8,00,00,00,00,40,00,00,04,
2136199,000000A8,false,Rx,0,8,AA,08,FA,00,00,0D,CF,22,
2136434,000000A9,false,Rx,0,8,19,08,A0,EF,11,BB,0F,FA,
2136679,000000AA,false,Rx,0,8,A8,F8,10,00,00,00,F4,00,
2144439,000000C4,false,Rx,0,7,51,FF,FD,00,00,FF,F1,00,
2146145,000000A8,false,Rx,0,8,AB,09,FA,00,00,0D,CF,22,
2146369,000000A9,false,Rx,0,8,1A,09,A0,EF,11,BB,0F,FA,
2146612,000000AA,false,Rx,0,8,A9,F9,10,00,00,00,F4,00,
2154464,000000C4,false,Rx,0,7,4F,FF,FD,00,00,FF,F1,00,
2154705,000000CE,false,Rx,0,8,00,00,00,00,00,00,00,00,
2154895,000000B6,false,Rx,0,5,47,08,80,00,08,00,00,00,
2155152,0000019E,false,Rx,0,8,00,EA,4F,FC,FE,63,00,39,
2155411,000001A0,false,Rx,0,8,00,80,00,C0,FF,12,80,75,
2155679,000002B2,false,Rx,0,8,00,00,00,00,40,00,00,04,
2156137,000000A8,false,Rx,0,8,AC,0A,FA,00,00,0D,CF,22,
2156372,000000A9,false,Rx,0,8,1B,0A,A0,EF,11,BB,0F,FA,
2156603,000000AA,false,Rx,0,8,AA,FA,10,00,00,00,F4,00,
2157294,000001FB,false,Rx,0,2,F9,FF,00,00,00,00,00,00,
2164479,000000C4,false,Rx,0,7,51,FF,FD,E4,00,FF,F1,00,
2166141,000000A8,false,Rx,0,8,AD,0B,FA,00,00,0D,CF,22,
2166376,000000A9,false,Rx,0,8,1C,0B,A0,EF,11,BB,0F,FA,
2166619,000000AA,false,Rx,0,8,AB,FB,10,00,00,00,F4,00,
2174480,000000C4,false,Rx,0,7,51,FF,FD,E4,00,FF,F1,00,
2174732,000000CE,false,Rx,0,8,00,00,00,00,00,00,00,00,
2174923,000000B6,false,Rx,0,5,48,09,80,00,08,00,00,00,
2175215,0000019E,false,Rx,0,8,00,EA,4F,FC,FE,63,00,39,
2175472,000001A0,false,Rx,0,8,00,80,00,A0,FF,12,90,65,
2175740,000002B2,false,Rx,0,8,00,00,00,00,40,00,00,04,
2175999,000004A9,false,Rx,0,8,30,52,FF,FF,FF,FF,FF,FF,
2176234,000000A8,false,Rx,0,8,AE,0C,FA,00,00,0D,CF,22,
2176468,000000A9,false,Rx,0,8,1D,0C,A0,EF,11,BB,0F,FA,
2176702,000000AA,false,Rx,0,8,AC,FC,10,00,00,00,F4,00,
2184476,000000C4,false,Rx,0,7,51,FF,FD,00,00,FF,F1,00,
2186147,000000A8,false,Rx,0,8,AF,0D,FA,00,00,0D,CF,22,
2186371,000000A9,false,Rx,0,8,1E,0D,A0,EF,11,BB,0F,FA,
2186615,000000AA,false,Rx,0,8,AD,FD,10,00,00,00,F4,00,
2192916,00000130,false,Rx,0,5,00,0D,D0,0F,55,00,00,00,
2194598,000000C4,false,Rx,0,7,51,FF,FD,00,00,FF,F1,00,
2194844,000000CE,false,Rx,0,8,00,00,00,00,00,00,00,00,
2195033,000000B6,false,Rx,0,5,49,0A,80,00,08,00,00,00,
2195301,0000019E,false,Rx,0,8,00,EA,4F,FC,FE,63,00,39,
2195569,000001A0,false,Rx,0,8,00,80,00,A0,FF,0F,A0,72,
2195826,000002B2,false,Rx,0,8,00,00,00,00,30,00,00,04,
2196141,000000A8,false,Rx,0,8,B0,0E,FA,00,00,0D,CF,22,
2196376,000000A9,false,Rx,0,8,1F,0E,A0,EF,11,BB,0F,FA,
2196622,000000AA,false,Rx,0,8,AE,FE,10,00,00,00,F4,00,
2204529,000000C4,false,Rx,0,7,51,FF,FD,00,00,FF,F1,00,
2206156,000000A8,false,Rx,0,8,A2,00,FA,00,00,0D,CF,22,
2206391,000000A9,false,Rx,0,8,11,00,A0,EF,11,BB,0F,FA,
2206634,000000AA,false,Rx,0,8,A0,F0,10,00,00,00,F4,00,
2214540,000000C4,false,Rx,0,7,51,FF,FD,00,00,FF,F1,00,
2214792,000000CE,false,Rx,0,8,00,00,00,00,00,00,00,00,
2214983,000000B6,false,Rx,0,5,4A,0B,80,00,08,00,00,00,
2215252,0000019E,false,Rx,0,8,00,EA,4F,FC,FE,63,00,39,
2215509,000001A0,false,Rx,0,8,00,80,00,C0,FF,12,B0,A5,
2215777,000002B2,false,Rx,0,8,00,00,00,00,40,00,00,04,
2216136,000000A8,false,Rx,0,8,A3,01,FA,00,00,0D,CF,22,
2216371,000000A9,false,Rx,0,8,12,01,A0,EF,11,BB,0F,FA,
2216614,000000AA,false,Rx,0,8,A1,F1,10,00,00,00,F4,00,
2216850,000001D0,false,Rx,0,8,40,3C,0D,C6,FC,60,8D,AA,
2224491,000000C4,false,Rx,0,7,4F,FF,FD,DC,FF,FF,F1,00,
2226141,000000A8,false,Rx,0,8,A4,02,FA,00,00,0D,CF,22,
2226365,000000A9,false,Rx,0,8,13,02,A0,EF,11,BB,0F,FA,
2226608,000000AA,false,Rx,0,8,A2,F2,10,00,00,00,F4,00,
2234447,000000C4,false,Rx,0,7,51,FF,FD,DC,FF,FF,F1,00,
2234699,000000CE,false,Rx,0,8,00,00,00,00,00,00,00,00,
2234878,000000B6,false,Rx,0,5,4B,0C,80,00,08,00,00,00,
2235192,0000019E,false,Rx,0,8,00,EA,4F,FC,FE,63,00,39,
2235449,000001A0,false,Rx,0,8,00,80,00,C0,FF,0F,C0,B2,
2235717,000001A6,false,Rx,0,8,00,00,00,00,00,00,B0,FD,
2235987,000002B2,false,Rx,0,8,00,00,00,00,30,00,00,04,
2236222,000000A8,false,Rx,0,8,A5,03,FA,00,00,0D,CF,22,
2236446,000000A9,false,Rx,0,8,14,03,A0,EF,11,BB,0F,FA,
2236692,000000AA,false,Rx,0,8,A3,F3,10,00,00,00,F4,00,
2244454,000000C4,false,Rx,0,7,51,FF,FD,00,00,FF,F1,00,
2246159,000000A8,false,Rx,0,8,A6,04,FA,00,00,0D,CF,22,
2246382,000000A9,false,Rx,0,8,15,04,A0,EF,11,BB,0F,FA,
2246627,000000AA,false,Rx,0,8,A4,F4,10,00,00,00,F4,00,
2254454,000000C4,false,Rx,0,7,4F,FF,FD,00,00,FF,F1,00,
2254706,000000CE,false,Rx,0,8,00,00,00,00,00,00,00,00,
2254885,000000B6,false,Rx,0,5,4C,0D,80,00,08,00,00,00,
2255155,0000019E,false,Rx,0,8,00,EA,4F,FC,FE,63,00,39,
2255412,000001A0,false,Rx,0,8,00,80,00,D0,FF,12,D0,D5,
2255669,000002B2,false,Rx,0,8,00,00,00,00,40,00,00,04,
2256138,000000A8,false,Rx,0,8,A7,05,FA,00,00,0D,CF,22,
2256362,000000A9,false,Rx,0,8,16,05,A0,EF,11,BB,0F,FA,
2256606,000000AA,false,Rx,0,8,A5,F5,10,00,00,00,F4,00,
2264445,000000C4,false,Rx,0,7,4F,FF,FD,00,00,FF,F1,00,
2266138,000000A8,false,Rx,0,8,A8,06,FA,00,00,0D,CF,22,
2266373,000000A9,false,Rx,0,8,17,06,A0,EF,11,BB,0F,FA,
2266606,000000AA,false,Rx,0,8,A6,F6,10,00,00,00,F4,00,
2266852,000004B0,false,Rx,0,8,00,52,FE,01,FF,FF,FF,FF,
2274462,000000C4,false,Rx,0,7,51,FF,FD,00,00,FF,F1,00,
2274714,000000CE,false,Rx,0,8,00,00,00,00,00,00,00,00,
2274905,000000B6,false,Rx,0,5,4D,0E,80,00,08,00,00,00,
2275165,0000019E,false,Rx,0,8,00,EA,4F,FC,FE,63,00,39,
2275421,000001A0,false,Rx,0,8,00,80,00,C0,FF,0F,E0,D2,
2275689,000002B2,false,Rx,0,8,00,00,00,00,30,00,00,04,
2276103,000000A8,false,Rx,0,8,A9,07,FA,00,00,0D,CF,22,
2276338,000000A9,false,Rx,0,8,18,07,A0,EF,11,BB,0F,FA,
2276582,000000AA,false,Rx,0,8,A7,F7,10,00,00,00,F4,00,
2284443,000000C4,false,Rx,0,7,51,FF,FD,00,00,FF,F1,00,
2286159,000000A8,false,Rx,0,8,AA,08,FA,00,00,0D,CF,22,
2286383,000000A9,false,Rx,0,8,19,08,A0,EF,11,BB,0F,FA,
2286627,000000AA,false,Rx,0,8,A8,F8,10,00,00,00,F4,00,
2293006,00000130,false,Rx,0,5,00,0D,D0,0F,66,00,00,00,
2294665,000000C4,false,Rx,0,7,51,FF,FD,00,00,FF,F1,00,
2294911,000000CE,false,Rx,0,8,00,00,00,00,00,00,00,00,
2295101,000000B6,false,Rx,0,5,3F,00,80,00,08,00,00,00,
2295269,00000194,false,Rx,0,4,ED,F0,00,FC,00,00,00,00,
2295503,0000019E,false,Rx,0,8,00,EA,4F,FC,FE,63,00,39,
2295638,000001D6,false,Rx,0,2,C0,0C,00,00,00,00,00,00,
2295873,000001A0,false,Rx,0,8,00,80,00,C0,FF,12,00,F4,
2296009,000002A6,false,Rx,0,2,00,F8,00,00,00,00,00,00,
2296242,000000A8,false,Rx,0,8,AB,09,FA,00,00,0D,CF,22,
2296466,000000A9,false,Rx,0,8,1A,09,A0,EF,11,BB,0F,FA,
2296713,000000AA,false,Rx,0,8,A9,F9,10,00,00,00,F4,00,
2296959,000002B2,false,Rx,0,8,00,00,00,00,40,00,00,04,
2304513,000000C4,false,Rx,0,7,51,FF,FD,00,00,FF,F1,00,
2306141,000000A8,false,Rx,0,8,AC,0A,FA,00,00,0D,CF,22,
2306364,000000A9,false,Rx,0,8,1B,0A,A0,EF,11,BB,0F,FA,
2306609,000000AA,false,Rx,0,8,AA,FA,10,00,00,00,F4,00,
2314524,000000C4,false,Rx,0,7,4F,FF,FD,00,00,FF,F1,00,
2314776,000000CE,false,Rx,0,8,00,00,00,00,00,00,00,00,
2314967,000000B6,false,Rx,0,5,40,01,80,00,08,00,00,00,
2315259,0000019E,false,Rx,0,8,00,EA,4F,FC,FE,63,00,39,
2315515,000001A0,false,Rx,0,8,00,80,00,C0,FF,0F,10,01,
2315774,000002B2,false,Rx,0,8,00,00,00,00,30,00,00,04,
2316165,000000A8,false,Rx,0,8,AD,0B,FA,00,00,0D,CF,22,
2316388,000000A9,false,Rx,0,8,1C,0B,A0,EF,11,BB,0F,FA,
2316632,000000AA,false,Rx,0,8,AB,FB,10,00,00,00,F4,00,
2316856,000001D0,false,Rx,0,8,40,3C,0D,C6,FC,60,8D,AA,
2324476,000000C4,false,Rx,0,7,4F,FF,FD,00,00,FF,F1,00,
2324684,000000C8,false,Rx,0,6,4F,FF,D1,00,00,BC,00,00,
2326161,000000A8,false,Rx,0,8,AE,0C,FA,00,00,0D,CF,22,
2326385,000000A9,false,Rx,0,8,1D,0C,A0,EF,11,BB,0F,FA,
2326631,000000AA,false,Rx,0,8,AC,FC,10,00,00,00,F4,00,
2334435,000000C4,false,Rx,0,7,4F,FF,FD,00,00,FF,F1,00,
2334698,000000CE,false,Rx,0,8,00,00,00,00,00,00,00,00,
2334911,000000B6,false,Rx,0,5,41,02,80,00,08,00,00,00,
2335236,0000019E,false,Rx,0,8,00,EA,4F,FC,FE,63,00,39,
2335493,000001A0,false,Rx,0,8,00,80,00,C0,FF,12,20,15,
2335762,000001A6,false,Rx,0,8,00,00,00,00,00,00,40,FF,
2336020,000002B2,false,Rx,0,8,00,00,00,00,40,00,00,04,
2336255,000000A8,false,Rx,0,8,AF,0D,FA,00,00,0D,CF,22,
2336499,000000A9,false,Rx,0,8,1E,0D,A0,EF,11,BB,0F,FA,
2336723,000000AA,false,Rx,0,8,AD,FD,10,00,00,00,F4,00,
2336913,00000374,false,Rx,0,5,00,00,FF,FF,FC,00,00,00,
2344435,000000C4,false,Rx,0,7,51,FF,FD,4B,00,FF,F1,00,
2346172,000000A8,false,Rx,0,8,B0,0E,FA,00,00,0D,CF,22,
2346407,000000A9,false,Rx,0,8,1F,0E,A0,EF,11,BB,0F,FA,
2346641,000000AA,false,Rx,0,8,AE,FE,10,00,00,00,F4,00,
2347243,000001FB,false,Rx,0,2,FA,FF,00,00,00,00,00,00,
2354449,000000C4,false,Rx,0,7,51,FF,FD,4B,00,FF,F1,00,
2354701,000000CE,false,Rx,0,8,00,00,00,00,00,00,00,00,
2354880,000000B6,false,Rx,0,5,42,03,80,00,08,00,00,00,
2355150,0000019E,false,Rx,0,8,00,EA,5F,FC,FE,63,00,49,
2355407,000001A0,false,Rx,0,8,00,80,00,C0,FF,12,30,25,
2355676,000002B2,false,Rx,0,8,00,00,00,00,40,00,00,04,
2356166,000000A8,false,Rx,0,8,A2,00,FA,00,00,0D,CF,22,
2356401,000000A9,false,Rx,0,8,11,00,A0,EF,11,BB,0F,FA,
2356645,000000AA,false,Rx,0,8,A0,F0,10,00,00,00,F4,00,
2364450,000000C4,false,Rx,0,7,51,FF,FD,00,00,FF,F1,00,
2365822,00000480,false,Rx,0,8,12,42,FD,01,FF,FF,FF,FF,
2366180,000000A8,false,Rx,0,8,A3,01,FA,00,00,0D,CF,22,
2366414,000000A9,false,Rx,0,8,12,01,A0,EF,11,BB,0F,FA,
2366650,000000AA,false,Rx,0,8,A1,F1,10,00,00,00,F4,00,
2374457,000000C4,false,Rx,0,7,51,FF,FD,00,00,FF,F1,00,
2374709,000000CE,false,Rx,0,8,00,00,00,00,00,00,00,00,
2374901,000000B6,false,Rx,0,5,43,04,80,00,08,00,00,00,
2375158,0000019E,false,Rx,0,8,00,EA,5F,FC,FE,63,00,49,
2375415,000001A0,false,Rx,0,8,00,80,00,A0,FF,12,40,15,
2375673,000002B2,false,Rx,0,8,00,00,00,00,40,00,00,04,
2376163,000000A8,false,Rx,0,8,A4,02,FA,00,00,0D,CF,22,
2376387,000000A9,false,Rx,0,8,13,02,A0,EF,11,BB,0F,FA,
2376631,000000AA,false,Rx,0,8,A2,F2,10,00,00,00,F4,00,
2384447,000000C4,false,Rx,0,7,4F,FF,FD,C8,FF,FF,F1,00,
2386129,000000A8,false,Rx,0,8,A5,03,FA,00,00,0D,CF,22,
2386364,000000A9,false,Rx,0,8,14,03,A0,EF,11,BB,0F,FA,
2386609,000000AA,false,Rx,0,8,A3,F3,10,00,00,00,F4,00,
2392920,00000130,false,Rx,0,5,00,0D,D0,0F,77,00,00,00,
2394558,000000C4,false,Rx,0,7,51,FF,FD,C8,FF,FF,F1,00,
2394815,000000CE,false,Rx,0,8,00,00,00,00,00,00,00,00,
2394994,000000B6,false,Rx,0,5,44,05,80,00,08,00,00,00,
2395272,0000019E,false,Rx,0,8,00,EA,5F,FC,FE,63,00,49,
2395529,000001A0,false,Rx,0,8,00,80,00,A0,FF,0F,50,22,
2395799,000002B2,false,Rx,0,8,00,00,00,00,30,00,00,04,
2396189,000000A8,false,Rx,0,8,A6,04,FA,00,00,0D,CF,22,
2396414,000000A9,false,Rx,0,8,15,04,A0,EF,11,BB,0F,FA,
2396660,000000AA,false,Rx,0,8,A4,F4,10,00,00,00,F4,00,
2404497,000000C4,false,Rx,0,7,4F,FF,FD,1C,FF,FF,F1,00,
2406158,000000A8,false,Rx,0,8,A7,05,FA,00,00,0D,CF,22,
2406383,000000A9,false,Rx,0,8,16,05,A0,EF,11,BB,0F,FA,
2406626,000000AA,false,Rx,0,8,A5,F5,10,00,00,00,F4,00,
2414510,000000C4,false,Rx,0,7,51,FF,FD,1C,FF,FF,F1,00,
2414762,000000CE,false,Rx,0,8,00,00,00,00,00,00,00,00,
2414954,000000B6,false,Rx,0,5,45,06,80,00,08,00,00,00,
2415222,0000019E,false,Rx,0,8,00,EA,5F,FC,FE,63,00,49,
2415480,000001A0,false,Rx,0,8,00,80,00,A0,FF,12,60,35,
2415749,000002B2,false,Rx,0,8,00,00,00,00,40,00,00,04,
2416139,000000A8,false,Rx,0,8,A8,06,FA,00,00,0D,CF,22,
2416365,000000A9,false,Rx,0,8,17,06,A0,EF,11,BB,0F,FA,
2416607,000000AA,false,Rx,0,8,A6,F6,10,00,00,00,F4,00,
2416842,000001D0,false,Rx,0,8,40,3C,0E,C6,FC,60,8D,AA,
2424483,000000C4,false,Rx,0,7,51,FF,FD,00,00,FF,F1,00,
2426144,000000A8,false,Rx,0,8,A9,07,FA,00,00,0D,CF,22,
2426369,000000A9,false,Rx,0,8,18,07,A0,EF,11,BB,0F,FA,
2426601,000000AA,false,Rx,0,8,A7,F7,10,00,00,00,F4,00,
2434484,000000C4,false,Rx,0,7,51,FF,FD,00,00,FF,F1,00,
2434736,000000CE,false,Rx,0,8,00,00,00,00,00,00,00,00,
2434917,000000B6,false,Rx,0,5,46,07,80,00,08,00,00,00,
2435229,0000019E,false,Rx,0,8,00,EA,5F,FC,FE,63,00,49,
2435486,000001A0,false,Rx,0,8,00,80,00,C0,FF,12,70,65,
2435745,000001A6,false,Rx,0,8,00,00,00,00,00,00,D0,F0,
2436013,000002B2,false,Rx,0,8,00,00,00,00,40,00,00,04,
2436248,000000A8,false,Rx,0,8,AA,08,FA,00,00,0D,CF,22,
2436474,000000A9,false,Rx,0,8,19,08,A0,EF,11,BB,0F,FA,
2436718,000000AA,false,Rx,0,8,A8,F8,10,00,00,00,F4,00,
2444480,000000C4,false,Rx,0,7,51,FF,FD,00,00,FF,F1,00,
2446141,000000A8,false,Rx,0,8,AB,09,FA,00,00,0D,CF,22,
2446367,000000A9,false,Rx,0,8,1A,09,A0,EF,11,BB,0F,FA,
2446610,000000AA,false,Rx,0,8,A9,F9,10,00,00,00,F4,00,
2454470,000000C4,false,Rx,0,7,51,FF,FD,00,00,FF,F1,00,
2454722,000000CE,false,Rx,0,8,00,00,00,00,00,00,00,00,
2454914,000000B6,false,Rx,0,5,47,08,80,00,08,00,00,00,
2455182,0000019E,false,Rx,0,8,00,EA,5F,FC,FE,63,00,49,
2455439,000001A0,false,Rx,0,8,00,80,00,C0,FF,12,80,75,
2455708,000002B2,false,Rx,0,8,00,00,00,00,40,00,00,04,
2456110,000000A8,false,Rx,0,8,AC,0A,FA,00,00,0D,CF,22,
2456346,000000A9,false,Rx,0,8,1B,0A,A0,EF,11,BB,0F,FA,
2456577,000000AA,false,Rx,0,8,AA,FA,10,00,00,00,F4,00,
2464483,000000C4,false,Rx,0,7,51,FF,FD,00,00,FF,F1,00,
2466110,00000492,false,Rx,0,8,17,52,FF,FF,FF,FF,FF,FF,
2466346,000000A8,false,Rx,0,8,AD,0B,FA,00,00,0D,CF,22,
2466579,000000A9,false,Rx,0,8,1C,0B,A0,EF,11,BB,0F,FA,
2466814,000000AA,false,Rx,0,8,AB,FB,10,00,00,00,F4,00,
2474501,000000C4,false,Rx,0,7,51,FF,FD,00,00,FF,F1,00,
2474754,000000CE,false,Rx,0,8,00,00,00,00,00,00,00,00,
2474944,000000B6,false,Rx,0,5,48,09,80,00,08,00,00,00,
2475213,0000019E,false,Rx,0,8,00,EA,5F,FC,FE,63,00,49,
2475470,000001A0,false,Rx,0,8,00,80,00,D0,FF,0F,90,92,
2475728,000002B2,false,Rx,0,8,00,00,00,00,30,00,00,04,
2476141,000000A8,false,Rx,0,8,AE,0C,FA,00,00,0D,CF,22,
2476366,000000A9,false,Rx,0,8,1D,0C,A0,EF,11,BB,0F,FA,
2476609,000000AA,false,Rx,0,8,AC,FC,10,00,00,00,F4,00,
2484491,000000C4,false,Rx,0,7,4F,FF,FD,E1,FF,FF,F1,00,
2486151,000000A8,false,Rx,0,8,AF,0D,FA,00,00,0D,CF,22,
2486376,000000A9,false,Rx,0,8,1E,0D,A0,EF,11,BB,0F,FA,
2486619,000000AA,false,Rx,0,8,AD,FD,10,00,00,00,F4,00,
2493043,00000130,false,Rx,0,5,00,0D,D0,0F,88,00,00,00,
2494613,000000C4,false,Rx,0,7,51,FF,FD,E1,FF,FF,F1,00,
2494860,000000CE,false,Rx,0,8,00,00,00,00,00,00,00,00,
2495051,000000B6,false,Rx,0,5,49,0A,80,00,08,00,00,00,
2495207,00000194,false,Rx,0,4,EE,F1,00,FC,00,00,00,00,
2495453,0000019E,false,Rx,0,8,00,EA,5F,FC,FE,63,00,49,
2495710,000001A0,false,Rx,0,8,00,80,00,C0,FF,0F,A0,92,
2495967,000002B2,false,Rx,0,8,00,00,00,00,30,00,00,04,
2496203,000000A8,false,Rx,0,8,B0,0E,FA,00,00,0D,CF,22,
2496439,000000A9,false,Rx,0,8,1F,0E,A0,EF,11,BB,0F,FA,
2496685,000000AA,false,Rx,0,8,AE,FE,10,00,00,00,F4,00,
2504510,000000C4,false,Rx,0,7,51,FF,FD,00,00,FF,F1,00,
2506137,000000A8,false,Rx,0,8,A2,00,FA,00,00,0D,CF,22,
2506373,000000A9,false,Rx,0,8,11,00,A0,EF,11,BB,0F,FA,
2506617,000000AA,false,Rx,0,8,A0,F0,10,00,00,00,F4,00,
2514533,000000C4,false,Rx,0,7,51,FF,FD,00,00,FF,F1,00,
2514775,000000CE,false,Rx,0,8,00,00,00,00,00,00,00,00,
2514966,000000B6,false,Rx,0,5,4A,0B,80,00,08,00,00,00,
2515234,0000019E,false,Rx,0,8,00,EA,5F,FC,FE,63,00,49,
2515492,000001A0,false,Rx,0,8,00,80,00,C0,FF,12,B0,A5,
2515760,000002B2,false,Rx,0,8,00,00,00,00,40,00,00,04,
2516141,000000A8,false,Rx,0,8,A3,01,FA,00,00,0D,CF,22,
2516377,000000A9,false,Rx,0,8,12,01,A0,EF,11,BB,0F,FA,
2516620,000000AA,false,Rx,0,8,A1,F1,10,00,00,00,F4,00,
2516844,000001D0,false,Rx,0,8,40,3C,0E,C6,FC,60,8D,AA,
2524496,000000C4,false,Rx,0,7,51,FF,FD,00,00,FF,F1,00,
2524694,000000C8,false,Rx,0,6,51,FF,31,00,00,BC,00,00,
2526147,000000A8,false,Rx,0,8,A4,02,FA,00,00,0D,CF,22,
2526372,000000A9,false,Rx,0,8,13,02,A0,EF,11,BB,0F,FA,
2526617,000000AA,false,Rx,0,8,A2,F2,10,00,00,00,F4,00,
2534456,000000C4,false,Rx,0,7,51,FF,FD,00,00,FF,F1,00,
2534709,000000CE,false,Rx,0,8,00,00,00,00,00,00,00,00,
2534888,000000B6,false,Rx,0,5,4B,0C,80,00,08,00,00,00,
2535213,0000019E,false,Rx,0,8,00,EA,5F,FC,FE,63,00,49,
2535472,000001A0,false,Rx,0,8,00,80,00,C0,FF,0F,C0,B2,
2535740,000001A6,false,Rx,0,8,00,00,00,00,00,00,60,F2,
2535999,000002B2,false,Rx,0,8,00,00,00,00,30,00,00,04,
2536235,000000A8,false,Rx,0,8,A5,03,FA,00,00,0D,CF,22,
2536470,000000A9,false,Rx,0,8,14,03,A0,EF,11,BB,0F,FA,
2536704,000000AA,false,Rx,0,8,A3,F3,10,00,00,00,F4,00,
2536850,000001FB,false,Rx,0,2,FB,FF,00,00,00,00,00,00,
2544457,000000C4,false,Rx,0,7,51,FF,FD,00,00,FF,F1,00,
2546141,000000A8,false,Rx,0,8,A6,04,FA,00,00,0D,CF,22,
2546365,000000A9,false,Rx,0,8,15,04,A0,EF,11,BB,0F,FA,
2546608,000000AA,false,Rx,0,8,A4,F4,10,00,00,00,F4,00,
2554457,000000C4,false,Rx,0,7,4F,FF,FD,00,00,FF,F1,00,
2554711,000000CE,false,Rx,0,8,00,00,00,00,00,00,00,00,
2554901,000000B6,false,Rx,0,5,4C,0D,80,00,08,00,00,00,
2555159,0000019E,false,Rx,0,8,00,EA,6F,FC,FE,63,00,59,
2555417,000001A0,false,Rx,0,8,00,80,00,A0,FF,12,D0,A5,
2555674,000002B2,false,Rx,0,8,00,00,00,00,40,00,00,04,
2556143,000000A8,false,Rx,0,8,A7,05,FA,00,00,0D,CF,22,
2556378,000000A9,false,Rx,0,8,16,05,A0,EF,11,BB,0F,FA,
2556621,000000AA,false,Rx,0,8,A5,F5,10,00,00,00,F4,00,
2558487,00000497,false,Rx,0,8,29,52,FF,FF,FF,FF,FF,FF,
2564454,000000C4,false,Rx,0,7,51,FF,FD,E4,00,FF,F1,00,
2566149,000000A8,false,Rx,0,8,A8,06,FA,00,00,0D,CF,22,
2566384,000000A9,false,Rx,0,8,17,06,A0,EF,11,BB,0F,FA,
2566627,000000AA,false,Rx,0,8,A6,F6,10,00,00,00,F4,00,
2574443,000000C4,false,Rx,0,7,4F,FF,FD,E4,00,FF,F1,00,
2574696,000000CE,false,Rx,0,8,00,00,00,00,00,00,00,00,
2574875,000000B6,false,Rx,0,5,4D,0E,80,00,08,00,00,00,
2575100,00000310,false,Rx,0,7,6E,5D,05,00,00,42,20,00,
2575335,0000019E,false,Rx,0,8,00,EA,6F,FC,FE,63,00,59,
2575592,000001A0,false,Rx,0,8,00,80,00,A0,FF,0F,E0,B2,
2575860,000002B2,false,Rx,0,8,00,00,00,00,30,00,00,04,
2576131,000000A8,false,Rx,0,8,A9,07,FA,00,00,0D,CF,22,
2576366,000000A9,false,Rx,0,8,18,07,A0,EF,11,BB,0F,FA,
2576599,000000AA,false,Rx,0,8,A7,F7,10,00,00,00,F4,00,
2584473,000000C4,false,Rx,0,7,4F,FF,FD,00,00,FF,F1,00,
2586135,000000A8,false,Rx,0,8,AA,08,FA,00,00,0D,CF,22,
2586370,000000A9,false,Rx,0,8,19,08,A0,EF,11,BB,0F,FA,
2586613,000000AA,false,Rx,0,8,A8,F8,10,00,00,00,F4,00,
2592903,00000130,false,Rx,0,5,00,0D,D0,0F,99,00,00,00,
2594565,000000C4,false,Rx,0,7,51,FF,FD,00,00,FF,F1,00,
2594811,000000CE,false,Rx,0,8,00,00,00,00,00,00,00,00,
2595000,000000B6,false,Rx,0,5,3F,00,80,00,08,00,00,00,
2595278,0000019E,false,Rx,0,8,00,EA,6F,FC,FE,63,00,59,
2595536,000001A0,false,Rx,0,8,00,80,00,A0,FF,12,00,D4,
2595793,000002B2,false,Rx,0,8,00,00,00,00,40,00,00,04,
2596141,000000A8,false,Rx,0,8,AB,09,FA,00,00,0D,CF,22,
2596376,000000A9,false,Rx,0,8,1A,09,A0,EF,11,BB,0F,FA,
2596611,000000AA,false,Rx,0,8,A9,F9,10,00,00,00,F4,00,
2604506,000000C4,false,Rx,0,7,51,FF,FD,00,00,FF,F1,00,
2606156,000000A8,false,Rx,0,8,AC,0A,FA,00,00,0D,CF,22,
2606380,000000A9,false,Rx,0,8,1B,0A,A0,EF,11,BB,0F,FA,
2606623,000000AA,false,Rx,0,8,AA,FA,10,00,00,00,F4,00,
2614519,000000C4,false,Rx,0,7,51,FF,FD,00,00,FF,F1,00,
2614771,000000CE,false,Rx,0,8,00,00,00,00,00,00,00,00,
2614951,000000B6,false,Rx,0,5,40,01,80,00,08,00,00,00,
2615230,0000019E,false,Rx,0,8,00,EA,6F,FC,FE,63,00,59,
2615488,000001A0,false,Rx,0,8,00,80,00,C0,FF,0F,10,01,
2615756,000002B2,false,Rx,0,8,00,00,00,00,30,00,00,04,
2616148,000000A8,false,Rx,0,8,AD,0B,FA,00,00,0D,CF,22,
2616383,000000A9,false,Rx,0,8,1C,0B,A0,EF,11,BB,0F,FA,
2616615,000000AA,false,Rx,0,8,AB,FB,10,00,00,00,F4,00,
2616851,000001D0,false,Rx,0,8,40,3C,00,C6,FC,60,8D,AA,
2624480,000000C4,false,Rx,0,7,51,FF,FD,00,00,FF,F1,00,
2626152,000000A8,false,Rx,0,8,AE,0C,FA,00,00,0D,CF,22,
2626387,000000A9,false,Rx,0,8,1D,0C,A0,EF,11,BB,0F,FA,
2626619,000000AA,false,Rx,0,8,AC,FC,10,00,00,00,F4,00,
2634469,000000C4,false,Rx,0,7,51,FF,FD,00,00,FF,F1,00,
2634721,000000CE,false,Rx,0,8,00,00,00,00,00,00,00,00,
2634901,000000B6,false,Rx,0,5,41,02,80,00,08,00,00,00,
2635213,0000019E,false,Rx,0,8,00,EA,6F,FC,FE,63,00,59,
2635471,000001A0,false,Rx,0,8,00,80,00,C0,FF,12,20,15,
2635728,000001A6,false,Rx,0,8,00,00,00,00,00,00,F0,F3,
2635999,000002B2,false,Rx,0,8,00,00,00,00,40,00,00,04,
2636233,000000A8,false,Rx,0,8,AF,0D,FA,00,00,0D,CF,22,
2636457,000000A9,false,Rx,0,8,1E,0D,A0,EF,11,BB,0F,FA,
2636702,000000AA,false,Rx,0,8,AD,FD,10,00,00,00,F4,00,
2644465,000000C4,false,Rx,0,7,51,FF,FD,00,00,FF,F1,00,
2646159,000000A8,false,Rx,0,8,B0,0E,FA,00,00,0D,CF,22,
2646393,000000A9,false,Rx,0,8,1F,0E,A0,EF,11,BB,0F,FA,
2646637,000000AA,false,Rx,0,8,AE,FE,10,00,00,00,F4,00,
2654465,000000C4,false,Rx,0,7,51,FF,FD,00,00,FF,F1,00,
2654717,000000CE,false,Rx,0,8,00,00,00,00,00,00,00,00,
2654896,000000B6,false,Rx,0,5,42,03,80,00,08,00,00,00,
2655176,0000019E,false,Rx,0,8,00,EA,6F,FC,FE,63,00,59,
2655434,000001A0,false,Rx,0,8,00,80,00,A0,FF,0F,30,01,
2655702,000002B2,false,Rx,0,8,00,00,00,00,30,00,00,04,
2655959,000004A9,false,Rx,0,8,30,52,FF,FF,FF,FF,FF,FF,
2656196,000000A8,false,Rx,0,8,A2,00,FA,00,00,0D,CF,22,
2656431,000000A9,false,Rx,0,8,11,00,A0,EF,11,BB,0F,FA,
2656676,000000AA,false,Rx,0,8,A0,F0,10,00,00,00,F4,00,
2664449,000000C4,false,Rx,0,7,51,FF,FD,00,00,FF,F1,00,
2666142,000000A8,false,Rx,0,8,A3,01,FA,00,00,0D,CF,22,
2666366,000000A9,false,Rx,0,8,12,01,A0,EF,11,BB,0F,FA,
2666610,000000AA,false,Rx,0,8,A1,F1,10,00,00,00,F4,00,
2674462,000000C4,false,Rx,0,7,51,FF,FD,00,00,FF,F1,00,
2674714,000000CE,false,Rx,0,8,00,00,00,00,00,00,00,00,
2674893,000000B6,false,Rx,0,5,43,04,80,00,08,00,00,00,
2675163,0000019E,false,Rx,0,8,00,EA,6F,FC,FE,63,00,59,
2675420,000001A0,false,Rx,0,8,00,80,00,C0,FF,12,40,35,
2675677,000002B2,false,Rx,0,8,00,00,00,00,40,00,00,04,
2676169,000000A8,false,Rx,0,8,A4,02,FA,00,00,0D,CF,22,
2676393,000000A9,false,Rx,0,8,13,02,A0,EF,11,BB,0F,FA,
2676636,000000AA,false,Rx,0,8,A2,F2,10,00,00,00,F4,00,
2684285,000000C4,false,Rx,0,7,51,FF,FD,00,00,FF,F1,00,
2686167,000000A8,false,Rx,0,8,A5,03,FA,00,00,0D,CF,22,
2686397,000000A9,false,Rx,0,8,14,03,A0,EF,11,BB,0F,FA,
2686643,000000AA,false,Rx,0,8,A3,F3,10,00,00,00,F4,00,
2692974,00000130,false,Rx,0,5,00,0D,D0,0F,AA,00,00,00,
2694624,000000C4,false,Rx,0,7,51,FF,FD,00,00,FF,F1,00,
2694880,000000CE,false,Rx,0,8,00,00,00,00,00,00,00,00,
2695059,000000B6,false,Rx,0,5,44,05,80,00,08,00,00,00,
2695228,00000194,false,Rx,0,4,EF,F2,00,FC,00,00,00,00,
2695461,0000019E,false,Rx,0,8,00,EA,6F,FC,FE,63,00,59,
2695718,000001A0,false,Rx,0,8,00,80,00,C0,FF,0F,50,42,
2695989,000002B2,false,Rx,0,8,00,00,00,00,30,00,00,04,
2696223,000000A8,false,Rx,0,8,A6,04,FA,00,00,0D,CF,22,
2696458,000000A9,false,Rx,0,8,15,04,A0,EF,11,BB,0F,FA,
2696694,000000AA,false,Rx,0,8,A4,F4,10,00,00,00,F4,00,
2704547,000000C4,false,Rx,0,7,51,FF,FD,00,00,FF,F1,00,
2706163,000000A8,false,Rx,0,8,A7,05,FA,00,00,0D,CF,22,
2706398,000000A9,false,Rx,0,8,16,05,A0,EF,11,BB,0F,FA,
2706641,000000AA,false,Rx,0,8,A5,F5,10,00,00,00,F4,00,
2714569,000000C4,false,Rx,0,7,4F,FF,FD,00,00,FF,F1,00,
2714821,000000CE,false,Rx,0,8,00,00,00,00,00,00,00,00,
2715012,000000B6,false,Rx,0,5,45,06,80,00,08,00,00,00,
2715281,0000019E,false,Rx,0,8,00,EA,6F,FC,FE,63,00,59,
2715538,000001A0,false,Rx,0,8,00,80,00,D0,FF,0F,60,62,
2715806,000002B2,false,Rx,0,8,00,00,00,00,30,00,00,04,
2716143,000000A8,false,Rx,0,8,A8,06,FA,00,00,0D,CF,22,
2716378,000000A9,false,Rx,0,8,17,06,A0,EF,11,BB,0F,FA,
2716633,000000AA,false,Rx,0,8,A6,F6,10,00,00,00,F4,00,
2716856,000001D0,false,Rx,0,8,40,3C,00,C6,FC,60,8D,AA,
2721994,000002F8,false,Rx,0,8,FD,FD,FD,0B,8F,E6,07,FC,
2724537,000000C4,false,Rx,0,7,51,FF,FD,E4,00,FF,F1,00,
2724733,000000C8,false,Rx,0,6,51,FF,81,E3,00,BC,00,00,
2726144,000000A8,false,Rx,0,8,A9,07,FA,00,00,0D,CF,22,
2726379,000000A9,false,Rx,0,8,18,07,A0,EF,11,BB,0F,FA,
2726613,000000AA,false,Rx,0,8,A7,F7,10,00,00,00,F4,00,
2727281,000001FB,false,Rx,0,2,FC,FF,00,00,00,00,00,00,
2734499,000000C4,false,Rx,0,7,51,FF,FD,E4,00,FF,F1,00,
2734751,000000CE,false,Rx,0,8,00,00,00,00,00,00,00,00,
2734931,000000B6,false,Rx,0,5,46,07,80,00,08,00,00,00,
2735245,0000019E,false,Rx,0,8,00,EA,6F,FC,FE,63,00,59,
2735502,000001A0,false,Rx,0,8,00,80,00,A0,FF,0F,70,42,
2735770,000001A6,false,Rx,0,8,00,00,00,00,00,00,80,F5,
2736029,000002B2,false,Rx,0,8,00,00,00,00,30,00,00,04,
2736264,000000A8,false,Rx,0,8,AA,08,FA,00,00,0D,CF,22,
2736499,000000A9,false,Rx,0,8,19,08,A0,EF,11,BB,0F,FA,
2736745,000000AA,false,Rx,0,8,A8,F8,10,00,00,00,F4,00,
2744507,000000C4,false,Rx,0,7,51,FF,FD,00,00,FF,F1,00,
2746123,000000A8,false,Rx,0,8,AB,09,FA,00,00,0D,CF,22,
2746357,000000A9,false,Rx,0,8,1A,09,A0,EF,11,BB,0F,FA,
2746602,000000AA,false,Rx,0,8,A9,F9,10,00,00,00,F4,00,
2746848,000004B0,false,Rx,0,8,00,52,FE,01,FF,FF,FF,FF,
2754502,000000C4,false,Rx,0,7,51,FF,FD,00,00,FF,F1,00,
2754754,000000CE,false,Rx,0,8,00,00,00,00,00,00,00,00,
2754944,000000B6,false,Rx,0,5,47,08,80,00,08,00,00,00,
2755226,0000019E,false,Rx,0,8,00,EA,6F,FC,FE,63,00,59,
2755483,000001A0,false,Rx,0,8,00,80,00,C0,FF,12,80,75,
2755750,000002B2,false,Rx,0,8,00,00,00,00,40,00,00,04,
2756120,000000A8,false,Rx,0,8,AC,0A,FA,00,00,0D,CF,22,
2756344,000000A9,false,Rx,0,8,1B,0A,A0,EF,11,BB,0F,FA,
2756588,000000AA,false,Rx,0,8,AA,FA,10,00,00,00,F4,00,
2764460,000000C4,false,Rx,0,7,51,FF,FD,00,00,FF,F1,00,
2766087,000000A8,false,Rx,0,8,AD,0B,FA,00,00,0D,CF,22,
2766311,000000A9,false,Rx,0,8,1C,0B,A0,EF,11,BB,0F,FA,
2766555,000000AA,false,Rx,0,8,AB,FB,10,00,00,00,F4,00,
2774460,000000C4,false,Rx,0,7,51,FF,FD,00,00,FF,F1,00,
2774712,000000CE,false,Rx,0,8,00,00,00,00,00,00,00,00,
2774892,000000B6,false,Rx,0,5,48,09,80,00,08,00,00,00,
2775151,0000019E,false,Rx,0,8,00,EA,7F,FC,FE,63,00,69,
2775419,000001A0,false,Rx,0,8,00,80,00,C0,FF,0F,90,82,
2775675,000002B2,false,Rx,0,8,00,00,00,00,30,00,00,04,
2776123,000000A8,false,Rx,0,8,AE,0C,FA,00,00,0D,CF,22,
2776357,000000A9,false,Rx,0,8,1D,0C,A0,EF,11,BB,0F,FA,
2776590,000000AA,false,Rx,0,8,AC,FC,10,00,00,00,F4,00,
2784450,000000C4,false,Rx,0,7,51,FF,FD,00,00,FF,F1,00,
2786122,000000A8,false,Rx,0,8,AF,0D,FA,00,00,0D,CF,22,
2786357,000000A9,false,Rx,0,8,1E,0D,A0,EF,11,BB,0F,FA,
2786601,000000AA,false,Rx,0,8,AD,FD,10,00,00,00,F4,00,
2792923,00000130,false,Rx,0,5,00,0D,D0,0F,BB,00,00,00,
2794572,000000C4,false,Rx,0,7,51,FF,FD,00,00,FF,F1,00,
2794828,000000CE,false,Rx,0,8,00,00,00,00,00,00,00,00,
2795009,000000B6,false,Rx,0,5,49,0A,80,00,08,00,00,00,
2795276,0000019E,false,Rx,0,8,00,EA,7F,FC,FE,63,00,69,
2795544,000001A0,false,Rx,0,8,00,80,00,C0,FF,0F,A0,92,
2795802,000002B2,false,Rx,0,8,00,00,00,00,30,00,00,04,
2796138,000000A8,false,Rx,0,8,B0,0E,FA,00,00,0D,CF,22,
2796372,000000A9,false,Rx,0,8,1F,0E,A0,EF,11,BB,0F,FA,
2796609,000000AA,false,Rx,0,8,AE,FE,10,00,00,00,F4,00,
2804514,000000C4,false,Rx,0,7,51,FF,FD,00,00,FF,F1,00,
2806141,000000A8,false,Rx,0,8,A2,00,FA,00,00,0D,CF,22,
2806376,000000A9,false,Rx,0,8,11,00,A0,EF,11,BB,0F,FA,
2806621,000000AA,false,Rx,0,8,A0,F0,10,00,00,00,F4,00,
2814525,000000C4,false,Rx,0,7,51,FF,FD,00,00,FF,F1,00,
2814777,000000CE,false,Rx,0,8,00,00,00,00,00,00,00,00,
2814958,000000B6,false,Rx,0,5,4A,0B,80,00,08,00,00,00,
2815237,0000019E,false,Rx,0,8,00,EA,7F,FC,FE,63,00,69,
2815494,000001A0,false,Rx,0,8,00,80,00,A0,FF,0F,B0,82,
2815764,000002B2,false,Rx,0,8,00,00,00,00,30,00,00,04,
2816121,000000A8,false,Rx,0,8,A3,01,FA,00,00,0D,CF,22,
2816345,000000A9,false,Rx,0,8,12,01,A0,EF,11,BB,0F,FA,
2816589,000000AA,false,Rx,0,8,A1,F1,10,00,00,00,F4,00,
2816813,000001B6,false,Rx,0,7,FF,00,00,00,00,AC,24,00,
2817049,000001D0,false,Rx,0,8,40,3C,01,C6,FC,60,8D,AA,
2817195,000002F3,false,Rx,0,3,01,FC,F3,00,00,00,00,00,
2824486,000000C4,false,Rx,0,7,51,FF,FD,00,00,FF,F1,00,
2826114,000000A8,false,Rx,0,8,A4,02,FA,00,00,0D,CF,22,
2826338,000000A9,false,Rx,0,8,13,02,A0,EF,11,BB,0F,FA,
2826582,000000AA,false,Rx,0,8,A2,F2,10,00,00,00,F4,00,
2834464,000000C4,false,Rx,0,7,4F,FF,FD,00,00,FF,F1,00,
2834715,000000CE,false,Rx,0,8,00,00,00,00,00,00,00,00,
2834895,000000B6,false,Rx,0,5,4B,0C,80,00,08,00,00,00,
2835209,0000019E,false,Rx,0,8,00,EA,7F,FC,FE,63,00,69,
2835466,000001A0,false,Rx,0,8,00,80,00,C0,FF,12,C0,B5,
2835724,000001A6,false,Rx,0,8,00,00,00,00,00,00,10,F7,
2835993,000002B2,false,Rx,0,8,00,00,00,00,40,00,00,04,
2836228,000000A8,false,Rx,0,8,A5,03,FA,00,00,0D,CF,22,
2836464,000000A9,false,Rx,0,8,14,03,A0,EF,11,BB,0F,FA,
2836698,000000AA,false,Rx,0,8,A3,F3,10,00,00,00,F4,00,
2844458,000000C4,false,Rx,0,7,51,FF,FD,E4,00,FF,F1,00,
2845852,00000480,false,Rx,0,8,12,42,FD,01,FF,FF,FF,FF,
2846154,000000A8,false,Rx,0,8,A6,04,FA,00,00,0D,CF,22,
2846389,000000A9,false,Rx,0,8,15,04,A0,EF,11,BB,0F,FA,
2846625,000000AA,false,Rx,0,8,A4,F4,10,00,00,00,F4,00,
2854464,000000C4,false,Rx,0,7,51,FF,FD,E4,00,FF,F1,00,
2854716,000000CE,false,Rx,0,8,00,00,00,00,00,00,00,00,
2854908,000000B6,false,Rx,0,5,4C,0D,80,00,08,00,00,00,
2855165,0000019E,false,Rx,0,8,00,EA,7F,FC,FE,63,00,69,
2855422,000001A0,false,Rx,0,8,00,80,00,C0,FF,12,D0,C5,
2855691,000002B2,false,Rx,0,8,00,00,00,00,40,00,00,04,
2856137,000000A8,false,Rx,0,8,A7,05,FA,00,00,0D,CF,22,
2856361,000000A9,false,Rx,0,8,16,05,A0,EF,11,BB,0F,FA,
2856605,000000AA,false,Rx,0,8,A5,F5,10,00,00,00,F4,00,
2864454,000000C4,false,Rx,0,7,51,FF,FD,00,00,FF,F1,00,
2866137,000000A8,false,Rx,0,8,A8,06,FA,00,00,0D,CF,22,
2866372,000000A9,false,Rx,0,8,17,06,A0,EF,11,BB,0F,FA,
2866605,000000AA,false,Rx,0,8,A6,F6,10,00,00,00,F4,00,
2874467,000000C4,false,Rx,0,7,51,FF,FD,00,00,FF,F1,00,
2874719,000000CE,false,Rx,0,8,00,00,00,00,00,00,00,00,
2874900,000000B6,false,Rx,0,5,4D,0E,80,00,08,00,00,00,
2875158,0000019E,false,Rx,0,8,00,EA,7F,FC,FE,63,00,69,
2875426,000001A0,false,Rx,0,8,00,80,00,A0,FF,0F,E0,B2,
2875684,000002B2,false,Rx,0,8,00,00,00,00,30,00,00,04,
2876141,000000A8,false,Rx,0,8,A9,07,FA,00,00,0D,CF,22,
2876365,000000A9,false,Rx,0,8,18,07,A0,EF,11,BB,0F,FA,
2876609,000000AA,false,Rx,0,8,A7,F7,10,00,00,00,F4,00,
2884468,000000C4,false,Rx,0,7,4F,FF,FD,C8,FF,FF,F1,00,
2886140,000000A8,false,Rx,0,8,AA,08,FA,00,00,0D,CF,22,
2886376,000000A9,false,Rx,0,8,19,08,A0,EF,11,BB,0F,FA,
2886619,000000AA,false,Rx,0,8,A8,F8,10,00,00,00,F4,00,
2892987,00000130,false,Rx,0,5,00,0D,D0,0F,CC,00,00,00,
2894590,000000C4,false,Rx,0,7,4F,FF,FD,C8,FF,FF,F1,00,
2894848,000000CE,false,Rx,0,8,00,00,00,00,00,00,00,00,
2895037,000000B6,false,Rx,0,5,3F,00,80,00,08,00,00,00,
2895194,00000194,false,Rx,0,4,F0,F3,00,FC,00,00,00,00,
2895428,0000019E,false,Rx,0,8,00,EA,7F,FC,FE,63,00,69,
2895686,000001A0,false,Rx,0,8,00,80,00,D0,FF,12,00,05,
2895954,000002B2,false,Rx,0,8,00,00,00,00,40,00,00,04,
2896191,000000A8,false,Rx,0,8,AB,09,FA,00,00,0D,CF,22,
2896416,000000A9,false,Rx,0,8,1A,09,A0,EF,11,BB,0F,FA,
2896662,000000AA,false,Rx,0,8,A9,F9,10,00,00,00,F4,00,
2904435,000001B5,false,Rx,0,7,00,FF,00,00,C8,FF,FF,00,
2904654,000000C4,false,Rx,0,7,51,FF,FD,71,00,FF,F1,00,
2906142,000000A8,false,Rx,0,8,AC,0A,FA,00,00,0D,CF,22,
2906367,000000A9,false,Rx,0,8,1B,0A,A0,EF,11,BB,0F,FA,
2906613,000000AA,false,Rx,0,8,AA,FA,10,00,00,00,F4,00,
2914540,000000C4,false,Rx,0,7,51,FF,FD,71,00,FF,F1,00,
2914794,000000CE,false,Rx,0,8,00,00,00,00,00,00,00,00,
2914973,000000B6,false,Rx,0,5,40,01,80,00,08,00,00,00,
2915253,0000019E,false,Rx,0,8,00,EA,7F,FC,FE,63,00,69,
2915510,000001A0,false,Rx,0,8,00,80,00,C0,FF,12,10,05,
2915779,000002B2,false,Rx,0,8,00,00,00,00,40,00,00,04,
2916181,000000A8,false,Rx,0,8,AD,0B,FA,00,00,0D,CF,22,
2916417,000000A9,false,Rx,0,8,1C,0B,A0,EF,11,BB,0F,FA,
2916648,000000AA,false,Rx,0,8,AB,FB,10,00,00,00,F4,00,
2916883,000001D0,false,Rx,0,8,40,3C,01,C6,FC,60,8D,AA,
2917319,000001FB,false,Rx,0,2,FD,FF,00,00,00,00,00,00,
2924494,000000C4,false,Rx,0,7,51,FF,FD,00,00,FF,F1,00,
2924701,000000C8,false,Rx,0,6,51,FF,D1,00,00,BC,00,00,
2926178,000000A8,false,Rx,0,8,AE,0C,FA,00,00,0D,CF,22,
2926414,000000A9,false,Rx,0,8,1D,0C,A0,EF,11,BB,0F,FA,
2926649,000000AA,false,Rx,0,8,AC,FC,10,00,00,00,F4,00,
2934454,000000C4,false,Rx,0,7,4F,FF,FD,00,00,FF,F1,00,
2934706,000000CE,false,Rx,0,8,00,00,00,00,00,00,00,00,
2934898,000000B6,false,Rx,0,5,41,02,80,00,08,00,00,00,
2935200,0000019E,false,Rx,0,8,00,EA,7F,FC,FE,63,00,69,
2935456,000001A0,false,Rx,0,8,00,80,00,C0,FF,0F,20,12,
2935726,000001A6,false,Rx,0,8,00,00,00,00,00,00,A0,F8,
2935995,000002B2,false,Rx,0,8,00,00,00,00,30,00,00,04,
2936218,000000A8,false,Rx,0,8,AF,0D,FA,00,00,0D,CF,22,
2936455,000000A9,false,Rx,0,8,1E,0D,A0,EF,11,BB,0F,FA,
2936699,000000AA,false,Rx,0,8,AD,FD,10,00,00,00,F4,00,
2944460,000000C4,false,Rx,0,7,51,FF,FD,E4,00,FF,F1,00,
2946164,00000492,false,Rx,0,8,17,52,FF,FF,FF,FF,FF,FF,
2946401,000000A8,false,Rx,0,8,B0,0E,FA,00,00,0D,CF,22,
2946644,000000A9,false,Rx,0,8,1F,0E,A0,EF,11,BB,0F,FA,
2946879,000000AA,false,Rx,0,8,AE,FE,10,00,00,00,F4,00,
2954488,000000C4,false,Rx,0,7,51,FF,FD,E4,00,FF,F1,00,
2954741,000000CE,false,Rx,0,8,00,00,00,00,00,00,00,00,
2954921,000000B6,false,Rx,0,5,42,03,80,00,08,00,00,00,
2955200,0000019E,false,Rx,0,8,00,EA,7F,FC,FE,63,00,69,
2955457,000001A0,false,Rx,0,8,00,80,00,D0,FF,0F,30,32,
2955715,000002B2,false,Rx,0,8,00,00,00,00,30,00,00,04,
2956172,000000A8,false,Rx,0,8,A2,00,FA,00,00,0D,CF,22,
2956408,000000A9,false,Rx,0,8,11,00,A0,EF,11,BB,0F,FA,
2956651,000000AA,false,Rx,0,8,A0,F0,10,00,00,00,F4,00,
2964501,000000C4,false,Rx,0,7,51,FF,FD,00,00,FF,F1,00,
2966183,000000A8,false,Rx,0,8,A3,01,FA,00,00,0D,CF,22,
2966408,000000A9,false,Rx,0,8,12,01,A0,EF,11,BB,0F,FA,
2966651,000000AA,false,Rx,0,8,A1,F1,10,00,00,00,F4,00,
2974502,000000C4,false,Rx,0,7,51,FF,FD,00,00,FF,F1,00,
2974755,000000CE,false,Rx,0,8,00,00,00,00,00,00,00,00,
2974935,000000B6,false,Rx,0,5,43,04,80,00,08,00,00,00,
2975225,0000019E,false,Rx,0,8,00,EA,8F,FC,FE,63,00,79,
2975483,000001A0,false,Rx,0,8,00,80,00,C0,FF,0F,40,32,
2975751,000002B2,false,Rx,0,8,00,00,00,00,30,00,00,04,
2976175,000000A8,false,Rx,0,8,A4,02,FA,00,00,0D,CF,22,
2976411,000000A9,false,Rx,0,8,13,02,A0,EF,11,BB,0F,FA,
2976643,000000AA,false,Rx,0,8,A2,F2,10,00,00,00,F4,00,
2984505,000000C4,false,Rx,0,7,51,FF,FD,00,00,FF,F1,00,
2986144,000000A8,false,Rx,0,8,A5,03,FA,00,00,0D,CF,22,
2986369,000000A9,false,Rx,0,8,14,03,A0,EF,11,BB,0F,FA,
2986612,000000AA,false,Rx,0,8,A3,F3,10,00,00,00,F4,00,
2992912,00000130,false,Rx,0,5,00,0D,D0,0F,DD,00,00,00,
2994616,000000C4,false,Rx,0,7,51,FF,FD,00,00,FF,F1,00,
2994874,000000CE,false,Rx,0,8,00,00,00,00,00,00,00,00,
2995052,000000B6,false,Rx,0,5,44,05,80,00,08,00,00,00,
2995330,0000019E,false,Rx,0,8,00,EA,8F,FC,FE,63,00,79,
2995589,000001A0,false,Rx,0,8,00,80,00,C0,FF,0F,50,42,
2995857,000002B2,false,Rx,0,8,00,00,00,00,30,00,00,04,
2996148,000000A8,false,Rx,0,8,A6,04,FA,00,00,0D,CF,22,
2996384,000000A9,false,Rx,0,8,15,04,A0,EF,11,BB,0F,FA,
2996619,000000AA,false,Rx,0,8,A4,F4,10,00,00,00,F4,00,
3004558,000000C4,false,Rx,0,7,51,FF,FD,00,00,FF,F1,00,
3006152,000000A8,false,Rx,0,8,A7,05,FA,00,00,0D,CF,22,
3006388,000000A9,false,Rx,0,8,16,05,A0,EF,11,BB,0F,FA,
3006631,000000AA,false,Rx,0,8,A5,F5,10,00,00,00,F4,00,
3014569,000000C4,false,Rx,0,7,51,FF,FD,00,00,FF,F1,00,
3014822,000000CE,false,Rx,0,8,00,00,00,00,00,00,00,00,
3015003,000000B6,false,Rx,0,5,45,06,80,00,08,00,00,00,
3015281,0000019E,false,Rx,0,8,00,EA,8F,FC,FE,63,00,79,
3015539,000001A0,false,Rx,0,8,00,80,00,C0,FF,0F,60,52,
3015796,000002B2,false,Rx,0,8,00,00,00,00,30,00,00,04,
3016132,000000A8,false,Rx,0,8,A8,06,FA,00,00,0D,CF,22,
3016357,000000A9,false,Rx,0,8,17,06,A0,EF,11,BB,0F,FA,
3016621,000000AA,false,Rx,0,8,A6,F6,10,00,00,00,F4,00,
3016834,000001D0,false,Rx,0,8,40,3C,02,C6,FC,60,8D,AA,
3024512,000000C4,false,Rx,0,7,51,FF,FD,00,00,FF,F1,00,
3026128,000000A8,false,Rx,0,8,A9,07,FA,00,00,0D,CF,22,
3026364,000000A9,false,Rx,0,8,18,07,A0,EF,11,BB,0F,FA,
3026597,000000AA,false,Rx,0,8,A7,F7,10,00,00,00,F4,00,
3034468,000000C4,false,Rx,0,7,51,FF,FD,00,00,FF,F1,00,
3034721,000000CE,false,Rx,0,8,00,00,00,00,00,00,00,00,
3034900,000000B6,false,Rx,0,5,46,07,80,00,08,00,00,00,
3035213,0000019E,false,Rx,0,8,00,EA,8F,FC,FE,63,00,79,
3035471,000001A0,false,Rx,0,8,00,80,00,C0,FF,12,70,65,
3035728,000001A6,false,Rx,0,8,00,00,00,00,00,00,30,FA,
3035997,000002B2,false,Rx,0,8,00,00,00,00,40,00,00,04,
3036233,000000A8,false,Rx,0,8,AA,08,FA,00,00,0D,CF,22,
3036468,000000A9,false,Rx,0,8,19,08,A0,EF,11,BB,0F,FA,
3036713,000000AA,false,Rx,0,8,A8,F8,10,00,00,00,F4,00,
3038480,00000497,false,Rx,0,8,29,52,FF,FF,FF,FF,FF,FF,
3044479,000000C4,false,Rx,0,7,51,FF,FD,00,00,FF,F1,00,
3046152,000000A8,false,Rx,0,8,AB,09,FA,00,00,0D,CF,22,
3046376,000000A9,false,Rx,0,8,1A,09,A0,EF,11,BB,0F,FA,
3046619,000000AA,false,Rx,0,8,A9,F9,10,00,00,00,F4,00,
3054468,000000C4,false,Rx,0,7,51,FF,FD,00,00,FF,F1,00,
3054721,000000CE,false,Rx,0,8,00,00,00,00,00,00,00,00,
3054901,000000B6,false,Rx,0,5,47,08,80,00,08,00,00,00,
3055169,0000019E,false,Rx,0,8,00,EA,8F,FC,FE,63,00,79,
3055427,000001A0,false,Rx,0,8,00,80,00,A0,FF,0F,80,52,
3055695,000002B2,false,Rx,0,8,00,00,00,00,30,00,00,04,
3056131,000000A8,false,Rx,0,8,AC,0A,FA,00,00,0D,CF,22,
3056355,000000A9,false,Rx,0,8,1B,0A,A0,EF,11,BB,0F,FA,
3056598,000000AA,false,Rx,0,8,AA,FA,10,00,00,00,F4,00,
3064468,000000C4,false,Rx,0,7,51,FF,FD,00,00,FF,F1,00,
3066141,000000A8,false,Rx,0,8,AD,0B,FA,00,00,0D,CF,22,
3066364,000000A9,false,Rx,0,8,1C,0B,A0,EF,11,BB,0F,FA,
3066608,000000AA,false,Rx,0,8,AB,FB,10,00,00,00,F4,00,
3074468,000000C4,false,Rx,0,7,51,FF,FD,00,00,FF,F1,00,
3074721,000000CE,false,Rx,0,8,00,00,00,00,00,00,00,00,
3074901,000000B6,false,Rx,0,5,48,09,80,00,08,00,00,00,
3075169,0000019E,false,Rx,0,8,00,EA,8F,FC,FE,63,00,79,
3075427,000001A0,false,Rx,0,8,00,80,00,A0,FF,12,90,65,
3075695,000002B2,false,Rx,0,8,00,00,00,00,40,00,00,04,
3076142,000000A8,false,Rx,0,8,AE,0C,FA,00,00,0D,CF,22,
3076366,000000A9,false,Rx,0,8,1D,0C,A0,EF,11,BB,0F,FA,
3076609,000000AA,false,Rx,0,8,AC,FC,10,00,00,00,F4,00,
3084458,000000C4,false,Rx,0,7,51,FF,FD,00,00,FF,F1,00,
3086142,000000A8,false,Rx,0,8,AF,0D,FA,00,00,0D,CF,22,
3086377,000000A9,false,Rx,0,8,1E,0D,A0,EF,11,BB,0F,FA,
3086621,000000AA,false,Rx,0,8,AD,FD,10,00,00,00,F4,00,
3092990,00000130,false,Rx,0,5,00,0D,D0,0F,EE,00,00,00,
3094604,000000C4,false,Rx,0,7,51,FF,FD,00,00,FF,F1,00,
3094850,000000CE,false,Rx,0,8,00,00,00,00,00,00,00,00,
3095030,000000B6,false,Rx,0,5,49,0A,80,00,08,00,00,00,
3095208,00000194,false,Rx,0,4,F1,F4,00,FC,00,00,00,00,
3095443,0000019E,false,Rx,0,8,00,EA,8F,FC,FE,63,00,79,
3095700,000001A0,false,Rx,0,8,00,80,00,C0,FF,12,A0,95,
3095968,000002B2,false,Rx,0,8,00,00,00,00,40,00,00,04,
3096206,000000A8,false,Rx,0,8,B0,0E,FA,00,00,0D,CF,22,
3096441,000000A9,false,Rx,0,8,1F,0E,A0,EF,11,BB,0F,FA,
3096676,000000AA,false,Rx,0,8,AE,FE,10,00,00,00,F4,00,
3096923,000005A9,false,Rx,0,8,40,3F,00,25,FF,FF,FF,FF,
3104507,000000C4,false,Rx,0,7,51,FF,FD,00,00,FF,F1,00,
3106123,000000A8,false,Rx,0,8,A2,00,FA,00,00,0D,CF,22,
3106358,000000A9,false,Rx,0,8,11,00,A0,EF,11,BB,0F,FA,
3106601,000000AA,false,Rx,0,8,A0,F0,10,00,00,00,F4,00,
3107303,000001FB,false,Rx,0,2,FE,FF,00,00,00,00,00,00,
3114523,000000C4,false,Rx,0,7,51,FF,FD,00,00,FF,F1,00,
3114786,000000CE,false,Rx,0,8,00,00,00,00,00,00,00,00,
3114965,000000B6,false,Rx,0,5,4A,0B,80,00,08,00,00,00,
3115246,0000019E,false,Rx,0,8,00,EA,8F,FC,FE,63,00,79,
3115503,000001A0,false,Rx,0,8,00,80,00,A0,FF,0F,B0,82,
3115771,000002B2,false,Rx,0,8,00,00,00,00,30,00,00,04,
3116129,000000A8,false,Rx,0,8,A3,01,FA,00,00,0D,CF,22,
3116353,000000A9,false,Rx,0,8,12,01,A0,EF,11,BB,0F,FA,
3116596,000000AA,false,Rx,0,8,A1,F1,10,00,00,00,F4,00,
3116832,000001D0,false,Rx,0,8,40,3C,02,C6,FC,60,8D,AA,
3124496,000000C4,false,Rx,0,7,51,FF,FD,00,00,FF,F1,00,
3124692,000000C8,false,Rx,0,6,51,FF,31,00,00,BC,00,00,
3126125,000000A8,false,Rx,0,8,A4,02,FA,00,00,0D,CF,22,
3126360,000000A9,false,Rx,0,8,13,02,A0,EF,11,BB,0F,FA,
3126594,000000AA,false,Rx,0,8,A2,F2,10,00,00,00,F4,00,
3134467,000000C4,false,Rx,0,7,51,FF,FD,00,00,FF,F1,00,
3134718,000000CE,false,Rx,0,8,00,00,00,00,00,00,00,00,
3134898,000000B6,false,Rx,0,5,4B,0C,80,00,08,00,00,00,
3135223,0000019E,false,Rx,0,8,00,EA,8F,FC,FE,63,00,79,
3135480,000001A0,false,Rx,0,8,00,80,00,C0,FF,0F,C0,B2,
3135748,000001A6,false,Rx,0,8,00,00,00,00,00,00,C0,FB,
3136007,000002B2,false,Rx,0,8,00,00,00,00,30,00,00,04,
3136253,000000A8,false,Rx,0,8,A5,03,FA,00,00,0D,CF,22,
3136477,000000A9,false,Rx,0,8,14,03,A0,EF,11,BB,0F,FA,
3136722,000000AA,false,Rx,0,8,A3,F3,10,00,00,00,F4,00,
3136969,000004A9,false,Rx,0,8,30,52,FF,FF,FF,FF,FF,FF,
3144467,000000C4,false,Rx,0,7,51,FF,FD,00,00,FF,F1,00,
3146138,000000A8,false,Rx,0,8,A6,04,FA,00,00,0D,CF,22,
3146362,000000A9,false,Rx,0,8,15,04,A0,EF,11,BB,0F,FA,
3146605,000000AA,false,Rx,0,8,A4,F4,10,00,00,00,F4,00,
3154478,000000C4,false,Rx,0,7,4F,FF,FD,00,00,FF,F1,00,
3154730,000000CE,false,Rx,0,8,00,00,00,00,00,00,00,00,
3154920,000000B6,false,Rx,0,5,4C,0D,80,00,08,00,00,00,
3155179,0000019E,false,Rx,0,8,00,EA,8F,FC,FE,63,00,79,
3155436,000001A0,false,Rx,0,8,00,80,00,A0,FF,12,D0,A5,
3155704,000002B2,false,Rx,0,8,00,00,00,00,40,00,00,04,
3156130,000000A8,false,Rx,0,8,A7,05,FA,00,00,0D,CF,22,
3156354,000000A9,false,Rx,0,8,16,05,A0,EF,11,BB,0F,FA,
3156597,000000AA,false,Rx,0,8,A5,F5,10,00,00,00,F4,00,
3164470,000000C4,false,Rx,0,7,51,FF,FD,E4,00,FF,F1,00,
3166130,000000A8,false,Rx,0,8,A8,06,FA,00,00,0D,CF,22,
3166354,000000A9,false,Rx,0,8,17,06,A0,EF,11,BB,0F,FA,
3166597,000000AA,false,Rx,0,8,A6,F6,10,00,00,00,F4,00,
3174470,000000C4,false,Rx,0,7,51,FF,FD,E4,00,FF,F1,00,
3174722,000000CE,false,Rx,0,8,00,00,00,00,00,00,00,00,
3174912,000000B6,false,Rx,0,5,4D,0E,80,00,08,00,00,00,
3175182,0000019E,false,Rx,0,8,00,EA,8F,FC,FE,63,00,79,
3175439,000001A0,false,Rx,0,8,00,80,00,D0,FF,0F,E0,E2,
3175696,000002B2,false,Rx,0,8,00,00,00,00,30,00,00,04,
3176121,000000A8,false,Rx,0,8,A9,07,FA,00,00,0D,CF,22,
3176356,000000A9,false,Rx,0,8,18,07,A0,EF,11,BB,0F,FA,
3176588,000000AA,false,Rx,0,8,A7,F7,10,00,00,00,F4,00,
3184482,000000C4,false,Rx,0,7,51,FF,FD,00,00,FF,F1,00,
3186109,000000A8,false,Rx,0,8,AA,08,FA,00,00,0D,CF,22,
3186344,000000A9,false,Rx,0,8,19,08,A0,EF,11,BB,0F,FA,
3186587,000000AA,false,Rx,0,8,A8,F8,10,00,00,00,F4,00,
3192922,00000130,false,Rx,0,5,00,0D,D0,0F,F0,00,00,00,
3194593,000000C4,false,Rx,0,7,51,FF,FD,00,00,FF,F1,00,
3194838,000000CE,false,Rx,0,8,00,00,00,00,00,00,00,00,
3195027,000000B6,false,Rx,0,5,3F,00,80,00,08,00,00,00,
3195318,0000019E,false,Rx,0,8,00,EA,9F,FC,FE,63,00,89,
3195575,000001A0,false,Rx,0,8,00,80,00,A0,FF,0F,00,D1,
3195843,000002B2,false,Rx,0,8,00,00,00,00,30,00,00,04,
3196135,000000A8,false,Rx,0,8,AB,09,FA,00,00,0D,CF,22,
3196370,000000A9,false,Rx,0,8,1A,09,A0,EF,11,BB,0F,FA,
3196616,000000AA,false,Rx,0,8,A9,F9,10,00,00,00,F4,00,
3204521,000000C4,false,Rx,0,7,51,FF,FD,00,00,FF,F1,00,
3206148,000000A8,false,Rx,0,8,AC,0A,FA,00,00,0D,CF,22,
3206383,000000A9,false,Rx,0,8,1B,0A,A0,EF,11,BB,0F,FA,
3206617,000000AA,false,Rx,0,8,AA,FA,10,00,00,00,F4,00,
3214534,000000C4,false,Rx,0,7,51,FF,FD,00,00,FF,F1,00,
3214786,000000CE,false,Rx,0,8,00,00,00,00,00,00,00,00,
3214977,000000B6,false,Rx,0,5,40,01,80,00,08,00,00,00,
3215248,0000019E,false,Rx,0,8,00,EA,9F,FC,FE,63,00,89,
3215505,000001A0,false,Rx,0,8,00,80,00,A0,FF,0F,10,E1,
3215773,000002B2,false,Rx,0,8,00,00,00,00,30,00,00,04,
3216176,000000A8,false,Rx,0,8,AD,0B,FA,00,00,0D,CF,22,
3216400,000000A9,false,Rx,0,8,1C,0B,A0,EF,11,BB,0F,FA,
3216644,000000AA,false,Rx,0,8,AB,FB,10,00,00,00,F4,00,
3216878,000001D0,false,Rx,0,8,40,3C,03,C6,FC,60,8D,AA,
3224510,000000C4,false,Rx,0,7,51,FF,FD,00,00,FF,F1,00,
3226181,000000A8,false,Rx,0,8,AE,0C,FA,00,00,0D,CF,22,
3226405,000000A9,false,Rx,0,8,1D,0C,A0,EF,11,BB,0F,FA,
3226650,000000AA,false,Rx,0,8,AC,FC,10,00,00,00,F4,00,
3234510,000000C4,false,Rx,0,7,51,FF,FD,00,00,FF,F1,00,
3234762,000000CE,false,Rx,0,8,00,00,00,00,00,00,00,00,
3234952,000000B6,false,Rx,0,5,41,02,80,00,08,00,00,00,
3235255,0000019E,false,Rx,0,8,00,EA,9F,FC,FE,63,00,89,
3235523,000001A0,false,Rx,0,8,00,80,00,A0,FF,0F,20,F1,
3235780,000001A6,false,Rx,0,8,00,00,00,00,00,00,50,FD,
3236051,000002B2,false,Rx,0,8,00,00,00,00,30,00,00,04,
3236285,000000A8,false,Rx,0,8,AF,0D,FA,00,00,0D,CF,22,
3236509,000000A9,false,Rx,0,8,1E,0D,A0,EF,11,BB,0F,FA,
3236755,000000AA,false,Rx,0,8,AD,FD,10,00,00,00,F4,00,
3237002,000004B0,false,Rx,0,8,00,52,FE,01,FF,FF,FF,FF,
3244521,000000C4,false,Rx,0,7,51,FF,FD,00,00,FF,F1,00,
3246148,000000A8,false,Rx,0,8,B0,0E,FA,00,00,0D,CF,22,
3246383,000000A9,false,Rx,0,8,1F,0E,A0,EF,11,BB,0F,FA,
3246627,000000AA,false,Rx,0,8,AE,FE,10,00,00,00,F4,00,
3254499,000000C4,false,Rx,0,7,51,FF,FD,00,00,FF,F1,00,
3254751,000000CE,false,Rx,0,8,00,00,00,00,00,00,00,00,
3254941,000000B6,false,Rx,0,5,42,03,80,00,08,00,00,00,
3255211,0000019E,false,Rx,0,8,00,EA,9F,FC,FE,63,00,89,
3255468,000001A0,false,Rx,0,8,00,80,00,C0,FF,12,30,25,
3255736,000002B2,false,Rx,0,8,00,00,00,00,40,00,00,04,
3256117,000000A8,false,Rx,0,8,A2,00,FA,00,00,0D,CF,22,
3256352,000000A9,false,Rx,0,8,11,00,A0,EF,11,BB,0F,FA,
3256596,000000AA,false,Rx,0,8,A0,F0,10,00,00,00,F4,00,
3264500,000000C4,false,Rx,0,7,51,FF,FD,00,00,FF,F1,00,
3266172,000000A8,false,Rx,0,8,A3,01,FA,00,00,0D,CF,22,
3266406,000000A9,false,Rx,0,8,12,01,A0,EF,11,BB,0F,FA,
3266640,000000AA,false,Rx,0,8,A1,F1,10,00,00,00,F4,00,
3273177,000002FC,false,Rx,0,7,80,00,00,FF,FF,FF,FF,00,
3274504,000000C4,false,Rx,0,7,51,FF,FD,00,00,FF,F1,00,
3274750,000000CE,false,Rx,0,8,00,00,00,00,00,00,00,00,
3274941,000000B6,false,Rx,0,5,43,04,80,00,08,00,00,00,
3275210,0000019E,false,Rx,0,8,00,EA,9F,FC,FE,63,00,89,
3275468,000001A0,false,Rx,0,8,00,80,00,C0,FF,0F,40,32,
3275738,000002B2,false,Rx,0,8,00,00,00,00,30,00,00,04,
3276150,000000A8,false,Rx,0,8,A4,02,FA,00,00,0D,CF,22,
3276385,000000A9,false,Rx,0,8,13,02,A0,EF,11,BB,0F,FA,
3276622,000000AA,false,Rx,0,8,A2,F2,10,00,00,00,F4,00,
3284506,000000C4,false,Rx,0,7,51,FF,FD,00,00,FF,F1,00,
3286177,000000A8,false,Rx,0,8,A5,03,FA,00,00,0D,CF,22,
3286401,000000A9,false,Rx,0,8,14,03,A0,EF,11,BB,0F,FA,
3286646,000000AA,false,Rx,0,8,A3,F3,10,00,00,00,F4,00,
3292993,00000130,false,Rx,0,5,00,0D,D0,0F,01,00,00,00,
3294707,000000C4,false,Rx,0,7,51,FF,FD,00,00,FF,F1,00,
3294965,000000CE,false,Rx,0,8,00,00,00,00,00,00,00,00,
3295143,000000B6,false,Rx,0,5,44,05,80,00,08,00,00,00,
3295311,00000194,false,Rx,0,4,F2,F5,00,FC,00,00,00,00,
3295544,0000019E,false,Rx,0,8,00,EA,9F,FC,FE,63,00,89,
3295680,000001D6,false,Rx,0,2,C0,0C,00,00,00,00,00,00,
3295925,000001A0,false,Rx,0,8,00,80,00,C0,FF,12,50,45,
3296161,000000A8,false,Rx,0,8,A6,04,FA,00,00,0D,CF,22,
3296385,000000A9,false,Rx,0,8,15,04,A0,EF,11,BB,0F,FA,
3296632,000000AA,false,Rx,0,8,A4,F4,10,00,00,00,F4,00,
3296768,000001FB,false,Rx,0,2,F0,FF,00,00,00,00,00,00,
3296901,000002A6,false,Rx,0,2,00,F8,00,00,00,00,00,00,
3297148,000002B2,false,Rx,0,8,00,00,00,00,40,00,00,04,
3304526,000000C4,false,Rx,0,7,51,FF,FD,00,00,FF,F1,00,
3306142,000000A8,false,Rx,0,8,A7,05,FA,00,00,0D,CF,22,
3306365,000000A9,false,Rx,0,8,16,05,A0,EF,11,BB,0F,FA,
3306610,000000AA,false,Rx,0,8,A5,F5,10,00,00,00,F4,00,
3314536,000000C4,false,Rx,0,7,51,FF,FD,00,00,FF,F1,00,
3314788,000000CE,false,Rx,0,8,00,00,00,00,00,00,00,00,
3314980,000000B6,false,Rx,0,5,45,06,80,00,08,00,00,00,
3315248,0000019E,false,Rx,0,8,00,EA,9F,FC,FE,63,00,89,
3315505,000001A0,false,Rx,0,8,00,80,00,C0,FF,0F,60,52,
3315775,000002B2,false,Rx,0,8,00,00,00,00,30,00,00,04,
3316143,000000A8,false,Rx,0,8,A8,06,FA,00,00,0D,CF,22,
3316378,000000A9,false,Rx,0,8,17,06,A0,EF,11,BB,0F,FA,
3316611,000000AA,false,Rx,0,8,A6,F6,10,00,00,00,F4,00,
3316846,000001D0,false,Rx,0,8,40,3C,03,C6,FC,60,8D,AA,
3324499,000000C4,false,Rx,0,7,51,FF,FD,00,00,FF,F1,00,
3324706,000000C8,false,Rx,0,6,51,FF,81,00,00,BC,00,00,
3325895,00000480,false,Rx,0,8,12,42,FD,01,FF,FF,FF,FF,
3326153,000000A8,false,Rx,0,8,A9,07,FA,00,00,0D,CF,22,
3326388,000000A9,false,Rx,0,8,18,07,A0,EF,11,BB,0F,FA,
3326626,000000AA,false,Rx,0,8,A7,F7,10,00,00,00,F4,00,
3334484,000000C4,false,Rx,0,7,51,FF,FD,00,00,FF,F1,00,
3334736,000000CE,false,Rx,0,8,00,00,00,00,00,00,00,00,
3334950,000000B6,false,Rx,0,5,46,07,80,00,08,00,00,00,
3335274,0000019E,false,Rx,0,8,00,EA,9F,FC,FE,63,00,89,
3335531,000001A0,false,Rx,0,8,00,80,00,C0,FF,0F,70,62,
3335800,000001A6,false,Rx,0,8,00,00,00,00,00,00,E0,FE,
3336058,000002B2,false,Rx,0,8,00,00,00,00,30,00,00,04,
3336293,000000A8,false,Rx,0,8,AA,08,FA,00,00,0D,CF,22,
3336548,000000A9,false,Rx,0,8,19,08,A0,EF,11,BB,0F,FA,
3336772,000000AA,false,Rx,0,8,A8,F8,10,00,00,00,F4,00,
3336963,00000374,false,Rx,0,5,00,00,FF,FF,FC,00,00,00,
3344472,000000C4,false,Rx,0,7,4F,FF,FD,F5,FF,FF,F1,00,
3346133,000000A8,false,Rx,0,8,AB,09,FA,00,00,0D,CF,22,
3346368,000000A9,false,Rx,0,8,1A,09,A0,EF,11,BB,0F,FA,
3346601,000000AA,false,Rx,0,8,A9,F9,10,00,00,00,F4,00,
3354473,000000C4,false,Rx,0,7,51,FF,FD,F5,FF,FF,F1,00,
3354725,000000CE,false,Rx,0,8,00,00,00,00,00,00,00,00,
3354906,000000B6,false,Rx,0,5,47,08,80,00,08,00,00,00,
3355174,0000019E,false,Rx,0,8,00,EA,9F,FC,FE,63,00,89,
3355431,000001A0,false,Rx,0,8,00,80,00,C0,FF,12,80,75,
3355689,000002B2,false,Rx,0,8,00,00,00,00,40,00,00,04,
3356136,000000A8,false,Rx,0,8,AC,0A,FA,00,00,0D,CF,22,
3356371,000000A9,false,Rx,0,8,1B,0A,A0,EF,11,BB,0F,FA,
3356615,000000AA,false,Rx,0,8,AA,FA,10,00,00,00,F4,00,
3364475,000000C4,false,Rx,0,7,51,FF,FD,00,00,FF,F1,00,
3366147,000000A8,false,Rx,0,8,AD,0B,FA,00,00,0D,CF,22,
3366383,000000A9,false,Rx,0,8,1C,0B,A0,EF,11,BB,0F,FA,
3366615,000000AA,false,Rx,0,8,AB,FB,10,00,00,00,F4,00,
3374465,000000C4,false,Rx,0,7,51,FF,FD,00,00,FF,F1,00,
3374717,000000CE,false,Rx,0,8,00,00,00,00,00,00,00,00,
3374909,000000B6,false,Rx,0,5,48,09,80,00,08,00,00,00,
3375166,0000019E,false,Rx,0,8,00,EA,9F,FC,FE,63,00,89,
3375423,000001A0,false,Rx,0,8,00,80,00,D0,FF,12,90,95,
3375681,000002B2,false,Rx,0,8,00,00,00,00,40,00,00,04,
3376138,000000A8,false,Rx,0,8,AE,0C,FA,00,00,0D,CF,22,
3376375,000000A9,false,Rx,0,8,1D,0C,A0,EF,11,BB,0F,FA,
3376617,000000AA,false,Rx,0,8,AC,FC,10,00,00,00,F4,00,
3384467,000000C4,false,Rx,0,7,51,FF,FD,00,00,FF,F1,00,
3386127,000000A8,false,Rx,0,8,AF,0D,FA,00,00,0D,CF,22,
3386352,000000A9,false,Rx,0,8,1E,0D,A0,EF,11,BB,0F,FA,
3386595,000000AA,false,Rx,0,8,AD,FD,10,00,00,00,F4,00,
3392885,00000130,false,Rx,0,5,00,0D,D0,0F,22,00,00,00,
3394591,000000C4,false,Rx,0,7,51,FF,FD,00,00,FF,F1,00,
3394849,000000CE,false,Rx,0,8,00,00,00,00,00,00,00,00,
3395027,000000B6,false,Rx,0,5,49,0A,80,00,08,00,00,00,
3395305,0000019E,false,Rx,0,8,00,EA,AF,FC,FE,63,00,99,
3395563,000001A0,false,Rx,0,8,00,80,00,C0,FF,0F,A0,92,
3395831,000002B2,false,Rx,0,8,00,00,00,00,30,00,00,04,
3396145,000000A8,false,Rx,0,8,B0,0E,FA,00,00,0D,CF,22,
3396381,000000A9,false,Rx,0,8,1F,0E,A0,EF,11,BB,0F,FA,
3396615,000000AA,false,Rx,0,8,AE,FE,10,00,00,00,F4,00,
3404531,000000C4,false,Rx,0,7,51,FF,FD,00,00,FF,F1,00,
3406147,000000A8,false,Rx,0,8,A2,00,FA,00,00,0D,CF,22,
3406383,000000A9,false,Rx,0,8,11,00,A0,EF,11,BB,0F,FA,
3406626,000000AA,false,Rx,0,8,A0,F0,10,00,00,00,F4,00,
3413042,000002F6,false,Rx,0,2,00,F5,00,00,00,00,00,00,
3414545,000000C4,false,Rx,0,7,51,FF,FD,00,00,FF,F1,00,
3414792,000000CE,false,Rx,0,8,00,00,00,00,00,00,00,00,
3414982,000000B6,false,Rx,0,5,4A,0B,80,00,08,00,00,00,
3415261,0000019E,false,Rx,0,8,00,EA,AF,FC,FE,63,00,99,
3415530,000001A0,false,Rx,0,8,00,80,00,A0,FF,0F,B0,82,
3415787,000002B2,false,Rx,0,8,00,00,00,00,30,00,00,04,
3416144,000000A8,false,Rx,0,8,A3,01,FA,00,00,0D,CF,22,
3416380,000000A9,false,Rx,0,8,12,01,A0,EF,11,BB,0F,FA,
3416615,000000AA,false,Rx,0,8,A1,F1,10,00,00,00,F4,00,
3416850,000001D0,false,Rx,0,8,40,3C,04,C6,FC,60,8D,AA,
3424510,000000C4,false,Rx,0,7,51,FF,FD,00,00,FF,F1,00,
3426127,000000A8,false,Rx,0,8,A4,02,FA,00,00,0D,CF,22,
3426363,000000A9,false,Rx,0,8,13,02,A0,EF,11,BB,0F,FA,
3426596,000000AA,false,Rx,0,8,A2,F2,10,00,00,00,F4,00,
3434479,000000C4,false,Rx,0,7,51,FF,FD,00,00,FF,F1,00,
3434732,000000CE,false,Rx,0,8,00,00,00,00,00,00,00,00,
3434912,000000B6,false,Rx,0,5,4B,0C,80,00,08,00,00,00,
3435224,0000019E,false,Rx,0,8,00,EA,AF,FC,FE,63,00,99,
3435482,000001A0,false,Rx,0,8,00,80,00,C0,FF,0F,C0,B2,
3435750,000001A6,false,Rx,0,8,00,00,00,00,00,00,70,F0,
3436008,000002B2,false,Rx,0,8,00,00,00,00,30,00,00,04,
3436256,00000492,false,Rx,0,8,17,52,FF,FF,FF,FF,FF,FF,
3436502,000000A8,false,Rx,0,8,A5,03,FA,00,00,0D,CF,22,
3436724,000000A9,false,Rx,0,8,14,03,A0,EF,11,BB,0F,FA,
3436970,000000AA,false,Rx,0,8,A3,F3,10,00,00,00,F4,00,
3444491,000000C4,false,Rx,0,7,51,FF,FD,00,00,FF,F1,00,
3446151,000000A8,false,Rx,0,8,A6,04,FA,00,00,0D,CF,22,
3446387,000000A9,false,Rx,0,8,15,04,A0,EF,11,BB,0F,FA,
3446619,000000AA,false,Rx,0,8,A4,F4,10,00,00,00,F4,00,
3454479,000000C4,false,Rx,0,7,51,FF,FD,00,00,FF,F1,00,
3454733,000000CE,false,Rx,0,8,00,00,00,00,00,00,00,00,
3454912,000000B6,false,Rx,0,5,4C,0D,80,00,08,00,00,00,
3455181,0000019E,false,Rx,0,8,00,EA,AF,FC,FE,63,00,99,
3455437,000001A0,false,Rx,0,8,00,80,00,A0,FF,0F,D0,A2,
3455696,000002B2,false,Rx,0,8,00,00,00,00,30,00,00,04,
3456130,000000A8,false,Rx,0,8,A7,05,FA,00,00,0D,CF,22,
3456366,000000A9,false,Rx,0,8,16,05,A0,EF,11,BB,0F,FA,
3456609,000000AA,false,Rx,0,8,A5,F5,10,00,00,00,F4,00,
3464481,000000C4,false,Rx,0,7,4F,FF,FD,EC,FF,FF,F1,00,
3466119,000000A8,false,Rx,0,8,A8,06,FA,00,00,0D,CF,22,
3466355,000000A9,false,Rx,0,8,17,06,A0,EF,11,BB,0F,FA,
3466588,000000AA,false,Rx,0,8,A6,F6,10,00,00,00,F4,00,
3474470,000000C4,false,Rx,0,7,51,FF,FD,EC,FF,FF,F1,00,
3474723,000000CE,false,Rx,0,8,00,00,00,00,00,00,00,00,
3474914,000000B6,false,Rx,0,5,4D,0E,80,00,08,00,00,00,
3475182,0000019E,false,Rx,0,8,00,EA,AF,FC,FE,63,00,99,
3475440,000001A0,false,Rx,0,8,00,80,00,D0,FF,12,E0,E5,
3475697,000002B2,false,Rx,0,8,00,00,00,00,40,00,00,04,
3476121,000000A8,false,Rx,0,8,A9,07,FA,00,00,0D,CF,22,
3476346,000000A9,false,Rx,0,8,18,07,A0,EF,11,BB,0F,FA,
3476589,000000AA,false,Rx,0,8,A7,F7,10,00,00,00,F4,00,
3484472,000000C4,false,Rx,0,7,51,FF,FD,00,00,FF,F1,00,
3486122,000000A8,false,Rx,0,8,AA,08,FA,00,00,0D,CF,22,
3486358,000000A9,false,Rx,0,8,19,08,A0,EF,11,BB,0F,FA,
3486601,000000AA,false,Rx,0,8,A8,F8,10,00,00,00,F4,00,
3487314,000001FB,false,Rx,0,2,F1,FF,00,00,00,00,00,00,
3492961,00000130,false,Rx,0,5,00,0D,D0,0F,33,00,00,00,
3494621,000000C4,false,Rx,0,7,51,FF,FD,00,00,FF,F1,00,
3494867,000000CE,false,Rx,0,8,00,00,00,00,00,00,00,00,
3495056,000000B6,false,Rx,0,5,3F,00,80,00,08,00,00,00,
3495224,00000194,false,Rx,0,4,F3,F6,00,FC,00,00,00,00,
3495459,0000019E,false,Rx,0,8,00,EA,AF,FC,FE,63,00,99,
3495716,000001A0,false,Rx,0,8,00,80,00,A0,FF,12,00,D4,
3495984,000002B2,false,Rx,0,8,00,00,00,00,40,00,00,04,
3496221,000000A8,false,Rx,0,8,AB,09,FA,00,00,0D,CF,22,
3496445,000000A9,false,Rx,0,8,1A,09,A0,EF,11,BB,0F,FA,
3496691,000000AA,false,Rx,0,8,A9,F9,10,00,00,00,F4,00,
3504563,000000C4,false,Rx,0,7,51,FF,FD,00,00,FF,F1,00,
3506137,000000A8,false,Rx,0,8,AC,0A,FA,00,00,0D,CF,22,
3506361,000000A9,false,Rx,0,8,1B,0A,A0,EF,11,BB,0F,FA,
3506615,000000AA,false,Rx,0,8,AA,FA,10,00,00,00,F4,00,
3514588,000000C4,false,Rx,0,7,51,FF,FD,00,00,FF,F1,00,
3514840,000000CE,false,Rx,0,8,00,00,00,00,00,00,00,00,
3515020,000000B6,false,Rx,0,5,40,01,80,00,08,00,00,00,
3515299,0000019E,false,Rx,0,8,00,EA,AF,FC,FE,63,00,99,
3515557,000001A0,false,Rx,0,8,00,80,00,C0,FF,12,10,05,
3515814,000002B2,false,Rx,0,8,00,00,00,00,40,00,00,04,
3516173,000000A8,false,Rx,0,8,AD,0B,FA,00,00,0D,CF,22,
3516397,000000A9,false,Rx,0,8,1C,0B,A0,EF,11,BB,0F,FA,
3516650,000000AA,false,Rx,0,8,AB,FB,10,00,00,00,F4,00,
3516874,000001D0,false,Rx,0,8,40,3C,04,C6,FC,60,8D,AA,
3518485,00000497,false,Rx,0,8,29,52,FF,FF,FF,FF,FF,FF,
3524553,000000C4,false,Rx,0,7,51,FF,FD,00,00,FF,F1,00,
3524762,000000C8,false,Rx,0,6,51,FF,D1,00,00,BC,00,00,
3526151,000000A8,false,Rx,0,8,AE,0C,FA,00,00,0D,CF,22,
3526385,000000A9,false,Rx,0,8,1D,0C,A0,EF,11,BB,0F,FA,
3526620,000000AA,false,Rx,0,8,AC,FC,10,00,00,00,F4,00,
3534512,000000C4,false,Rx,0,7,51,FF,FD,00,00,FF,F1,00,
3534754,000000CE,false,Rx,0,8,00,00,00,00,00,00,00,00,
3534945,000000B6,false,Rx,0,5,41,02,80,00,08,00,00,00,
3535246,0000019E,false,Rx,0,8,00,EA,AF,FC,FE,63,00,99,
3535516,000001A0,false,Rx,0,8,00,80,00,C0,FF,12,20,15,
3535773,000001A6,false,Rx,0,8,00,00,00,00,00,00,00,F2,
3536042,000002B2,false,Rx,0,8,00,00,00,00,40,00,00,04,
3536278,000000A8,false,Rx,0,8,AF,0D,FA,00,00,0D,CF,22,
3536501,000000A9,false,Rx,0,8,1E,0D,A0,EF,11,BB,0F,FA,
3536746,000000AA,false,Rx,0,8,AD,FD,10,00,00,00,F4,00,
3544520,000000C4,false,Rx,0,7,51,FF,FD,00,00,FF,F1,00,
3546160,000000A8,false,Rx,0,8,B0,0E,FA,00,00,0D,CF,22,
3546394,000000A9,false,Rx,0,8,1F,0E,A0,EF,11,BB,0F,FA,
3546638,000000AA,false,Rx,0,8,AE,FE,10,00,00,00,F4,00,
3554523,000000C4,false,Rx,0,7,51,FF,FD,00,00,FF,F1,00,
3554764,000000CE,false,Rx,0,8,00,00,00,00,00,00,00,00,
3554954,000000B6,false,Rx,0,5,42,03,80,00,08,00,00,00,
3555223,0000019E,false,Rx,0,8,00,EA,AF,FC,FE,63,00,99,
3555481,000001A0,false,Rx,0,8,00,80,00,C0,FF,0F,30,22,
3555749,000002B2,false,Rx,0,8,00,00,00,00,30,00,00,04,
3556163,000000A8,false,Rx,0,8,A2,00,FA,00,00,0D,CF,22,
3556398,000000A9,false,Rx,0,8,11,00,A0,EF,11,BB,0F,FA,
3556641,000000AA,false,Rx,0,8,A0,F0,10,00,00,00,F4,00,
3564502,000000C4,false,Rx,0,7,4F,FF,FD,E7,FF,FF,F1,00,
3566174,000000A8,false,Rx,0,8,A3,01,FA,00,00,0D,CF,22,
3566398,000000A9,false,Rx,0,8,12,01,A0,EF,11,BB,0F,FA,
3566641,000000AA,false,Rx,0,8,A1,F1,10,00,00,00,F4,00,
3574479,000000C4,false,Rx,0,7,51,FF,FD,E7,FF,FF,F1,00,
3574721,000000CE,false,Rx,0,8,00,00,00,00,00,00,00,00,
3574912,000000B6,false,Rx,0,5,43,04,80,00,08,00,00,00,
3575136,00000310,false,Rx,0,7,6E,5E,05,00,00,42,20,00,
3575372,0000019E,false,Rx,0,8,00,EA,AF,FC,FE,63,00,99,
3575629,000001A0,false,Rx,0,8,00,80,00,C0,FF,12,40,35,
3575886,000002B2,false,Rx,0,8,00,00,00,00,40,00,00,04,
3576146,000000A8,false,Rx,0,8,A4,02,FA,00,00,0D,CF,22,
3576380,000000A9,false,Rx,0,8,13,02,A0,EF,11,BB,0F,FA,
3576614,000000AA,false,Rx,0,8,A2,F2,10,00,00,00,F4,00,
3584497,000000C4,false,Rx,0,7,51,FF,FD,00,00,FF,F1,00,
3586180,000000A8,false,Rx,0,8,A5,03,FA,00,00,0D,CF,22,
3586403,000000A9,false,Rx,0,8,14,03,A0,EF,11,BB,0F,FA,
3586647,000000AA,false,Rx,0,8,A3,F3,10,00,00,00,F4,00,
3592870,00000130,false,Rx,0,5,00,0D,D0,0F,44,00,00,00,
3594599,000000C4,false,Rx,0,7,51,FF,FD,00,00,FF,F1,00,
3594844,000000CE,false,Rx,0,8,00,00,00,00,00,00,00,00,
3595034,000000B6,false,Rx,0,5,44,05,80,00,08,00,00,00,
3595302,0000019E,false,Rx,0,8,00,EA,AF,FC,FE,63,00,99,
3595559,000001A0,false,Rx,0,8,00,80,00,C0,FF,0F,50,42,
3595827,000002B2,false,Rx,0,8,00,00,00,00,30,00,00,04,
3596153,000000A8,false,Rx,0,8,A6,04,FA,00,00,0D,CF,22,
3596377,000000A9,false,Rx,0,8,15,04,A0,EF,11,BB,0F,FA,
3596623,000000AA,false,Rx,0,8,A4,F4,10,00,00,00,F4,00,
3604529,000000C4,false,Rx,0,7,51,FF,FD,00,00,FF,F1,00,
3606156,000000A8,false,Rx,0,8,A7,05,FA,00,00,0D,CF,22,
3606380,000000A9,false,Rx,0,8,16,05,A0,EF,11,BB,0F,FA,
3606623,000000AA,false,Rx,0,8,A5,F5,10,00,00,00,F4,00,
3614551,000000C4,false,Rx,0,7,51,FF,FD,00,00,FF,F1,00,
3614803,000000CE,false,Rx,0,8,00,00,00,00,00,00,00,00,
3614995,000000B6,false,Rx,0,5,45,06,80,00,08,00,00,00,
3615275,0000019E,false,Rx,0,8,00,EA,BF,FC,FE,63,00,A9,
3615532,000001A0,false,Rx,0,8,00,80,00,C0,FF,0F,60,52,
3615800,000002B2,false,Rx,0,8,00,00,00,00,30,00,00,04,
3616059,000004A9,false,Rx,0,8,30,52,FF,FF,FF,FF,FF,FF,
3616294,000000A8,false,Rx,0,8,A8,06,FA,00,00,0D,CF,22,
3616528,000000A9,false,Rx,0,8,17,06,A0,EF,11,BB,0F,FA,
3616764,000000AA,false,Rx,0,8,A6,F6,10,00,00,00,F4,00,
3617000,000001D0,false,Rx,0,8,40,3C,05,C6,FC,60,8D,AA,
3624506,000000C4,false,Rx,0,7,51,FF,FD,00,00,FF,F1,00,
3626134,000000A8,false,Rx,0,8,A9,07,FA,00,00,0D,CF,22,
3626369,000000A9,false,Rx,0,8,18,07,A0,EF,11,BB,0F,FA,
3626613,000000AA,false,Rx,0,8,A7,F7,10,00,00,00,F4,00,
3634486,000000C4,false,Rx,0,7,51,FF,FD,00,00,FF,F1,00,
3634738,000000CE,false,Rx,0,8,00,00,00,00,00,00,00,00,
3634918,000000B6,false,Rx,0,5,46,07,80,00,08,00,00,00,
3635242,0000019E,false,Rx,0,8,00,EA,BF,FC,FE,63,00,A9,
3635499,000001A0,false,Rx,0,8,00,80,00,C0,FF,12,70,65,
3635767,000001A6,false,Rx,0,8,00,00,00,00,00,00,90,F3,
3636027,000002B2,false,Rx,0,8,00,00,00,00,40,00,00,04,
3636262,000000A8,false,Rx,0,8,AA,08,FA,00,00,0D,CF,22,
3636497,000000A9,false,Rx,0,8,19,08,A0,EF,11,BB,0F,FA,
3636732,000000AA,false,Rx,0,8,A8,F8,10,00,00,00,F4,00,
3644481,000000C4,false,Rx,0,7,4F,FF,FD,E1,FF,FF,F1,00,
3646174,000000A8,false,Rx,0,8,AB,09,FA,00,00,0D,CF,22,
3646409,000000A9,false,Rx,0,8,1A,09,A0,EF,11,BB,0F,FA,
3646641,000000AA,false,Rx,0,8,A9,F9,10,00,00,00,F4,00,
3654481,000000C4,false,Rx,0,7,51,FF,FD,E1,FF,FF,F1,00,
3654732,000000CE,false,Rx,0,8,00,00,00,00,00,00,00,00,
3654923,000000B6,false,Rx,0,5,47,08,80,00,08,00,00,00,
3655181,0000019E,false,Rx,0,8,00,EA,BF,FC,FE,63,00,A9,
3655438,000001A0,false,Rx,0,8,00,80,00,C0,FF,12,80,75,
3655706,000002B2,false,Rx,0,8,00,00,00,00,40,00,00,04,
3656120,000000A8,false,Rx,0,8,AC,0A,FA,00,00,0D,CF,22,
3656344,000000A9,false,Rx,0,8,1B,0A,A0,EF,11,BB,0F,FA,
3656587,000000AA,false,Rx,0,8,AA,FA,10,00,00,00,F4,00,
3664482,000000C4,false,Rx,0,7,51,FF,FD,00,00,FF,F1,00,
3666131,000000A8,false,Rx,0,8,AD,0B,FA,00,00,0D,CF,22,
3666366,000000A9,false,Rx,0,8,1C,0B,A0,EF,11,BB,0F,FA,
3666599,000000AA,false,Rx,0,8,AB,FB,10,00,00,00,F4,00,
3674482,000000C4,false,Rx,0,7,51,FF,FD,00,00,FF,F1,00,
3674734,000000CE,false,Rx,0,8,00,00,00,00,00,00,00,00,
3674925,000000B6,false,Rx,0,5,48,09,80,00,08,00,00,00,
3675184,0000019E,false,Rx,0,8,00,EA,BF,FC,FE,63,00,A9,
3675451,000001A0,false,Rx,0,8,00,80,00,A0,FF,12,90,65,
3675708,000002B2,false,Rx,0,8,00,00,00,00,40,00,00,04,
3676111,000000A8,false,Rx,0,8,AE,0C,FA,00,00,0D,CF,22,
3676346,000000A9,false,Rx,0,8,1D,0C,A0,EF,11,BB,0F,FA,
3676589,000000AA,false,Rx,0,8,AC,FC,10,00,00,00,F4,00,
3677335,000001FB,false,Rx,0,2,F2,FF,00,00,00,00,00,00,
3684488,000000C4,false,Rx,0,7,51,FF,FD,00,00,FF,F1,00,
3686148,000000A8,false,Rx,0,8,AF,0D,FA,00,00,0D,CF,22,
3686372,000000A9,false,Rx,0,8,1E,0D,A0,EF,11,BB,0F,FA,
3686617,000000AA,false,Rx,0,8,AD,FD,10,00,00,00,F4,00,
3694569,000000C4,false,Rx,0,7,51,FF,FD,00,00,FF,F1,00,
3694821,000000CE,false,Rx,0,8,00,00,00,00,00,00,00,00,
3695001,000000B6,false,Rx,0,5,49,0A,80,00,08,00,00,00,
3695193,00000130,false,Rx,0,5,00,0D,D0,0F,55,00,00,00,
3695349,00000194,false,Rx,0,4,F4,F7,00,FC,00,00,00,00,
3695583,0000019E,false,Rx,0,8,00,EA,BF,FC,FE,63,00,A9,
3695852,000001A0,false,Rx,0,8,00,80,00,A0,FF,0F,A0,72,
3696110,000002B2,false,Rx,0,8,00,00,00,00,30,00,00,04,
3696345,000000A8,false,Rx,0,8,B0,0E,FA,00,00,0D,CF,22,
3696580,000000A9,false,Rx,0,8,1F,0E,A0,EF,11,BB,0F,FA,
3696828,000000AA,false,Rx,0,8,AE,FE,10,00,00,00,F4,00,
3704566,000000C4,false,Rx,0,7,4F,FF,FD,D3,FF,FF,F1,00,
3706138,000000A8,false,Rx,0,8,A2,00,FA,00,00,0D,CF,22,
3706372,000000A9,false,Rx,0,8,11,00,A0,EF,11,BB,0F,FA,
3706628,000000AA,false,Rx,0,8,A0,F0,10,00,00,00,F4,00,
3706863,000004B0,false,Rx,0,8,00,52,FE,01,FF,FF,FF,FF,
3714595,000000C4,false,Rx,0,7,51,FF,FD,D3,FF,FF,F1,00,
3714847,000000CE,false,Rx,0,8,00,00,00,00,00,00,00,00,
3715027,000000B6,false,Rx,0,5,4A,0B,80,00,08,00,00,00,
3715307,0000019E,false,Rx,0,8,00,EA,BF,FC,FE,63,00,A9,
3715564,000001A0,false,Rx,0,8,00,80,00,A0,FF,12,B0,85,
3715822,000002B2,false,Rx,0,8,00,00,00,00,40,00,00,04,
3716125,000000A8,false,Rx,0,8,A3,01,FA,00,00,0D,CF,22,
3716360,000000A9,false,Rx,0,8,12,01,A0,EF,11,BB,0F,FA,
3716596,000000AA,false,Rx,0,8,A1,F1,10,00,00,00,F4,00,
3716830,000001D0,false,Rx,0,8,40,3C,05,C6,FC,60,8D,AA,
3724514,000000C4,false,Rx,0,7,51,FF,FD,00,00,FF,F1,00,
3724722,000000C8,false,Rx,0,6,51,FF,31,00,00,BC,00,00,
3726154,000000A8,false,Rx,0,8,A4,02,FA,00,00,0D,CF,22,
3726378,000000A9,false,Rx,0,8,13,02,A0,EF,11,BB,0F,FA,
3726625,000000AA,false,Rx,0,8,A2,F2,10,00,00,00,F4,00,
3734486,000000C4,false,Rx,0,7,51,FF,FD,00,00,FF,F1,00,
3734738,000000CE,false,Rx,0,8,00,00,00,00,00,00,00,00,
3734918,000000B6,false,Rx,0,5,4B,0C,80,00,08,00,00,00,
3735220,0000019E,false,Rx,0,8,00,EA,BF,FC,FE,63,00,A9,
3735477,000001A0,false,Rx,0,8,00,80,00,C0,FF,12,C0,B5,
3735745,000001A6,false,Rx,0,8,00,00,00,00,00,00,20,F5,
3736015,000002B2,false,Rx,0,8,00,00,00,00,40,00,00,04,
3736250,000000A8,false,Rx,0,8,A5,03,FA,00,00,0D,CF,22,
3736485,000000A9,false,Rx,0,8,14,03,A0,EF,11,BB,0F,FA,
3736720,000000AA,false,Rx,0,8,A3,F3,10,00,00,00,F4,00,
3744481,000000C4,false,Rx,0,7,51,FF,FD,00,00,FF,F1,00,
3746085,000000A8,false,Rx,0,8,A6,04,FA,00,00,0D,CF,22,
3746320,000000A9,false,Rx,0,8,15,04,A0,EF,11,BB,0F,FA,
3746554,000000AA,false,Rx,0,8,A4,F4,10,00,00,00,F4,00,
3754503,000000C4,false,Rx,0,7,4F,FF,FD,00,00,FF,F1,00,
3754755,000000CE,false,Rx,0,8,00,00,00,00,00,00,00,00,
3754935,000000B6,false,Rx,0,5,4C,0D,80,00,08,00,00,00,
3755193,0000019E,false,Rx,0,8,00,EA,BF,FC,FE,63,00,A9,
3755461,000001A0,false,Rx,0,8,00,80,00,C0,FF,0F,D0,C2,
3755718,000002B2,false,Rx,0,8,00,00,00,00,30,00,00,04,
3756110,000000A8,false,Rx,0,8,A7,05,FA,00,00,0D,CF,22,
3756345,000000A9,false,Rx,0,8,16,05,A0,EF,11,BB,0F,FA,
3756589,000000AA,false,Rx,0,8,A5,F5,10,00,00,00,F4,00,
3764516,000000C4,false,Rx,0,7,51,FF,FD,E4,00,FF,F1,00,
3766155,000000A8,false,Rx,0,8,A8,06,FA,00,00,0D,CF,22,
3766379,000000A9,false,Rx,0,8,17,06,A0,EF,11,BB,0F,FA,
3766624,000000AA,false,Rx,0,8,A6,F6,10,00,00,00,F4,00,
3774507,000000C4,false,Rx,0,7,51,FF,FD,E4,00,FF,F1,00,
3774759,000000CE,false,Rx,0,8,00,00,00,00,00,00,00,00,
3774951,000000B6,false,Rx,0,5,4D,0E,80,00,08,00,00,00,
3775219,0000019E,false,Rx,0,8,00,EA,BF,FC,FE,63,00,A9,
3775476,000001A0,false,Rx,0,8,00,80,00,C0,FF,12,E0,D5,
3775745,000002B2,false,Rx,0,8,00,00,00,00,40,00,00,04,
3776114,000000A8,false,Rx,0,8,A9,07,FA,00,00,0D,CF,22,
3776349,000000A9,false,Rx,0,8,18,07,A0,EF,11,BB,0F,FA,
3776581,000000AA,false,Rx,0,8,A7,F7,10,00,00,00,F4,00,
3784510,000000C4,false,Rx,0,7,51,FF,FD,00,00,FF,F1,00,
3786127,000000A8,false,Rx,0,8,AA,08,FA,00,00,0D,CF,22,
3786362,000000A9,false,Rx,0,8,19,08,A0,EF,11,BB,0F,FA,
3786606,000000AA,false,Rx,0,8,A8,F8,10,00,00,00,F4,00,
3792894,00000130,false,Rx,0,5,00,0D,D0,0F,66,00,00,00,
3794631,000000C4,false,Rx,0,7,51,FF,FD,00,00,FF,F1,00,
3794888,000000CE,false,Rx,0,8,00,00,00,00,00,00,00,00,
3795067,000000B6,false,Rx,0,5,3F,00,80,00,08,00,00,00,
3795346,0000019E,false,Rx,0,8,00,EA,BF,FC,FE,63,00,A9,
3795603,000001A0,false,Rx,0,8,00,80,00,C0,FF,0F,00,F1,
3795861,000002B2,false,Rx,0,8,00,00,00,00,30,00,00,04,
3796108,000000A8,false,Rx,0,8,AB,09,FA,00,00,0D,CF,22,
3796343,000000A9,false,Rx,0,8,1A,09,A0,EF,11,BB,0F,FA,
3796579,000000AA,false,Rx,0,8,A9,F9,10,00,00,00,F4,00,
3804572,000000C4,false,Rx,0,7,51,FF,FD,00,00,FF,F1,00,
3805922,00000480,false,Rx,0,8,12,42,FD,01,FF,FF,FF,FF,
3806158,000000A8,false,Rx,0,8,AC,0A,FA,00,00,0D,CF,22,
3806393,000000A9,false,Rx,0,8,1B,0A,A0,EF,11,BB,0F,FA,
3806629,000000AA,false,Rx,0,8,AA,FA,10,00,00,00,F4,00,
3814588,000000C4,false,Rx,0,7,51,FF,FD,00,00,FF,F1,00,
3814840,000000CE,false,Rx,0,8,00,00,00,00,00,00,00,00,
3815033,000000B6,false,Rx,0,5,40,01,80,00,08,00,00,00,
3815300,0000019E,false,Rx,0,8,00,EA,CF,FC,FE,63,00,B9,
3815568,000001A0,false,Rx,0,8,00,80,00,C0,FF,12,10,05,
3815827,000002B2,false,Rx,0,8,00,00,00,00,40,00,00,04,
3816130,000000A8,false,Rx,0,8,AD,0B,FA,00,00,0D,CF,22,
3816354,000000A9,false,Rx,0,8,1C,0B,A0,EF,11,BB,0F,FA,
3816601,000000AA,false,Rx,0,8,AB,FB,10,00,00,00,F4,00,
3816824,000001B6,false,Rx,0,7,FF,00,00,00,00,AC,24,00,
3817060,000001D0,false,Rx,0,8,40,3C,06,C6,FC,60,8D,AA,
3817207,000002F3,false,Rx,0,3,02,FC,F4,00,00,00,00,00,
3824536,000000C4,false,Rx,0,7,51,FF,FD,00,00,FF,F1,00,
3826152,000000A8,false,Rx,0,8,AE,0C,FA,00,00,0D,CF,22,
3826387,000000A9,false,Rx,0,8,1D,0C,A0,EF,11,BB,0F,FA,
3826631,000000AA,false,Rx,0,8,AC,FC,10,00,00,00,F4,00,
3834490,000000C4,false,Rx,0,7,51,FF,FD,00,00,FF,F1,00,
3834742,000000CE,false,Rx,0,8,00,00,00,00,00,00,00,00,
3834923,000000B6,false,Rx,0,5,41,02,80,00,08,00,00,00,
3835225,0000019E,false,Rx,0,8,00,EA,CF,FC,FE,63,00,B9,
3835482,000001A0,false,Rx,0,8,00,80,00,C0,FF,0F,20,12,
3835751,000001A6,false,Rx,0,8,00,00,00,00,00,00,B0,F6,
3836009,000002B2,false,Rx,0,8,00,00,00,00,30,00,00,04,
3836244,000000A8,false,Rx,0,8,AF,0D,FA,00,00,0D,CF,22,
3836480,000000A9,false,Rx,0,8,1E,0D,A0,EF,11,BB,0F,FA,
3836713,000000AA,false,Rx,0,8,AD,FD,10,00,00,00,F4,00,
3844497,000000C4,false,Rx,0,7,4F,FF,FD,E5,FF,FF,F1,00,
3846125,000000A8,false,Rx,0,8,B0,0E,FA,00,00,0D,CF,22,
3846361,000000A9,false,Rx,0,8,1F,0E,A0,EF,11,BB,0F,FA,
3846604,000000AA,false,Rx,0,8,AE,FE,10,00,00,00,F4,00,
3854488,000000C4,false,Rx,0,7,4F,FF,FD,E5,FF,FF,F1,00,
3854740,000000CE,false,Rx,0,8,00,00,00,00,00,00,00,00,
3854932,000000B6,false,Rx,0,5,42,03,80,00,08,00,00,00,
3855200,0000019E,false,Rx,0,8,00,EA,CF,FC,FE,63,00,B9,
3855457,000001A0,false,Rx,0,8,00,80,00,C0,FF,0F,30,22,
3855727,000002B2,false,Rx,0,8,00,00,00,00,30,00,00,04,
3856117,000000A8,false,Rx,0,8,A2,00,FA,00,00,0D,CF,22,
3856353,000000A9,false,Rx,0,8,11,00,A0,EF,11,BB,0F,FA,
3856596,000000AA,false,Rx,0,8,A0,F0,10,00,00,00,F4,00,
3864489,000000C4,false,Rx,0,7,51,FF,FD,71,00,FF,F1,00,
3866160,000000A8,false,Rx,0,8,A3,01,FA,00,00,0D,CF,22,
3866396,000000A9,false,Rx,0,8,12,01,A0,EF,11,BB,0F,FA,
3866629,000000AA,false,Rx,0,8,A1,F1,10,00,00,00,F4,00,
3867330,000001FB,false,Rx,0,2,F3,FF,00,00,00,00,00,00,
3874492,000000C4,false,Rx,0,7,51,FF,FD,71,00,FF,F1,00,
3874744,000000CE,false,Rx,0,8,00,00,00,00,00,00,00,00,
3874925,000000B6,false,Rx,0,5,43,04,80,00,08,00,00,00,
3875193,0000019E,false,Rx,0,8,00,EA,CF,FC,FE,63,00,B9,
3875450,000001A0,false,Rx,0,8,00,80,00,A0,FF,12,40,15,
3875720,000002B2,false,Rx,0,8,00,00,00,00,40,00,00,04,
3876132,000000A8,false,Rx,0,8,A4,02,FA,00,00,0D,CF,22,
3876357,000000A9,false,Rx,0,8,13,02,A0,EF,11,BB,0F,FA,
3876600,000000AA,false,Rx,0,8,A2,F2,10,00,00,00,F4,00,
3884494,000000C4,false,Rx,0,7,51,FF,FD,00,00,FF,F1,00,
3886155,000000A8,false,Rx,0,8,A5,03,FA,00,00,0D,CF,22,
3886391,000000A9,false,Rx,0,8,14,03,A0,EF,11,BB,0F,FA,
3886624,000000AA,false,Rx,0,8,A3,F3,10,00,00,00,F4,00,
3893026,00000130,false,Rx,0,5,00,0D,D0,0F,77,00,00,00,
3894629,000000C4,false,Rx,0,7,51,FF,FD,00,00,FF,F1,00,
3894876,000000CE,false,Rx,0,8,00,00,00,00,00,00,00,00,
3895056,000000B6,false,Rx,0,5,44,05,80,00,08,00,00,00,
3895234,00000194,false,Rx,0,4,F5,F8,00,FC,00,00,00,00,
3895468,0000019E,false,Rx,0,8,00,EA,CF,FC,FE,63,00,B9,
3895727,000001A0,false,Rx,0,8,00,80,00,C0,FF,0F,50,42,
3895983,000002B2,false,Rx,0,8,00,00,00,00,30,00,00,04,
3896219,000000A8,false,Rx,0,8,A6,04,FA,00,00,0D,CF,22,
3896455,000000A9,false,Rx,0,8,15,04,A0,EF,11,BB,0F,FA,
3896701,000000AA,false,Rx,0,8,A4,F4,10,00,00,00,F4,00,
3904449,000001B5,false,Rx,0,7,00,FF,00,00,C8,FF,FF,00,
3904679,000000C4,false,Rx,0,7,51,FF,FD,00,00,FF,F1,00,
3906145,000000A8,false,Rx,0,8,A7,05,FA,00,00,0D,CF,22,
3906371,000000A9,false,Rx,0,8,16,05,A0,EF,11,BB,0F,FA,
3906616,000000AA,false,Rx,0,8,A5,F5,10,00,00,00,F4,00,
3914566,000000C4,false,Rx,0,7,4F,FF,FD,00,00,FF,F1,00,
3914819,000000CE,false,Rx,0,8,00,00,00,00,00,00,00,00,
3915011,000000B6,false,Rx,0,5,45,06,80,00,08,00,00,00,
3915278,0000019E,false,Rx,0,8,00,EA,CF,FC,FE,63,00,B9,
3915536,000001A0,false,Rx,0,8,00,80,00,D0,FF,12,60,65,
3915804,000002B2,false,Rx,0,8,00,00,00,00,40,00,00,04,
3916117,00000492,false,Rx,0,8,17,52,FF,FF,FF,FF,FF,FF,
3916353,000000A8,false,Rx,0,8,A8,06,FA,00,00,0D,CF,22,
3916588,000000A9,false,Rx,0,8,17,06,A0,EF,11,BB,0F,FA,
3916822,000000AA,false,Rx,0,8,A6,F6,10,00,00,00,F4,00,
3917049,000001D0,false,Rx,0,8,40,3C,06,C6,FC,60,8D,AA,
3924544,000000C4,false,Rx,0,7,51,FF,FD,E4,00,FF,F1,00,
3924742,000000C8,false,Rx,0,6,51,FF,81,E3,00,BC,00,00,
3926152,000000A8,false,Rx,0,8,A9,07,FA,00,00,0D,CF,22,
3926377,000000A9,false,Rx,0,8,18,07,A0,EF,11,BB,0F,FA,
3926611,000000AA,false,Rx,0,8,A7,F7,10,00,00,00,F4,00,
3934484,000000C4,false,Rx,0,7,4F,FF,FD,E4,00,FF,F1,00,
3934737,000000CE,false,Rx,0,8,00,00,00,00,00,00,00,00,
3934928,000000B6,false,Rx,0,5,46,07,80,00,08,00,00,00,
3935230,0000019E,false,Rx,0,8,00,EA,CF,FC,FE,63,00,B9,
3935488,000001A0,false,Rx,0,8,00,80,00,C0,FF,12,70,65,
3935756,000001A6,false,Rx,0,8,00,00,00,00,00,00,40,F8,
3936025,000002B2,false,Rx,0,8,00,00,00,00,40,00,00,04,
3936261,000000A8,false,Rx,0,8,AA,08,FA,00,00,0D,CF,22,
3936485,000000A9,false,Rx,0,8,19,08,A0,EF,11,BB,0F,FA,
3936730,000000AA,false,Rx,0,8,A8,F8,10,00,00,00,F4,00,
3944479,000000C4,false,Rx,0,7,51,FF,FD,E4,00,FF,F1,00,
3946128,000000A8,false,Rx,0,8,AB,09,FA,00,00,0D,CF,22,
3946365,000000A9,false,Rx,0,8,1A,09,A0,EF,11,BB,0F,FA,
3946608,000000AA,false,Rx,0,8,A9,F9,10,00,00,00,F4,00,
3954490,000000C4,false,Rx,0,7,51,FF,FD,E4,00,FF,F1,00,
3954744,000000CE,false,Rx,0,8,00,00,00,00,00,00,00,00,
3954923,000000B6,false,Rx,0,5,47,08,80,00,08,00,00,00,
3955181,0000019E,false,Rx,0,8,00,EA,CF,FC,FE,63,00,B9,
3955450,000001A0,false,Rx,0,8,00,80,00,C0,FF,0F,80,72,
3955707,000002B2,false,Rx,0,8,00,00,00,00,30,00,00,04,
3956097,000000A8,false,Rx,0,8,AC,0A,FA,00,00,0D,CF,22,
3956334,000000A9,false,Rx,0,8,1B,0A,A0,EF,11,BB,0F,FA,
3956576,000000AA,false,Rx,0,8,AA,FA,10,00,00,00,F4,00,
3964481,000000C4,false,Rx,0,7,51,FF,FD,00,00,FF,F1,00,
3966141,000000A8,false,Rx,0,8,AD,0B,FA,00,00,0D,CF,22,
3966366,000000A9,false,Rx,0,8,1C,0B,A0,EF,11,BB,0F,FA,
3966610,000000AA,false,Rx,0,8,AB,FB,10,00,00,00,F4,00,
3974492,000000C4,false,Rx,0,7,51,FF,FD,00,00,FF,F1,00,
3974745,000000CE,false,Rx,0,8,00,00,00,00,00,00,00,00,
3974925,000000B6,false,Rx,0,5,48,09,80,00,08,00,00,00,
3975193,0000019E,false,Rx,0,8,00,EA,CF,FC,FE,63,00,B9,
3975452,000001A0,false,Rx,0,8,00,80,00,C0,FF,0F,90,82,
3975709,000002B2,false,Rx,0,8,00,00,00,00,30,00,00,04,
3976121,000000A8,false,Rx,0,8,AE,0C,FA,00,00,0D,CF,22,
3976346,000000A9,false,Rx,0,8,1D,0C,A0,EF,11,BB,0F,FA,
3976589,000000AA,false,Rx,0,8,AC,FC,10,00,00,00,F4,00,
3984494,000000C4,false,Rx,0,7,4F,FF,FD,C8,FF,FF,F1,00,
3986132,000000A8,false,Rx,0,8,AF,0D,FA,00,00,0D,CF,22,
3986368,000000A9,false,Rx,0,8,1E,0D,A0,EF,11,BB,0F,FA,
3986600,000000AA,false,Rx,0,8,AD,FD,10,00,00,00,F4,00,
3992866,00000130,false,Rx,0,5,00,0D,D0,0F,88,00,00,00,
3994604,000000C4,false,Rx,0,7,51,FF,FD,C8,FF,FF,F1,00,
3994861,000000CE,false,Rx,0,8,00,00,00,00,00,00,00,00,
3995039,000000B6,false,Rx,0,5,49,0A,80,00,08,00,00,00,
3995318,0000019E,false,Rx,0,8,00,EA,CF,FC,FE,63,00,B9,
3995576,000001A0,false,Rx,0,8,00,80,00,A0,FF,12,A0,75,
3995833,000002B2,false,Rx,0,8,00,00,00,00,40,00,00,04,
3996114,000000A8,false,Rx,0,8,B0,0E,FA,00,00,0D,CF,22,
3996350,000000A9,false,Rx,0,8,1F,0E,A0,EF,11,BB,0F,FA,
3996596,000000AA,false,Rx,0,8,AE,FE,10,00,00,00,F4,00,
3998491,00000497,false,Rx,0,8,29,52,FF,FF,FF,FF,FF,FF,
4004563,000000C4,false,Rx,0,7,51,FF,FD,00,00,FF,F1,00,
4006158,000000A8,false,Rx,0,8,A2,00,FA,00,00,0D,CF,22,
4006382,000000A9,false,Rx,0,8,11,00,A0,EF,11,BB,0F,FA,
4006636,000000AA,false,Rx,0,8,A0,F0,10,00,00,00,F4,00,
4014553,000000C4,false,Rx,0,7,51,FF,FD,00,00,FF,F1,00,
4014805,000000CE,false,Rx,0,8,00,00,00,00,00,00,00,00,
4014997,000000B6,false,Rx,0,5,4A,0B,80,00,08,00,00,00,
4015264,0000019E,false,Rx,0,8,00,EA,CF,FC,FE,63,00,B9,
4015522,000001A0,false,Rx,0,8,00,80,00,C0,FF,12,B0,A5,
4015790,000002B2,false,Rx,0,8,00,00,00,00,40,00,00,04,
4016116,000000A8,false,Rx,0,8,A3,01,FA,00,00,0D,CF,22,
4016351,000000A9,false,Rx,0,8,12,01,A0,EF,11,BB,0F,FA,
4016585,000000AA,false,Rx,0,8,A1,F1,10,00,00,00,F4,00,
4016830,000001D0,false,Rx,0,8,40,3C,07,C6,FC,60,8D,AA,
4024534,000000C4,false,Rx,0,7,51,FF,FD,00,00,FF,F1,00,
4026130,000000A8,false,Rx,0,8,A4,02,FA,00,00,0D,CF,22,
4026365,000000A9,false,Rx,0,8,13,02,A0,EF,11,BB,0F,FA,
4026608,000000AA,false,Rx,0,8,A2,F2,10,00,00,00,F4,00,
4034535,000000C4,false,Rx,0,7,51,FF,FD,00,00,FF,F1,00,
4034787,000000CE,false,Rx,0,8,00,00,00,00,00,00,00,00,
4034967,000000B6,false,Rx,0,5,4B,0C,80,00,08,00,00,00,
4035279,0000019E,false,Rx,0,8,00,EA,DF,FC,FE,63,00,C9,
4035538,000001A0,false,Rx,0,8,00,80,00,C0,FF,12,C0,B5,
4035795,000001A6,false,Rx,0,8,00,00,00,00,00,00,D0,F9,
4036065,000002B2,false,Rx,0,8,00,00,00,00,40,00,00,04,
4036300,000000A8,false,Rx,0,8,A5,03,FA,00,00,0D,CF,22,
4036535,000000A9,false,Rx,0,8,14,03,A0,EF,11,BB,0F,FA,
4036768,000000AA,false,Rx,0,8,A3,F3,10,00,00,00,F4,00,
4044531,000000C4,false,Rx,0,7,51,FF,FD,00,00,FF,F1,00,
4046147,000000A8,false,Rx,0,8,A6,04,FA,00,00,0D,CF,22,
4046382,000000A9,false,Rx,0,8,15,04,A0,EF,11,BB,0F,FA,
4046625,000000AA,false,Rx,0,8,A4,F4,10,00,00,00,F4,00,
4054519,000000C4,false,Rx,0,7,51,FF,FD,00,00,FF,F1,00,
4054771,000000CE,false,Rx,0,8,00,00,00,00,00,00,00,00,
4054962,000000B6,false,Rx,0,5,4C,0D,80,00,08,00,00,00,
4055230,0000019E,false,Rx,0,8,00,EA,DF,FC,FE,63,00,C9,
4055499,000001A0,false,Rx,0,8,00,80,00,C0,FF,12,D0,C5,
4055756,000002B2,false,Rx,0,8,00,00,00,00,40,00,00,04,
4056115,000000A8,false,Rx,0,8,A7,05,FA,00,00,0D,CF,22,
4056350,000000A9,false,Rx,0,8,16,05,A0,EF,11,BB,0F,FA,
4056581,000000AA,false,Rx,0,8,A5,F5,10,00,00,00,F4,00,
4056717,000001FB,false,Rx,0,2,F4,FF,00,00,00,00,00,00,
4064523,000000C4,false,Rx,0,7,51,FF,FD,00,00,FF,F1,00,
4066128,000000A8,false,Rx,0,8,A8,06,FA,00,00,0D,CF,22,
4066363,000000A9,false,Rx,0,8,17,06,A0,EF,11,BB,0F,FA,
4066596,000000AA,false,Rx,0,8,A6,F6,10,00,00,00,F4,00,
4074534,000000C4,false,Rx,0,7,51,FF,FD,00,00,FF,F1,00,
4074786,000000CE,false,Rx,0,8,00,00,00,00,00,00,00,00,
4074966,000000B6,false,Rx,0,5,4D,0E,80,00,08,00,00,00,
4075259,0000019E,false,Rx,0,8,00,EA,DF,FC,FE,63,00,C9,
4075516,000001A0,false,Rx,0,8,00,80,00,C0,FF,0F,E0,D2,
4075784,000002B2,false,Rx,0,8,00,00,00,00,30,00,00,04,
4076109,000000A8,false,Rx,0,8,A9,07,FA,00,00,0D,CF,22,
4076344,000000A9,false,Rx,0,8,18,07,A0,EF,11,BB,0F,FA,
4076598,000000AA,false,Rx,0,8,A7,F7,10,00,00,00,F4,00,
4084536,000000C4,false,Rx,0,7,4F,FF,FD,E7,FF,FF,F1,00,
4086141,000000A8,false,Rx,0,8,AA,08,FA,00,00,0D,CF,22,
4086376,000000A9,false,Rx,0,8,19,08,A0,EF,11,BB,0F,FA,
4086619,000000AA,false,Rx,0,8,A8,F8,10,00,00,00,F4,00,
4092953,00000130,false,Rx,0,5,00,0D,D0,0F,99,00,00,00,
4094667,000000C4,false,Rx,0,7,51,FF,FD,E7,FF,FF,F1,00,
4094913,000000CE,false,Rx,0,8,00,00,00,00,00,00,00,00,
4095102,000000B6,false,Rx,0,5,3F,00,80,00,08,00,00,00,
4095271,00000194,false,Rx,0,4,F6,F9,00,FC,00,00,00,00,
4095505,0000019E,false,Rx,0,8,00,EA,DF,FC,FE,63,00,C9,
4095762,000001A0,false,Rx,0,8,00,80,00,A0,FF,0F,00,D1,
4096021,000002B2,false,Rx,0,8,00,00,00,00,30,00,00,04,
4096256,000000A8,false,Rx,0,8,AB,09,FA,00,00,0D,CF,22,
4096491,000000A9,false,Rx,0,8,1A,09,A0,EF,11,BB,0F,FA,
4096738,000000AA,false,Rx,0,8,A9,F9,10,00,00,00,F4,00,
4096973,000004A9,false,Rx,0,8,30,52,FF,FF,FF,FF,FF,FF,
4104550,000000C4,false,Rx,0,7,51,FF,FD,00,00,FF,F1,00,
4106132,000000A8,false,Rx,0,8,AC,0A,FA,00,00,0D,CF,22,
4106356,000000A9,false,Rx,0,8,1B,0A,A0,EF,11,BB,0F,FA,
4106610,000000AA,false,Rx,0,8,AA,FA,10,00,00,00,F4,00,
4114574,000000C4,false,Rx,0,7,51,FF,FD,00,00,FF,F1,00,
4114826,000000CE,false,Rx,0,8,00,00,00,00,00,00,00,00,
4115006,000000B6,false,Rx,0,5,40,01,80,00,08,00,00,00,
4115275,0000019E,false,Rx,0,8,00,EA,DF,FC,FE,63,00,C9,
4115543,000001A0,false,Rx,0,8,00,80,00,C0,FF,0F,10,01,
4115800,000002B2,false,Rx,0,8,00,00,00,00,30,00,00,04,
4116148,000000A8,false,Rx,0,8,AD,0B,FA,00,00,0D,CF,22,
4116371,000000A9,false,Rx,0,8,1C,0B,A0,EF,11,BB,0F,FA,
4116636,000000AA,false,Rx,0,8,AB,FB,10,00,00,00,F4,00,
4116850,000001D0,false,Rx,0,8,40,3C,07,C6,FC,60,8D,AA,
4124525,000000C4,false,Rx,0,7,51,FF,FD,00,00,FF,F1,00,
4124732,000000C8,false,Rx,0,6,51,FF,D1,00,00,BC,00,00,
4126176,000000A8,false,Rx,0,8,AE,0C,FA,00,00,0D,CF,22,
4126411,000000A9,false,Rx,0,8,1D,0C,A0,EF,11,BB,0F,FA,
4126645,000000AA,false,Rx,0,8,AC,FC,10,00,00,00,F4,00,
4134496,000000C4,false,Rx,0,7,51,FF,FD,00,00,FF,F1,00,
4134747,000000CE,false,Rx,0,8,00,00,00,00,00,00,00,00,
4134927,000000B6,false,Rx,0,5,41,02,80,00,08,00,00,00,
4135230,0000019E,false,Rx,0,8,00,EA,DF,FC,FE,63,00,C9,
4135498,000001A0,false,Rx,0,8,00,80,00,C0,FF,12,20,15,
4135766,000001A6,false,Rx,0,8,00,00,00,00,00,00,60,FB,
4136026,000002B2,false,Rx,0,8,00,00,00,00,40,00,00,04,
4136260,000000A8,false,Rx,0,8,AF,0D,FA,00,00,0D,CF,22,
4136484,000000A9,false,Rx,0,8,1E,0D,A0,EF,11,BB,0F,FA,
4136730,000000AA,false,Rx,0,8,AD,FD,10,00,00,00,F4,00,
4144492,000000C4,false,Rx,0,7,4F,FF,FD,D3,FF,FF,F1,00,
4146163,000000A8,false,Rx,0,8,B0,0E,FA,00,00,0D,CF,22,
4146398,000000A9,false,Rx,0,8,1F,0E,A0,EF,11,BB,0F,FA,
4146630,000000AA,false,Rx,0,8,AE,FE,10,00,00,00,F4,00,
4154491,000000C4,false,Rx,0,7,51,FF,FD,D3,FF,FF,F1,00,
4154743,000000CE,false,Rx,0,8,00,00,00,00,00,00,00,00,
4154934,000000B6,false,Rx,0,5,42,03,80,00,08,00,00,00,
4155193,0000019E,false,Rx,0,8,00,EA,DF,FC,FE,63,00,C9,
4155449,000001A0,false,Rx,0,8,00,80,00,C0,FF,0F,30,22,
4155717,000002B2,false,Rx,0,8,00,00,00,00,30,00,00,04,
4156120,000000A8,false,Rx,0,8,A2,00,FA,00,00,0D,CF,22,
4156355,000000A9,false,Rx,0,8,11,00,A0,EF,11,BB,0F,FA,
4156598,000000AA,false,Rx,0,8,A0,F0,10,00,00,00,F4,00,
4164494,000000C4,false,Rx,0,7,51,FF,FD,00,00,FF,F1,00,
4166187,000000A8,false,Rx,0,8,A3,01,FA,00,00,0D,CF,22,
4166411,000000A9,false,Rx,0,8,12,01,A0,EF,11,BB,0F,FA,
4166656,000000AA,false,Rx,0,8,A1,F1,10,00,00,00,F4,00,
4174495,000000C4,false,Rx,0,7,51,FF,FD,00,00,FF,F1,00,
4174747,000000CE,false,Rx,0,8,00,00,00,00,00,00,00,00,
4174927,000000B6,false,Rx,0,5,43,04,80,00,08,00,00,00,
4175187,0000019E,false,Rx,0,8,00,EA,DF,FC,FE,63,00,C9,
4175444,000001A0,false,Rx,0,8,00,80,00,C0,FF,0F,40,32,
4175712,000002B2,false,Rx,0,8,00,00,00,00,30,00,00,04,
4176137,000000A8,false,Rx,0,8,A4,02,FA,00,00,0D,CF,22,
4176372,000000A9,false,Rx,0,8,13,02,A0,EF,11,BB,0F,FA,
4176605,000000AA,false,Rx,0,8,A2,F2,10,00,00,00,F4,00,
4184499,000000C4,false,Rx,0,7,51,FF,FD,00,00,FF,F1,00,
4186148,000000A8,false,Rx,0,8,A5,03,FA,00,00,0D,CF,22,
4186383,000000A9,false,Rx,0,8,14,03,A0,EF,11,BB,0F,FA,
4186617,000000AA,false,Rx,0,8,A3,F3,10,00,00,00,F4,00,
4192872,00000130,false,Rx,0,5,00,0D,D0,0F,AA,00,00,00,
4194609,000000C4,false,Rx,0,7,51,FF,FD,00,00,FF,F1,00,
4194866,000000CE,false,Rx,0,8,00,00,00,00,00,00,00,00,
4195045,000000B6,false,Rx,0,5,44,05,80,00,08,00,00,00,
4195323,0000019E,false,Rx,0,8,00,EA,DF,FC,FE,63,00,C9,
4195580,000001A0,false,Rx,0,8,00,80,00,A0,FF,12,50,25,
4195850,000002B2,false,Rx,0,8,00,00,00,00,40,00,00,04,
4196097,000000A8,false,Rx,0,8,A6,04,FA,00,00,0D,CF,22,
4196331,000000A9,false,Rx,0,8,15,04,A0,EF,11,BB,0F,FA,
4196578,000000AA,false,Rx,0,8,A4,F4,10,00,00,00,F4,00,
4196813,000004B0,false,Rx,0,8,00,52,FE,01,FF,FF,FF,FF,
4204566,000000C4,false,Rx,0,7,51,FF,FD,00,00,FF,F1,00,
4206140,000000A8,false,Rx,0,8,A7,05,FA,00,00,0D,CF,22,
4206374,000000A9,false,Rx,0,8,16,05,A0,EF,11,BB,0F,FA,
4206619,000000AA,false,Rx,0,8,A5,F5,10,00,00,00,F4,00,
4214568,000000C4,false,Rx,0,7,51,FF,FD,00,00,FF,F1,00,
4214819,000000CE,false,Rx,0,8,00,00,00,00,00,00,00,00,
4215001,000000B6,false,Rx,0,5,45,06,80,00,08,00,00,00,
4215268,0000019E,false,Rx,0,8,00,EA,DF,FC,FE,63,00,C9,
4215536,000001A0,false,Rx,0,8,00,80,00,A0,FF,0F,60,32,
4215795,000002B2,false,Rx,0,8,00,00,00,00,30,00,00,04,
4216119,000000A8,false,Rx,0,8,A8,06,FA,00,00,0D,CF,22,
4216343,000000A9,false,Rx,0,8,17,06,A0,EF,11,BB,0F,FA,
4216579,000000AA,false,Rx,0,8,A6,F6,10,00,00,00,F4,00,
4216813,000001D0,false,Rx,0,8,40,3C,08,C6,FC,60,8D,AA,
4224529,000000C4,false,Rx,0,7,51,FF,FD,00,00,FF,F1,00,
4226123,000000A8,false,Rx,0,8,A9,07,FA,00,00,0D,CF,22,
4226357,000000A9,false,Rx,0,8,18,07,A0,EF,11,BB,0F,FA,
4226591,000000AA,false,Rx,0,8,A7,F7,10,00,00,00,F4,00,
4234495,000000C4,false,Rx,0,7,51,FF,FD,00,00,FF,F1,00,
4234747,000000CE,false,Rx,0,8,00,00,00,00,00,00,00,00,
4234938,000000B6,false,Rx,0,5,46,07,80,00,08,00,00,00,
4235241,0000019E,false,Rx,0,8,00,EA,EF,FC,FE,63,00,D9,
4235498,000001A0,false,Rx,0,8,00,80,00,D0,FF,0F,70,72,
4235767,000001A6,false,Rx,0,8,00,00,00,00,00,00,F0,FC,
4236025,000002B2,false,Rx,0,8,00,00,00,00,30,00,00,04,
4236260,000000A8,false,Rx,0,8,AA,08,FA,00,00,0D,CF,22,
4236495,000000A9,false,Rx,0,8,19,08,A0,EF,11,BB,0F,FA,
4236741,000000AA,false,Rx,0,8,A8,F8,10,00,00,00,F4,00,
4244502,000000C4,false,Rx,0,7,51,FF,FD,00,00,FF,F1,00,
4246152,000000A8,false,Rx,0,8,AB,09,FA,00,00,0D,CF,22,
4246375,000000A9,false,Rx,0,8,1A,09,A0,EF,11,BB,0F,FA,
4246620,000000AA,false,Rx,0,8,A9,F9,10,00,00,00,F4,00,
4247332,000001FB,false,Rx,0,2,F5,FF,00,00,00,00,00,00,
4254505,000000C4,false,Rx,0,7,51,FF,FD,00,00,FF,F1,00,
4254757,000000CE,false,Rx,0,8,00,00,00,00,00,00,00,00,
4254938,000000B6,false,Rx,0,5,47,08,80,00,08,00,00,00,
4255196,0000019E,false,Rx,0,8,00,EA,EF,FC,FE,63,00,D9,
4255453,000001A0,false,Rx,0,8,00,80,00,C0,FF,12,80,75,
4255723,000002B2,false,Rx,0,8,00,00,00,00,40,00,00,04,
4256103,000000A8,false,Rx,0,8,AC,0A,FA,00,00,0D,CF,22,
4256338,000000A9,false,Rx,0,8,1B,0A,A0,EF,11,BB,0F,FA,
4256571,000000AA,false,Rx,0,8,AA,FA,10,00,00,00,F4,00,
4264487,000000C4,false,Rx,0,7,4F,FF,FD,EC,FF,FF,F1,00,
4266126,000000A8,false,Rx,0,8,AD,0B,FA,00,00,0D,CF,22,
4266360,000000A9,false,Rx,0,8,1C,0B,A0,EF,11,BB,0F,FA,
4266594,000000AA,false,Rx,0,8,AB,FB,10,00,00,00,F4,00,
4274498,000000C4,false,Rx,0,7,51,FF,FD,EC,FF,FF,F1,00,
4274750,000000CE,false,Rx,0,8,00,00,00,00,00,00,00,00,
4274942,000000B6,false,Rx,0,5,48,09,80,00,08,00,00,00,
4275200,0000019E,false,Rx,0,8,00,EA,EF,FC,FE,63,00,D9,
4275456,000001A0,false,Rx,0,8,00,80,00,C0,FF,12,90,85,
4275726,000002B2,false,Rx,0,8,00,00,00,00,40,00,00,04,
4276117,000000A8,false,Rx,0,8,AE,0C,FA,00,00,0D,CF,22,
4276340,000000A9,false,Rx,0,8,1D,0C,A0,EF,11,BB,0F,FA,
4276584,000000AA,false,Rx,0,8,AC,FC,10,00,00,00,F4,00,
4284499,000000C4,false,Rx,0,7,51,FF,FD,00,00,FF,F1,00,
4285960,00000480,false,Rx,0,8,12,42,FD,01,FF,FF,FF,FF,
4286196,000000A8,false,Rx,0,8,AF,0D,FA,00,00,0D,CF,22,
4286420,000000A9,false,Rx,0,8,1E,0D,A0,EF,11,BB,0F,FA,
4286656,000000AA,false,Rx,0,8,AD,FD,10,00,00,00,F4,00,
4292956,00000130,false,Rx,0,5,00,0D,D0,0F,BB,00,00,00,
4294738,000000C4,false,Rx,0,7,51,FF,FD,00,00,FF,F1,00,
4295003,000000CE,false,Rx,0,8,00,00,00,00,00,00,00,00,
4295171,000000B6,false,Rx,0,5,49,0A,80,00,08,00,00,00,
4295339,00000194,false,Rx,0,4,F7,FA,00,FC,00,00,00,00,
4295573,0000019E,false,Rx,0,8,00,EA,EF,FC,FE,63,00,D9,
4295710,000001D6,false,Rx,0,2,C0,0C,00,00,00,00,00,00,
4295954,000001A0,false,Rx,0,8,00,80,00,A0,FF,0F,A0,72,
4296191,000000A8,false,Rx,0,8,B0,0E,FA,00,00,0D,CF,22,
4296416,000000A9,false,Rx,0,8,1F,0E,A0,EF,11,BB,0F,FA,
4296662,000000AA,false,Rx,0,8,AE,FE,10,00,00,00,F4,00,
4296797,000002A6,false,Rx,0,2,00,F8,00,00,00,00,00,00,
4297044,000002B2,false,Rx,0,8,00,00,00,00,30,00,00,04,
4304600,000000C4,false,Rx,0,7,51,FF,FD,00,00,FF,F1,00,
