Time Stamp,ID,Extended,Dir,Bus,LEN,D1,D2,D3,D4,D5,D6,D7,D8
1830974,00000374,false,Rx,0,5,00,00,00,00,FC,00,00,00,
1836956,000000AA,false,Rx,0,8,5E,54,07,00,B8,0B,94,00,
1837183,000000A8,false,Rx,0,8,08,0A,21,E0,21,1F,0F,04,
1837407,000000A9,false,Rx,0,8,F3,0A,79,DF,1D,C7,E0,21,
1837632,000000BA,false,Rx,0,7,03,FF,0F,00,00,57,8A,00,
1837874,000000C4,false,Rx,0,7,45,08,FC,00,00,FF,F1,00,
1846952,000000AA,false,Rx,0,8,60,56,07,00,B8,0B,94,00,
1847178,000000A8,false,Rx,0,8,09,0B,21,E0,21,1F,0F,04,
1847402,000000A9,false,Rx,0,8,F4,0B,79,DF,1D,C7,E0,21,
1847627,000000B6,false,Rx,0,5,03,03,80,00,C8,00,00,00,
1847863,000000BA,false,Rx,0,7,03,FF,0F,00,00,58,8B,00,
1848088,000000C4,false,Rx,0,7,45,08,FC,00,00,FF,F1,00,
1848314,000000CE,false,Rx,0,8,00,00,00,00,00,00,00,00,
1848539,0000019E,false,Rx,0,8,00,E8,2F,FC,FE,00,00,B3,
1848767,000001A0,false,Rx,0,8,00,80,00,40,01,11,30,A4,
1848999,000001B4,false,Rx,0,8,00,D0,E2,F0,44,32,FE,CF,
1849410,000002B2,false,Rx,0,8,00,00,00,00,40,00,00,04,
1857010,000000AA,false,Rx,0,8,62,58,07,00,B8,0B,94,00,
1857239,000000A8,false,Rx,0,8,0A,0C,21,E0,21,1F,0F,04,
1857463,000000A9,false,Rx,0,8,F5,0C,79,DF,1D,C7,E0,21,
1857697,000000BA,false,Rx,0,7,03,FF,0F,00,00,59,8C,00,
1857930,000000C4,false,Rx,0,7,45,08,FC,00,00,FF,F1,00,
1867004,000000AA,false,Rx,0,8,64,5A,07,00,B8,0B,94,00,
1867247,000000A8,false,Rx,0,8,0B,0D,21,E0,21,1F,0F,04,
1867484,000000A9,false,Rx,0,8,F6,0D,79,DF,1D,C7,E0,21,
1867713,000000B6,false,Rx,0,5,04,04,80,00,C8,00,00,00,
1867939,000000BA,false,Rx,0,7,03,FF,0F,00,00,5A,8D,00,
1868164,000000C4,false,Rx,0,7,45,08,FC,00,00,FF,F1,00,
1868389,000000CE,false,Rx,0,8,00,00,00,00,00,00,00,00,
1868614,0000019E,false,Rx,0,8,00,E8,2F,FC,FE,00,00,B3,
1868852,000001A0,false,Rx,0,8,00,80,00,40,01,14,40,B7,
1869078,000002B2,false,Rx,0,8,00,00,00,00,50,00,00,04,
1869303,000004A9,false,Rx,0,8,30,42,FF,FF,FF,FF,FF,FF,
1875987,00000130,false,Rx,0,5,45,43,21,8F,98,00,00,00,
1876972,000000AA,false,Rx,0,8,66,5C,07,00,B8,0B,94,00,
1877197,000000A8,false,Rx,0,8,0C,0E,21,E0,21,1F,0F,04,
1877421,000000A9,false,Rx,0,8,F7,0E,79,DF,1D,C7,E0,21,
1877646,000000BA,false,Rx,0,7,03,FF,0F,00,00,5B,8E,00,
1877881,000000C4,false,Rx,0,7,42,08,FC,D3,FF,FF,F1,00,
1878106,000001D2,false,Rx,0,5,E1,0C,8F,D0,F0,00,00,00,
1878330,000001D6,false,Rx,0,2,FF,F3,00,00,00,00,00,00,
1887017,000000AA,false,Rx,0,8,5A,50,07,00,B8,0B,94,00,
1887242,000000A8,false,Rx,0,8,FD,00,21,E0,21,1F,0F,04,
1887467,000000A9,false,Rx,0,8,E9,00,79,DF,1D,C7,E0,21,
1887697,000000BA,false,Rx,0,7,03,FF,0F,00,00,4D,80,00,
1887923,000000B6,false,Rx,0,5,05,05,80,00,C8,00,00,00,
1888147,000000C4,false,Rx,0,7,45,08,FC,D3,FF,FF,F1,00,
1888373,000000CE,false,Rx,0,8,00,00,00,00,00,00,00,00,
1888598,0000019E,false,Rx,0,8,00,E8,2F,FC,FE,00,00,B3,
1888838,000001A0,false,Rx,0,8,00,80,00,60,01,14,50,E7,
1889063,000002B2,false,Rx,0,8,00,00,00,00,50,00,00,04,
1897085,000000AA,false,Rx,0,8,5C,52,07,00,B8,0B,94,00,
1897313,000000A8,false,Rx,0,8,FE,01,21,E0,21,1F,0F,04,
1897539,000000A9,false,Rx,0,8,EA,01,79,DF,1D,C7,E0,21,
1897767,000000BA,false,Rx,0,7,03,FF,0F,00,00,4E,81,00,
1898033,000000C4,false,Rx,0,7,45,08,FC,00,00,FF,F1,00,
1898039,0000031D,false,Rx,0,2,01,FE,00,00,00,00,00,00,
1907116,000000AA,false,Rx,0,8,5E,54,07,00,B8,0B,94,00,
1907341,000000A8,false,Rx,0,8,FF,02,21,E0,21,1F,0F,04,
1907600,000000A9,false,Rx,0,8,EB,02,79,DF,1D,C7,E0,21,
1907605,000000B6,false,Rx,0,5,06,06,80,00,C8,00,00,00,
1907839,000000BA,false,Rx,0,7,03,FF,0F,00,00,4F,82,00,
1908064,000000C4,false,Rx,0,7,45,08,FC,00,00,FF,F1,00,
1908475,000000CE,false,Rx,0,8,00,00,00,00,00,00,00,00,
1908707,0000019E,false,Rx,0,8,00,E8,2F,FC,FE,00,00,B3,
1908939,000001A0,false,Rx,0,8,00,80,00,40,01,14,60,D7,
1909164,000002B2,false,Rx,0,8,00,00,00,00,50,00,00,04,
1913390,00000310,false,Rx,0,7,6E,E4,DA,2D,01,40,23,00,
1917038,000000AA,false,Rx,0,8,60,56,07,00,B8,0B,94,00,
1917263,000000A8,false,Rx,0,8,00,03,21,E0,21,1F,0F,04,
1917489,000000A9,false,Rx,0,8,EC,03,79,DF,1D,C7,E0,21,
1917716,000000BA,false,Rx,0,7,03,FF,0F,00,00,50,83,00,
1917961,000000C4,false,Rx,0,7,42,08,FC,B5,FF,FF,F1,00,
1921564,000001D0,false,Rx,0,8,3C,76,6E,C3,9C,9E,CD,82,
1927064,000000AA,false,Rx,0,8,62,58,07,00,B8,0B,94,00,
1927289,000000A8,false,Rx,0,8,02,04,21,E0,21,1F,0F,04,
1927515,000000A9,false,Rx,0,8,ED,04,79,DF,1D,C7,E0,21,
1927745,000000B6,false,Rx,0,5,07,07,80,00,C8,00,00,00,
1927972,000000BA,false,Rx,0,7,03,FF,0F,00,00,51,84,00,
1928197,000000C4,false,Rx,0,7,45,08,FC,B5,FF,FF,F1,00,
1928421,000000CE,false,Rx,0,8,00,00,00,00,00,00,00,00,
1928647,0000019E,false,Rx,0,8,00,E8,2F,FC,FE,00,00,B3,
1928882,000001A0,false,Rx,0,8,00,80,00,60,01,11,70,05,
1929107,000002B2,false,Rx,0,8,00,00,00,00,40,00,00,04,
1929332,000001A6,false,Rx,0,8,00,00,00,00,00,00,10,FD,
1936991,000000AA,false,Rx,0,8,64,5A,07,00,B8,0B,94,00,
1937219,000000A8,false,Rx,0,8,03,05,21,E0,21,1F,0F,04,
1937445,000000A9,false,Rx,0,8,EE,05,79,DF,1D,C7,E0,21,
1937676,000000BA,false,Rx,0,7,03,FF,0F,00,00,52,85,00,
1937907,000000C4,false,Rx,0,7,42,08,FC,1C,FF,FF,F1,00,
1946985,000000AA,false,Rx,0,8,66,5C,07,00,B8,0B,94,00,
1947210,000000A8,false,Rx,0,8,04,06,21,E0,21,1F,0F,04,
1947436,000000A9,false,Rx,0,8,EF,06,79,DF,1D,C7,E0,21,
1947668,000000B6,false,Rx,0,5,08,08,80,00,C8,00,00,00,
1947894,000000BA,false,Rx,0,7,03,FF,0F,00,00,53,86,00,
1948119,000000C4,false,Rx,0,7,42,08,FC,1C,FF,FF,F1,00,
1948345,000000CE,false,Rx,0,8,00,00,00,00,00,00,00,00,
1948570,0000019E,false,Rx,0,8,00,E8,2F,FC,FE,00,00,B3,
1948809,000001A0,false,Rx,0,8,00,80,00,60,01,11,80,15,
1949034,000001B4,false,Rx,0,8,00,D0,E2,F1,44,32,FE,D0,
1949259,000002B2,false,Rx,0,8,00,00,00,00,40,00,00,04,
1956992,000000AA,false,Rx,0,8,68,5E,07,00,B8,0B,94,00,
1957239,000000A8,false,Rx,0,8,05,07,21,E0,21,1F,0F,04,
1957500,000000A9,false,Rx,0,8,F0,07,79,DF,1D,C7,E0,21,
1957729,000000BA,false,Rx,0,7,03,FF,0F,00,00,54,87,00,
1957961,000000C4,false,Rx,0,7,42,08,FC,00,00,FF,F1,00,
1959878,000004B0,false,Rx,0,8,00,42,FE,01,FF,FF,FF,FF,
1967064,000000AA,false,Rx,0,8,5A,50,07,00,B8,0B,94,00,
1967288,000000A8,false,Rx,0,8,06,08,21,E0,21,1F,0F,04,
1967513,000000A9,false,Rx,0,8,F1,08,79,DF,1D,C7,E0,21,
1967745,000000B6,false,Rx,0,5,09,09,80,00,C8,00,00,00,
1967976,000000BA,false,Rx,0,7,03,FF,0F,00,00,55,88,00,
1968201,000000C4,false,Rx,0,7,45,08,FC,00,00,FF,F1,00,
1968427,000000CE,false,Rx,0,8,00,00,00,00,00,00,00,00,
1968655,0000019E,false,Rx,0,8,00,E8,2F,FC,FE,00,00,B3,
1968887,000001A0,false,Rx,0,8,00,80,00,40,01,11,90,05,
1969113,000002B2,false,Rx,0,8,00,00,00,00,40,00,00,04,
1971747,000001FB,false,Rx,0,2,F2,FF,00,00,00,00,00,00,
1976033,00000130,false,Rx,0,5,45,43,21,8F,A9,00,00,00,
1977017,000000AA,false,Rx,0,8,5C,52,07,00,B8,0B,94,00,
1977242,000000A8,false,Rx,0,8,07,09,21,E0,21,1F,0F,04,
1977467,000000A9,false,Rx,0,8,F2,09,79,DF,1D,C7,E0,21,
1977697,000000BA,false,Rx,0,7,03,FF,0F,00,00,56,89,00,
1977929,000000C4,false,Rx,0,7,45,08,FC,00,00,FF,F1,00,
1978187,00000194,false,Rx,0,4,E2,F1,00,F0,00,00,00,00,
1978192,000001D6,false,Rx,0,2,FF,F3,00,00,00,00,00,00,
1987068,000000AA,false,Rx,0,8,5E,54,07,00,B8,0B,94,00,
1987293,000000A8,false,Rx,0,8,08,0A,21,E0,21,1F,0F,04,
1987518,000000A9,false,Rx,0,8,F3,0A,79,DF,1D,C7,E0,21,
1987752,000000B6,false,Rx,0,5,0A,0A,80,00,C8,00,00,00,
1987983,000000BA,false,Rx,0,7,03,FF,0F,00,00,57,8A,00,
1988208,000000C4,false,Rx,0,7,45,08,FC,00,00,FF,F1,00,
1988433,000000CE,false,Rx,0,8,00,00,00,00,00,00,00,00,
1988668,0000019E,false,Rx,0,8,00,E8,2F,FC,FE,00,00,B3,
1988900,000001A0,false,Rx,0,8,00,80,00,60,01,14,A0,38,
1989125,000002B2,false,Rx,0,8,00,00,00,00,50,00,00,04,
1989920,000003B0,false,Rx,0,2,FD,FF,00,00,00,00,00,00,
314974,000000AA,false,Rx,0,8,60,56,07,00,B8,0B,94,00,
315203,000000A8,false,Rx,0,8,09,0B,21,E0,21,1F,0F,04,
315428,000000A9,false,Rx,0,8,F4,0B,79,DF,1D,C7,E0,21,
315655,000000BA,false,Rx,0,7,03,FF,0F,00,00,58,8B,00,
315886,000000C4,false,Rx,0,7,45,08,FC,00,00,FF,F1,00,
325009,000000AA,false,Rx,0,8,62,58,07,00,B8,0B,94,00,
325235,000000A8,false,Rx,0,8,0A,0C,21,E0,21,1F,0F,04,
325459,000000A9,false,Rx,0,8,F5,0C,79,DF,1D,C7,E0,21,
325691,000000B6,false,Rx,0,5,0B,0B,80,00,C8,00,00,00,
325922,000000BA,false,Rx,0,7,03,FF,0F,00,00,59,8C,00,
326147,000000C4,false,Rx,0,7,42,08,FC,00,00,FF,F1,00,
326371,000000CE,false,Rx,0,8,00,00,00,00,00,00,00,00,
326596,0000019E,false,Rx,0,8,00,E8,2F,FC,FE,00,00,B3,
326831,000001A0,false,Rx,0,8,00,80,00,40,01,14,B0,28,
327056,000002B2,false,Rx,0,8,00,00,00,00,50,00,00,04,
327281,000000C8,false,Rx,0,6,38,08,2C,C8,FF,6C,00,00,
335095,000000AA,false,Rx,0,8,64,5A,07,00,B8,0B,94,00,
335324,000000A8,false,Rx,0,8,0B,0D,21,E0,21,1F,0F,04,
335549,000000A9,false,Rx,0,8,F6,0D,79,DF,1D,C7,E0,21,
335787,000000BA,false,Rx,0,7,03,FF,0F,00,00,5A,8D,00,
336013,000000C4,false,Rx,0,7,45,08,FC,E4,00,FF,F1,00,
339655,000001D0,false,Rx,0,8,3C,76,6E,C3,9C,9E,CD,82,
344974,000000AA,false,Rx,0,8,66,5C,07,00,B8,0B,94,00,
345199,000000A8,false,Rx,0,8,0C,0E,21,E0,21,1F,0F,04,
345423,000000A9,false,Rx,0,8,F7,0E,79,DF,1D,C7,E0,21,
345650,000000B6,false,Rx,0,5,0C,0C,80,00,C8,00,00,00,
345877,000000BA,false,Rx,0,7,03,FF,0F,00,00,5B,8E,00,
346102,000000C4,false,Rx,0,7,42,08,FC,E4,00,FF,F1,00,
346328,000000CE,false,Rx,0,8,00,00,00,00,00,00,00,00,
346552,0000019E,false,Rx,0,8,00,E8,3F,FC,FE,00,00,C3,
346792,000001A0,false,Rx,0,8,00,80,00,60,01,14,C0,58,
347203,000002B2,false,Rx,0,8,00,00,00,00,50,00,00,04,
347428,000001A6,false,Rx,0,8,00,00,00,00,00,00,A0,FE,
355033,000000AA,false,Rx,0,8,5A,50,07,00,B8,0B,94,00,
355262,000000A8,false,Rx,0,8,FD,00,21,E0,21,1F,0F,04,
355487,000000A9,false,Rx,0,8,E9,00,79,DF,1D,C7,E0,21,
355714,000000BA,false,Rx,0,7,03,FF,0F,00,00,4D,80,00,
355945,000000C4,false,Rx,0,7,42,08,FC,00,00,FF,F1,00,
359181,00000480,false,Rx,0,8,17,42,FD,FF,FF,FF,FF,FF,
365069,000000AA,false,Rx,0,8,5C,52,07,00,B8,0B,94,00,
365294,000000A8,false,Rx,0,8,FE,01,21,E0,21,1F,0F,04,
365519,000000A9,false,Rx,0,8,EA,01,79,DF,1D,C7,E0,21,
365752,000000B6,false,Rx,0,5,0D,0D,80,00,C8,00,00,00,
365982,000000BA,false,Rx,0,7,03,FF,0F,00,00,4E,81,00,
366207,000000C4,false,Rx,0,7,42,08,FC,00,00,FF,F1,00,
366432,000000CE,false,Rx,0,8,00,00,00,00,00,00,00,00,
366664,0000019E,false,Rx,0,8,00,E8,3F,FC,FE,00,00,C3,
366896,000001A0,false,Rx,0,8,00,80,00,60,01,11,D0,65,
367121,000001B4,false,Rx,0,8,00,D0,E2,F2,44,32,FE,D1,
367346,000002B2,false,Rx,0,8,00,00,00,00,40,00,00,04,
374947,000000AA,false,Rx,0,8,5E,54,07,00,B8,0B,94,00,
375176,000000A8,false,Rx,0,8,FF,02,21,E0,21,1F,0F,04,
375587,000000A9,false,Rx,0,8,EB,02,79,DF,1D,C7,E0,21,
375860,000000BA,false,Rx,0,7,03,FF,0F,00,00,4F,82,00,
375865,000000C4,false,Rx,0,7,42,08,FC,00,00,FF,F1,00,
384936,000000AA,false,Rx,0,8,60,56,07,00,B8,0B,94,00,
385347,000000A8,false,Rx,0,8,00,03,21,E0,21,1F,0F,04,
385606,000000A9,false,Rx,0,8,EC,03,79,DF,1D,C7,E0,21,
385611,000000B6,false,Rx,0,5,0E,0E,80,00,C8,00,00,00,
385842,000000BA,false,Rx,0,7,03,FF,0F,00,00,50,83,00,
386067,000000C4,false,Rx,0,7,42,08,FC,00,00,FF,F1,00,
386478,000000CE,false,Rx,0,8,00,00,00,00,00,00,00,00,
386705,0000019E,false,Rx,0,8,00,E8,3F,FC,FE,00,00,C3,
386937,000001A0,false,Rx,0,8,00,80,00,40,01,14,E0,58,
387162,000002B2,false,Rx,0,8,00,00,00,00,50,00,00,04,
394009,00000130,false,Rx,0,5,45,43,21,8F,BA,00,00,00,
394994,000000AA,false,Rx,0,8,62,58,07,00,B8,0B,94,00,
395219,000000A8,false,Rx,0,8,02,04,21,E0,21,1F,0F,04,
395444,000000A9,false,Rx,0,8,ED,04,79,DF,1D,C7,E0,21,
395677,000000BA,false,Rx,0,7,03,FF,0F,00,00,51,84,00,
395910,000000C4,false,Rx,0,7,42,08,FC,00,00,FF,F1,00,
396168,000001D2,false,Rx,0,5,E1,0C,8F,E0,F0,00,00,00,
396173,000001D6,false,Rx,0,2,FF,F3,00,00,00,00,00,00,
405059,000000AA,false,Rx,0,8,64,5A,07,00,B8,0B,94,00,
405284,000000A8,false,Rx,0,8,03,05,21,E0,21,1F,0F,04,
405510,000000A9,false,Rx,0,8,EE,05,79,DF,1D,C7,E0,21,
405743,000000B6,false,Rx,0,5,FF,00,80,00,C8,00,00,00,
405969,000000BA,false,Rx,0,7,03,FF,0F,00,00,52,85,00,
406193,000000C4,false,Rx,0,7,45,08,FC,00,00,FF,F1,00,
406418,000000CE,false,Rx,0,8,00,00,00,00,00,00,00,00,
406643,0000019E,false,Rx,0,8,00,E8,3F,FC,FE,00,00,C3,
406882,000001A0,false,Rx,0,8,00,80,00,60,01,11,00,94,
407107,000002B2,false,Rx,0,8,00,00,00,00,40,00,00,04,
415093,000000AA,false,Rx,0,8,66,5C,07,00,B8,0B,94,00,
415321,000000A8,false,Rx,0,8,04,06,21,E0,21,1F,0F,04,
415547,000000A9,false,Rx,0,8,EF,06,79,DF,1D,C7,E0,21,
415787,000000BA,false,Rx,0,7,03,FF,0F,00,00,53,86,00,
416012,000000C4,false,Rx,0,7,42,08,FC,1C,FF,FF,F1,00,
425067,000000AA,false,Rx,0,8,68,5E,07,00,B8,0B,94,00,
425293,000000A8,false,Rx,0,8,05,07,21,E0,21,1F,0F,04,
425517,000000A9,false,Rx,0,8,F0,07,79,DF,1D,C7,E0,21,
425748,000000B6,false,Rx,0,5,00,01,80,00,C8,00,00,00,
425974,000000BA,false,Rx,0,7,03,FF,0F,00,00,54,87,00,
426199,000000C4,false,Rx,0,7,42,08,FC,1C,FF,FF,F1,00,
426437,000000CE,false,Rx,0,8,00,00,00,00,00,00,00,00,
426691,0000019E,false,Rx,0,8,00,E8,3F,FC,FE,00,00,C3,
428557,000001A0,false,Rx,0,8,00,80,00,40,01,14,10,87,
428562,000002B2,false,Rx,0,8,00,00,00,00,50,00,00,04,
435173,000000AA,false,Rx,0,8,5A,50,07,00,B8,0B,94,00,
435180,000000A8,false,Rx,0,8,06,08,21,E0,21,1F,0F,04,
435407,000000A9,false,Rx,0,8,F1,08,79,DF,1D,C7,E0,21,
435632,000000BA,false,Rx,0,7,03,FF,0F,00,00,55,88,00,
435873,000000C4,false,Rx,0,7,45,08,FC,71,00,FF,F1,00,
439505,000001D0,false,Rx,0,8,3C,76,60,C3,9C,9E,CD,82,
445009,000000AA,false,Rx,0,8,5C,52,07,00,B8,0B,94,00,
445235,000000A8,false,Rx,0,8,07,09,21,E0,21,1F,0F,04,
445460,000000A9,false,Rx,0,8,F2,09,79,DF,1D,C7,E0,21,
445690,000000B6,false,Rx,0,5,02,02,80,00,C8,00,00,00,
445916,000000BA,false,Rx,0,7,03,FF,0F,00,00,56,89,00,
446141,000000C4,false,Rx,0,7,45,08,FC,71,00,FF,F1,00,
446365,000000CE,false,Rx,0,8,00,00,00,00,00,00,00,00,
446590,0000019E,false,Rx,0,8,00,E8,3F,FC,FE,00,00,C3,
446831,000001A0,false,Rx,0,8,00,80,00,40,01,14,20,97,
447056,000002B2,false,Rx,0,8,00,00,00,00,50,00,00,04,
447281,000001A6,false,Rx,0,8,00,00,00,00,00,00,30,F0,
452681,00000497,false,Rx,0,8,29,42,FF,FF,FF,FF,FF,FF,
454989,000000AA,false,Rx,0,8,5E,54,07,00,B8,0B,94,00,
455214,000000A8,false,Rx,0,8,08,0A,21,E0,21,1F,0F,04,
455438,000000A9,false,Rx,0,8,F3,0A,79,DF,1D,C7,E0,21,
455668,000000BA,false,Rx,0,7,03,FF,0F,00,00,57,8A,00,
455900,000000C4,false,Rx,0,7,42,08,FC,8F,FF,FF,F1,00,
464994,000000AA,false,Rx,0,8,60,56,07,00,B8,0B,94,00,
465218,000000A8,false,Rx,0,8,09,0B,21,E0,21,1F,0F,04,
465443,000000A9,false,Rx,0,8,F4,0B,79,DF,1D,C7,E0,21,
465672,000000B6,false,Rx,0,5,03,03,80,00,C8,00,00,00,
465898,000000BA,false,Rx,0,7,03,FF,0F,00,00,58,8B,00,
466123,000000C4,false,Rx,0,7,42,08,FC,8F,FF,FF,F1,00,
466348,000000CE,false,Rx,0,8,00,00,00,00,00,00,00,00,
466574,0000019E,false,Rx,0,8,00,E8,3F,FC,FE,00,00,C3,
466809,000001A0,false,Rx,0,8,00,80,00,40,01,11,30,A4,
467034,000001B4,false,Rx,0,8,00,D0,E2,F3,44,32,FE,D2,
467259,000002B2,false,Rx,0,8,00,00,00,00,40,00,00,04,
475026,000000AA,false,Rx,0,8,62,58,07,00,B8,0B,94,00,
475255,000000A8,false,Rx,0,8,0A,0C,21,E0,21,1F,0F,04,
475480,000000A9,false,Rx,0,8,F5,0C,79,DF,1D,C7,E0,21,
475707,000000BA,false,Rx,0,7,03,FF,0F,00,00,59,8C,00,
475939,000000C4,false,Rx,0,7,45,08,FC,71,00,FF,F1,00,
478807,000001FB,false,Rx,0,2,F3,FF,00,00,00,00,00,00,
485059,000000AA,false,Rx,0,8,64,5A,07,00,B8,0B,94,00,
485284,000000A8,false,Rx,0,8,0B,0D,21,E0,21,1F,0F,04,
485509,000000A9,false,Rx,0,8,F6,0D,79,DF,1D,C7,E0,21,
485743,000000B6,false,Rx,0,5,04,04,80,00,C8,00,00,00,
485969,000000BA,false,Rx,0,7,03,FF,0F,00,00,5A,8D,00,
486194,000000C4,false,Rx,0,7,42,08,FC,71,00,FF,F1,00,
486417,000000CE,false,Rx,0,8,00,00,00,00,00,00,00,00,
486643,0000019E,false,Rx,0,8,00,E8,3F,FC,FE,00,00,C3,
486882,000001A0,false,Rx,0,8,00,80,00,60,01,14,40,D7,
487107,000002B2,false,Rx,0,8,00,00,00,00,50,00,00,04,
494010,00000130,false,Rx,0,5,45,43,21,8F,CB,00,00,00,
494994,000000AA,false,Rx,0,8,66,5C,07,00,B8,0B,94,00,
495220,000000A8,false,Rx,0,8,0C,0E,21,E0,21,1F,0F,04,
495444,000000A9,false,Rx,0,8,F7,0E,79,DF,1D,C7,E0,21,
495676,000000BA,false,Rx,0,7,03,FF,0F,00,00,5B,8E,00,
495907,000000C4,false,Rx,0,7,42,08,FC,00,00,FF,F1,00,
496166,00000194,false,Rx,0,4,E3,F2,00,F0,00,00,00,00,
496171,000001D6,false,Rx,0,2,FF,F3,00,00,00,00,00,00,
505059,000000AA,false,Rx,0,8,5A,50,07,00,B8,0B,94,00,
505284,000000A8,false,Rx,0,8,FD,00,21,E0,21,1F,0F,04,
505509,000000A9,false,Rx,0,8,E9,00,79,DF,1D,C7,E0,21,
505743,000000B6,false,Rx,0,5,05,05,80,00,C8,00,00,00,
505974,000000BA,false,Rx,0,7,03,FF,0F,00,00,4D,80,00,
506199,000000C4,false,Rx,0,7,45,08,FC,00,00,FF,F1,00,
506424,000000CE,false,Rx,0,8,00,00,00,00,00,00,00,00,
506651,0000019E,false,Rx,0,8,00,E8,3F,FC,FE,00,00,C3,
506884,000001A0,false,Rx,0,8,00,80,00,40,01,14,50,C7,
507109,000002B2,false,Rx,0,8,00,00,00,00,50,00,00,04,
511626,000001B5,false,Rx,0,7,C8,FF,04,00,88,FF,FF,00,
515118,000000AA,false,Rx,0,8,5C,52,07,00,B8,0B,94,00,
515343,000000A8,false,Rx,0,8,FE,01,21,E0,21,1F,0F,04,
515568,000000A9,false,Rx,0,8,EA,01,79,DF,1D,C7,E0,21,
515807,000000BA,false,Rx,0,7,03,FF,0F,00,00,4E,81,00,
516032,000000C4,false,Rx,0,7,45,08,FC,00,00,FF,F1,00,
525103,000000AA,false,Rx,0,8,5E,54,07,00,B8,0B,94,00,
525328,000000A8,false,Rx,0,8,FF,02,21,E0,21,1F,0F,04,
525586,000000A9,false,Rx,0,8,EB,02,79,DF,1D,C7,E0,21,
525592,000000B6,false,Rx,0,5,06,06,80,00,C8,00,00,00,
525825,000000BA,false,Rx,0,7,03,FF,0F,00,00,4F,82,00,
526051,000000C4,false,Rx,0,7,45,08,FC,00,00,FF,F1,00,
526461,000000CE,false,Rx,0,8,00,00,00,00,00,00,00,00,
526694,0000019E,false,Rx,0,8,00,E8,3F,FC,FE,00,00,C3,
526926,000001A0,false,Rx,0,8,00,80,00,60,01,11,60,F4,
527151,000002B2,false,Rx,0,8,00,00,00,00,40,00,00,04,
527376,000000C8,false,Rx,0,6,3B,08,7C,00,00,8C,00,00,
535007,000000AA,false,Rx,0,8,60,56,07,00,B8,0B,94,00,
535236,000000A8,false,Rx,0,8,00,03,21,E0,21,1F,0F,04,
535461,000000A9,false,Rx,0,8,EC,03,79,DF,1D,C7,E0,21,
535694,000000BA,false,Rx,0,7,03,FF,0F,00,00,50,83,00,
535926,000000C4,false,Rx,0,7,42,08,FC,B5,FF,FF,F1,00,
539532,000001D0,false,Rx,0,8,3C,76,60,C3,9C,9E,CD,82,
544942,000000AA,false,Rx,0,8,62,58,07,00,B8,0B,94,00,
545353,000000A8,false,Rx,0,8,02,04,21,E0,21,1F,0F,04,
545612,000000A9,false,Rx,0,8,ED,04,79,DF,1D,C7,E0,21,
545618,000000B6,false,Rx,0,5,07,07,80,00,C8,00,00,00,
545853,000000BA,false,Rx,0,7,03,FF,0F,00,00,51,84,00,
546078,000000C4,false,Rx,0,7,45,08,FC,B5,FF,FF,F1,00,
546303,000000CE,false,Rx,0,8,00,00,00,00,00,00,00,00,
546717,0000019E,false,Rx,0,8,00,E8,3F,FC,FE,00,00,C3,
546948,000001A0,false,Rx,0,8,00,80,00,60,01,14,70,08,
547173,000002B2,false,Rx,0,8,00,00,00,00,50,00,00,04,
547399,000001A6,false,Rx,0,8,00,00,00,00,00,00,C0,F1,
547624,000004A9,false,Rx,0,8,30,42,FF,FF,FF,FF,FF,FF,
555089,000000AA,false,Rx,0,8,64,5A,07,00,B8,0B,94,00,
555317,000000A8,false,Rx,0,8,03,05,21,E0,21,1F,0F,04,
555543,000000A9,false,Rx,0,8,EE,05,79,DF,1D,C7,E0,21,
555773,000000BA,false,Rx,0,7,03,FF,0F,00,00,52,85,00,
556005,000000C4,false,Rx,0,7,45,08,FC,00,00,FF,F1,00,
565081,000000AA,false,Rx,0,8,66,5C,07,00,B8,0B,94,00,
565306,000000A8,false,Rx,0,8,04,06,21,E0,21,1F,0F,04,
565532,000000A9,false,Rx,0,8,EF,06,79,DF,1D,C7,E0,21,
565765,000000B6,false,Rx,0,5,08,08,80,00,C8,00,00,00,
565991,000000BA,false,Rx,0,7,03,FF,0F,00,00,53,86,00,
566216,000000C4,false,Rx,0,7,45,08,FC,00,00,FF,F1,00,
566441,000000CE,false,Rx,0,8,00,00,00,00,00,00,00,00,
566672,0000019E,false,Rx,0,8,00,E8,4F,FC,FE,00,00,D3,
566904,000001A0,false,Rx,0,8,00,80,00,40,01,14,80,F7,
567129,000001B4,false,Rx,0,8,00,D0,E2,F4,44,32,FE,D3,
567353,000002B2,false,Rx,0,8,00,00,00,00,50,00,00,04,
575060,000000AA,false,Rx,0,8,68,5E,07,00,B8,0B,94,00,
575289,000000A8,false,Rx,0,8,05,07,21,E0,21,1F,0F,04,
575514,000000A9,false,Rx,0,8,F0,07,79,DF,1D,C7,E0,21,
575745,000000BA,false,Rx,0,7,03,FF,0F,00,00,54,87,00,
575977,000000C4,false,Rx,0,7,42,08,FC,B5,FF,FF,F1,00,
585059,000000AA,false,Rx,0,8,5A,50,07,00,B8,0B,94,00,
585284,000000A8,false,Rx,0,8,06,08,21,E0,21,1F,0F,04,
585509,000000A9,false,Rx,0,8,F1,08,79,DF,1D,C7,E0,21,
585743,000000B6,false,Rx,0,5,09,09,80,00,C8,00,00,00,
585969,000000BA,false,Rx,0,7,03,FF,0F,00,00,55,88,00,
586194,000000C4,false,Rx,0,7,42,08,FC,B5,FF,FF,F1,00,
586418,000000CE,false,Rx,0,8,00,00,00,00,00,00,00,00,
586643,0000019E,false,Rx,0,8,00,E8,4F,FC,FE,00,00,D3,
586882,000001A0,false,Rx,0,8,00,80,00,40,01,11,90,05,
587106,000002B2,false,Rx,0,8,00,00,00,00,40,00,00,04,
594535,00000130,false,Rx,0,5,45,43,21,8F,DC,00,00,00,
594959,000000AA,false,Rx,0,8,5C,52,07,00,B8,0B,94,00,
595185,000000A8,false,Rx,0,8,07,09,21,E0,21,1F,0F,04,
595409,000000A9,false,Rx,0,8,F2,09,79,DF,1D,C7,E0,21,
595635,000000BA,false,Rx,0,7,03,FF,0F,00,00,56,89,00,
595873,000000C4,false,Rx,0,7,45,08,FC,71,00,FF,F1,00,
596098,000001D2,false,Rx,0,5,E1,0C,8F,F0,F0,00,00,00,
596324,000005A9,false,Rx,0,8,30,02,00,25,25,F1,60,04,
596548,000001D6,false,Rx,0,2,FF,F3,00,00,00,00,00,00,
605065,000000AA,false,Rx,0,8,5E,54,07,00,B8,0B,94,00,
605289,000000A8,false,Rx,0,8,08,0A,21,E0,21,1F,0F,04,
605515,000000A9,false,Rx,0,8,F3,0A,79,DF,1D,C7,E0,21,
605748,000000BA,false,Rx,0,7,03,FF,0F,00,00,57,8A,00,
605975,000000B6,false,Rx,0,5,0A,0A,80,00,C8,00,00,00,
606200,000000C4,false,Rx,0,7,42,08,FC,71,00,FF,F1,00,
606425,000000CE,false,Rx,0,8,00,00,00,00,00,00,00,00,
606651,0000019E,false,Rx,0,8,00,E8,4F,FC,FE,00,00,D3,
606883,000001A0,false,Rx,0,8,00,80,00,40,01,11,A0,15,
607108,000002B2,false,Rx,0,8,00,00,00,00,40,00,00,04,
607334,000005A9,false,Rx,0,8,32,02,00,63,00,F0,00,FF,
614937,000000AA,false,Rx,0,8,60,56,07,00,B8,0B,94,00,
615351,000000A8,false,Rx,0,8,09,0B,21,E0,21,1F,0F,04,
615576,000000A9,false,Rx,0,8,F4,0B,79,DF,1D,C7,E0,21,
615847,000000BA,false,Rx,0,7,03,FF,0F,00,00,58,8B,00,
615853,000000C4,false,Rx,0,7,45,08,FC,E4,00,FF,F1,00,
625116,000000AA,false,Rx,0,8,62,58,07,00,B8,0B,94,00,
625341,000000A8,false,Rx,0,8,0A,0C,21,E0,21,1F,0F,04,
625600,000000A9,false,Rx,0,8,F5,0C,79,DF,1D,C7,E0,21,
625606,000000B6,false,Rx,0,5,0B,0B,80,00,C8,00,00,00,
625842,000000BA,false,Rx,0,7,03,FF,0F,00,00,59,8C,00,
626067,000000C4,false,Rx,0,7,45,08,FC,E4,00,FF,F1,00,
626292,000000CE,false,Rx,0,8,00,00,00,00,00,00,00,00,
626706,0000019E,false,Rx,0,8,00,E8,4F,FC,FE,00,00,D3,
626938,000001A0,false,Rx,0,8,00,80,00,60,01,11,B0,45,
627163,000002B2,false,Rx,0,8,00,00,00,00,40,00,00,04,
634972,000000AA,false,Rx,0,8,64,5A,07,00,B8,0B,94,00,
635201,000000A8,false,Rx,0,8,0B,0D,21,E0,21,1F,0F,04,
635426,000000A9,false,Rx,0,8,F6,0D,79,DF,1D,C7,E0,21,
635655,000000BA,false,Rx,0,7,03,FF,0F,00,00,5A,8D,00,
635888,000000C4,false,Rx,0,7,45,08,FC,00,00,FF,F1,00,
639677,000001D0,false,Rx,0,8,3C,76,61,C3,9C,9E,CD,82,
645013,000000AA,false,Rx,0,8,66,5C,07,00,B8,0B,94,00,
645238,000000A8,false,Rx,0,8,0C,0E,21,E0,21,1F,0F,04,
645464,000000A9,false,Rx,0,8,F7,0E,79,DF,1D,C7,E0,21,
645697,000000B6,false,Rx,0,5,0C,0C,80,00,C8,00,00,00,
645929,000000BA,false,Rx,0,7,03,FF,0F,00,00,5B,8E,00,
646162,000000C4,false,Rx,0,7,45,08,FC,00,00,FF,F1,00,
646387,000000CE,false,Rx,0,8,00,00,00,00,00,00,00,00,
646624,0000019E,false,Rx,0,8,00,E8,4F,FC,FE,00,00,D3,
646886,000001A0,false,Rx,0,8,00,80,00,40,01,11,C0,35,
647128,000002B2,false,Rx,0,8,00,00,00,00,40,00,00,04,
647360,000001A6,false,Rx,0,8,00,00,00,00,00,00,50,F3,
647814,000004B0,false,Rx,0,8,00,42,FE,01,FF,FF,FF,FF,
655017,000000AA,false,Rx,0,8,5A,50,07,00,B8,0B,94,00,
655246,000000A8,false,Rx,0,8,FD,00,21,E0,21,1F,0F,04,
655471,000000A9,false,Rx,0,8,E9,00,79,DF,1D,C7,E0,21,
655703,000000BA,false,Rx,0,7,03,FF,0F,00,00,4D,80,00,
655934,000000C4,false,Rx,0,7,45,08,FC,00,00,FF,F1,00,
665014,000000AA,false,Rx,0,8,5C,52,07,00,B8,0B,94,00,
665239,000000A8,false,Rx,0,8,FE,01,21,E0,21,1F,0F,04,
665465,000000A9,false,Rx,0,8,EA,01,79,DF,1D,C7,E0,21,
665697,000000B6,false,Rx,0,5,0D,0D,80,00,C8,00,00,00,
665922,000000BA,false,Rx,0,7,03,FF,0F,00,00,4E,81,00,
666147,000000C4,false,Rx,0,7,45,08,FC,00,00,FF,F1,00,
666372,000000CE,false,Rx,0,8,00,00,00,00,00,00,00,00,
666597,0000019E,false,Rx,0,8,00,E8,4F,FC,FE,00,00,D3,
666838,000001A0,false,Rx,0,8,00,80,00,60,01,11,D0,65,
667063,000001B4,false,Rx,0,8,00,D0,E2,F5,44,32,FE,D4,
667288,000002B2,false,Rx,0,8,00,00,00,00,40,00,00,04,
667892,000001FB,false,Rx,0,2,F4,FF,00,00,00,00,00,00,
675107,000000AA,false,Rx,0,8,5E,54,07,00,B8,0B,94,00,
675335,000000A8,false,Rx,0,8,FF,02,21,E0,21,1F,0F,04,
675561,000000A9,false,Rx,0,8,EB,02,79,DF,1D,C7,E0,21,
675797,000000BA,false,Rx,0,7,03,FF,0F,00,00,4F,82,00,
676022,000000C4,false,Rx,0,7,42,08,FC,DC,FF,FF,F1,00,
685081,000000AA,false,Rx,0,8,60,56,07,00,B8,0B,94,00,
685316,000000A8,false,Rx,0,8,00,03,21,E0,21,1F,0F,04,
685596,000000A9,false,Rx,0,8,EC,03,79,DF,1D,C7,E0,21,
685601,000000B6,false,Rx,0,5,0E,0E,80,00,C8,00,00,00,
685841,000000BA,false,Rx,0,7,03,FF,0F,00,00,50,83,00,
686066,000000C4,false,Rx,0,7,45,08,FC,DC,FF,FF,F1,00,
686290,000000CE,false,Rx,0,8,00,00,00,00,00,00,00,00,
686706,0000019E,false,Rx,0,8,00,E8,4F,FC,FE,00,00,D3,
686938,000001A0,false,Rx,0,8,00,80,00,60,01,14,E0,78,
687164,000002B2,false,Rx,0,8,00,00,00,00,50,00,00,04,
693886,00000130,false,Rx,0,5,45,43,21,8F,ED,00,00,00,
695059,000000AA,false,Rx,0,8,62,58,07,00,B8,0B,94,00,
695284,000000A8,false,Rx,0,8,02,04,21,E0,21,1F,0F,04,
695508,000000A9,false,Rx,0,8,ED,04,79,DF,1D,C7,E0,21,
695743,000000BA,false,Rx,0,7,03,FF,0F,00,00,51,84,00,
695974,000000C4,false,Rx,0,7,42,08,FC,1C,FF,FF,F1,00,
696233,00000194,false,Rx,0,4,E4,F3,00,F0,00,00,00,00,
696238,000001D6,false,Rx,0,2,FF,F3,00,00,00,00,00,00,
704936,000000AA,false,Rx,0,8,64,5A,07,00,B8,0B,94,00,
705347,000000A8,false,Rx,0,8,03,05,21,E0,21,1F,0F,04,
705572,000000A9,false,Rx,0,8,EE,05,79,DF,1D,C7,E0,21,
705842,000000BA,false,Rx,0,7,03,FF,0F,00,00,52,85,00,
705848,000000B6,false,Rx,0,5,FF,00,80,00,C8,00,00,00,
706072,000000C4,false,Rx,0,7,42,08,FC,1C,FF,FF,F1,00,
706297,000000CE,false,Rx,0,8,00,00,00,00,00,00,00,00,
706710,0000019E,false,Rx,0,8,00,E8,4F,FC,FE,00,00,D3,
706942,000001A0,false,Rx,0,8,00,80,00,60,01,11,00,94,
707168,000002B2,false,Rx,0,8,00,00,00,00,40,00,00,04,
715118,000000AA,false,Rx,0,8,66,5C,07,00,B8,0B,94,00,
715347,000000A8,false,Rx,0,8,04,06,21,E0,21,1F,0F,04,
715572,000000A9,false,Rx,0,8,EF,06,79,DF,1D,C7,E0,21,
715844,000000BA,false,Rx,0,7,03,FF,0F,00,00,53,86,00,
715849,000000C4,false,Rx,0,7,45,08,FC,71,00,FF,F1,00,
717764,00000335,false,Rx,0,8,00,4C,10,00,00,9A,00,00,
724944,000000AA,false,Rx,0,8,68,5E,07,00,B8,0B,94,00,
725355,000000A8,false,Rx,0,8,05,07,21,E0,21,1F,0F,04,
725580,000000A9,false,Rx,0,8,F0,07,79,DF,1D,C7,E0,21,
725847,000000BA,false,Rx,0,7,03,FF,0F,00,00,54,87,00,
725852,000000B6,false,Rx,0,5,00,01,80,00,C8,00,00,00,
726076,000000C4,false,Rx,0,7,45,08,FC,71,00,FF,F1,00,
726301,000000CE,false,Rx,0,8,00,00,00,00,00,00,00,00,
726713,0000019E,false,Rx,0,8,00,E8,4F,FC,FE,00,00,D3,
726945,000001A0,false,Rx,0,8,00,80,00,40,01,14,10,87,
727170,000002B2,false,Rx,0,8,00,00,00,00,50,00,00,04,
727395,000000C8,false,Rx,0,6,3B,08,CC,00,00,9C,00,00,
735000,000000AA,false,Rx,0,8,5A,50,07,00,B8,0B,94,00,
735229,000000A8,false,Rx,0,8,06,08,21,E0,21,1F,0F,04,
735455,000000A9,false,Rx,0,8,F1,08,79,DF,1D,C7,E0,21,
735688,000000BA,false,Rx,0,7,03,FF,0F,00,00,55,88,00,
735919,000000C4,false,Rx,0,7,42,08,FC,8F,FF,FF,F1,00,
739344,00000480,false,Rx,0,8,17,42,FD,FF,FF,FF,FF,FF,
739569,000001D0,false,Rx,0,8,3C,76,61,C3,9C,9E,CD,82,
745080,000000AA,false,Rx,0,8,5C,52,07,00,B8,0B,94,00,
745304,000000A8,false,Rx,0,8,07,09,21,E0,21,1F,0F,04,
745530,000000A9,false,Rx,0,8,F2,09,79,DF,1D,C7,E0,21,
745762,000000B6,false,Rx,0,5,02,02,80,00,C8,00,00,00,
745991,000000BA,false,Rx,0,7,03,FF,0F,00,00,56,89,00,
746230,000000C4,false,Rx,0,7,45,08,FC,8F,FF,FF,F1,00,
746462,000000CE,false,Rx,0,8,00,00,00,00,00,00,00,00,
746696,0000019E,false,Rx,0,8,00,E8,4F,FC,FE,00,00,D3,
746928,000001A0,false,Rx,0,8,00,80,00,40,01,11,20,94,
747153,000002B2,false,Rx,0,8,00,00,00,00,40,00,00,04,
747377,000001A6,false,Rx,0,8,00,00,00,00,00,00,E0,F4,
754992,000000AA,false,Rx,0,8,5E,54,07,00,B8,0B,94,00,
755221,000000A8,false,Rx,0,8,08,0A,21,E0,21,1F,0F,04,
755446,000000A9,false,Rx,0,8,F3,0A,79,DF,1D,C7,E0,21,
755676,000000BA,false,Rx,0,7,03,FF,0F,00,00,57,8A,00,
755907,000000C4,false,Rx,0,7,45,08,FC,00,00,FF,F1,00,
764985,000000AA,false,Rx,0,8,60,56,07,00,B8,0B,94,00,
765210,000000A8,false,Rx,0,8,09,0B,21,E0,21,1F,0F,04,
765435,000000A9,false,Rx,0,8,F4,0B,79,DF,1D,C7,E0,21,
765669,000000B6,false,Rx,0,5,03,03,80,00,C8,00,00,00,
765895,000000BA,false,Rx,0,7,03,FF,0F,00,00,58,8B,00,
766119,000000C4,false,Rx,0,7,45,08,FC,00,00,FF,F1,00,
766344,000000CE,false,Rx,0,8,00,00,00,00,00,00,00,00,
766568,0000019E,false,Rx,0,8,00,E8,5F,FC,FE,00,00,E3,
766809,000001A0,false,Rx,0,8,00,80,00,60,01,11,30,C4,
767034,000001B4,false,Rx,0,8,00,D0,E2,F6,44,32,FE,D5,
767259,000002B2,false,Rx,0,8,00,00,00,00,40,00,00,04,
775038,000000AA,false,Rx,0,8,62,58,07,00,B8,0B,94,00,
775267,000000A8,false,Rx,0,8,0A,0C,21,E0,21,1F,0F,04,
775492,000000A9,false,Rx,0,8,F5,0C,79,DF,1D,C7,E0,21,
775720,000000BA,false,Rx,0,7,03,FF,0F,00,00,59,8C,00,
775952,000000C4,false,Rx,0,7,42,08,FC,B5,FF,FF,F1,00,
785017,000000AA,false,Rx,0,8,64,5A,07,00,B8,0B,94,00,
785242,000000A8,false,Rx,0,8,0B,0D,21,E0,21,1F,0F,04,
785468,000000A9,false,Rx,0,8,F6,0D,79,DF,1D,C7,E0,21,
785697,000000B6,false,Rx,0,5,04,04,80,00,C8,00,00,00,
785923,000000BA,false,Rx,0,7,03,FF,0F,00,00,5A,8D,00,
786147,000000C4,false,Rx,0,7,45,08,FC,B5,FF,FF,F1,00,
786372,000000CE,false,Rx,0,8,00,00,00,00,00,00,00,00,
786598,0000019E,false,Rx,0,8,00,E8,5F,FC,FE,00,00,E3,
786838,000001A0,false,Rx,0,8,00,80,00,60,01,14,40,D7,
787063,000002B2,false,Rx,0,8,00,00,00,00,50,00,00,04,
791775,000002F6,false,Rx,0,2,54,F5,00,00,00,00,00,00,
794011,00000130,false,Rx,0,5,45,43,21,8F,FE,00,00,00,
794994,000000AA,false,Rx,0,8,66,5C,07,00,B8,0B,94,00,
795219,000000A8,false,Rx,0,8,0C,0E,21,E0,21,1F,0F,04,
795444,000000A9,false,Rx,0,8,F7,0E,79,DF,1D,C7,E0,21,
795676,000000BA,false,Rx,0,7,03,FF,0F,00,00,5B,8E,00,
795907,000000C4,false,Rx,0,7,45,08,FC,00,00,FF,F1,00,
796165,000001D2,false,Rx,0,5,E1,0C,8F,00,F0,00,00,00,
796170,000001D6,false,Rx,0,2,FF,F3,00,00,00,00,00,00,
805059,000000AA,false,Rx,0,8,5A,50,07,00,B8,0B,94,00,
805284,000000A8,false,Rx,0,8,FD,00,21,E0,21,1F,0F,04,
805510,000000A9,false,Rx,0,8,E9,00,79,DF,1D,C7,E0,21,
805743,000000B6,false,Rx,0,5,05,05,80,00,C8,00,00,00,
805974,000000BA,false,Rx,0,7,03,FF,0F,00,00,4D,80,00,
806199,000000C4,false,Rx,0,7,45,08,FC,00,00,FF,F1,00,
806423,000000CE,false,Rx,0,8,00,00,00,00,00,00,00,00,
806650,0000019E,false,Rx,0,8,00,E8,5F,FC,FE,00,00,E3,
806883,000001A0,false,Rx,0,8,00,80,00,40,01,14,50,C7,
807107,000002B2,false,Rx,0,8,00,00,00,00,50,00,00,04,
814936,000000AA,false,Rx,0,8,5C,52,07,00,B8,0B,94,00,
815351,000000A8,false,Rx,0,8,FE,01,21,E0,21,1F,0F,04,
815576,000000A9,false,Rx,0,8,EA,01,79,DF,1D,C7,E0,21,
815813,000000BA,false,Rx,0,7,03,FF,0F,00,00,4E,81,00,
815853,000000C4,false,Rx,0,7,45,08,FC,00,00,FF,F1,00,
824991,000000AA,false,Rx,0,8,5E,54,07,00,B8,0B,94,00,
825216,000000A8,false,Rx,0,8,FF,02,21,E0,21,1F,0F,04,
825441,000000A9,false,Rx,0,8,EB,02,79,DF,1D,C7,E0,21,
825672,000000B6,false,Rx,0,5,06,06,80,00,C8,00,00,00,
825903,000000BA,false,Rx,0,7,03,FF,0F,00,00,4F,82,00,
826128,000000C4,false,Rx,0,7,42,08,FC,00,00,FF,F1,00,
826354,000000CE,false,Rx,0,8,00,00,00,00,00,00,00,00,
826579,0000019E,false,Rx,0,8,00,E8,5F,FC,FE,00,00,E3,
826817,000001A0,false,Rx,0,8,00,80,00,60,01,14,60,F7,
827041,000002B2,false,Rx,0,8,00,00,00,00,50,00,00,04,
832729,00000497,false,Rx,0,8,29,42,FF,FF,FF,FF,FF,FF,
834959,000000AA,false,Rx,0,8,60,56,07,00,B8,0B,94,00,
835183,000000A8,false,Rx,0,8,00,03,21,E0,21,1F,0F,04,
835593,000000A9,false,Rx,0,8,EC,03,79,DF,1D,C7,E0,21,
835869,000000BA,false,Rx,0,7,03,FF,0F,00,00,50,83,00,
835874,000000C4,false,Rx,0,7,45,08,FC,E4,00,FF,F1,00,
839690,000001D0,false,Rx,0,8,3C,76,62,C3,9C,9E,CD,82,
845000,000000AA,false,Rx,0,8,62,58,07,00,B8,0B,94,00,
845224,000000A8,false,Rx,0,8,02,04,21,E0,21,1F,0F,04,
845449,000000A9,false,Rx,0,8,ED,04,79,DF,1D,C7,E0,21,
845677,000000B6,false,Rx,0,5,07,07,80,00,C8,00,00,00,
845909,000000BA,false,Rx,0,7,03,FF,0F,00,00,51,84,00,
846133,000000C4,false,Rx,0,7,45,08,FC,E4,00,FF,F1,00,
846359,000000CE,false,Rx,0,8,00,00,00,00,00,00,00,00,
846584,0000019E,false,Rx,0,8,00,E8,5F,FC,FE,00,00,E3,
846822,000001A0,false,Rx,0,8,00,80,00,60,01,14,70,08,
847047,000002B2,false,Rx,0,8,00,00,00,00,50,00,00,04,
847272,000001A6,false,Rx,0,8,00,00,00,00,00,00,70,F6,
854940,000000AA,false,Rx,0,8,64,5A,07,00,B8,0B,94,00,
855354,000000A8,false,Rx,0,8,03,05,21,E0,21,1F,0F,04,
855579,000000A9,false,Rx,0,8,EE,05,79,DF,1D,C7,E0,21,
855853,000000BA,false,Rx,0,7,03,FF,0F,00,00,52,85,00,
855858,000000C4,false,Rx,0,7,45,08,FC,00,00,FF,F1,00,
858715,000001FB,false,Rx,0,2,F5,FF,00,00,00,00,00,00,
864975,000000AA,false,Rx,0,8,66,5C,07,00,B8,0B,94,00,
865200,000000A8,false,Rx,0,8,04,06,21,E0,21,1F,0F,04,
865424,000000A9,false,Rx,0,8,EF,06,79,DF,1D,C7,E0,21,
865650,000000B6,false,Rx,0,5,08,08,80,00,C8,00,00,00,
865877,000000BA,false,Rx,0,7,03,FF,0F,00,00,53,86,00,
866102,000000C4,false,Rx,0,7,45,08,FC,00,00,FF,F1,00,
866327,000000CE,false,Rx,0,8,00,00,00,00,00,00,00,00,
866552,0000019E,false,Rx,0,8,00,E8,5F,FC,FE,00,00,E3,
866793,000001A0,false,Rx,0,8,00,80,00,60,01,14,80,18,
867017,000001B4,false,Rx,0,8,00,D0,E2,F7,44,32,FE,D6,
867427,000002B2,false,Rx,0,8,00,00,00,00,50,00,00,04,
875031,000000AA,false,Rx,0,8,68,5E,07,00,B8,0B,94,00,
875260,000000A8,false,Rx,0,8,05,07,21,E0,21,1F,0F,04,
875485,000000A9,false,Rx,0,8,F0,07,79,DF,1D,C7,E0,21,
875713,000000BA,false,Rx,0,7,03,FF,0F,00,00,54,87,00,
875945,000000C4,false,Rx,0,7,42,08,FC,C8,FF,FF,F1,00,
885007,000000AA,false,Rx,0,8,5A,50,07,00,B8,0B,94,00,
885232,000000A8,false,Rx,0,8,06,08,21,E0,21,1F,0F,04,
885457,000000A9,false,Rx,0,8,F1,08,79,DF,1D,C7,E0,21,
885690,000000B6,false,Rx,0,5,09,09,80,00,C8,00,00,00,
885916,000000BA,false,Rx,0,7,03,FF,0F,00,00,55,88,00,
886141,000000C4,false,Rx,0,7,42,08,FC,C8,FF,FF,F1,00,
886366,000000CE,false,Rx,0,8,00,00,00,00,00,00,00,00,
886591,0000019E,false,Rx,0,8,00,E8,5F,FC,FE,00,00,E3,
886831,000001A0,false,Rx,0,8,00,80,00,60,01,14,90,28,
887056,000002B2,false,Rx,0,8,00,00,00,00,50,00,00,04,
894034,00000130,false,Rx,0,5,45,43,21,8F,00,00,00,00,
895017,000000AA,false,Rx,0,8,5C,52,07,00,B8,0B,94,00,
895242,000000A8,false,Rx,0,8,07,09,21,E0,21,1F,0F,04,
895468,000000A9,false,Rx,0,8,F2,09,79,DF,1D,C7,E0,21,
895697,000000BA,false,Rx,0,7,03,FF,0F,00,00,56,89,00,
895932,000000C4,false,Rx,0,7,45,08,FC,71,00,FF,F1,00,
896195,00000194,false,Rx,0,4,E5,F4,00,F0,00,00,00,00,
896200,000001D6,false,Rx,0,2,FF,F3,00,00,00,00,00,00,
905002,000000AA,false,Rx,0,8,5E,54,07,00,B8,0B,94,00,
905228,000000A8,false,Rx,0,8,08,0A,21,E0,21,1F,0F,04,
905453,000000A9,false,Rx,0,8,F3,0A,79,DF,1D,C7,E0,21,
905681,000000BA,false,Rx,0,7,03,FF,0F,00,00,57,8A,00,
905907,000000B6,false,Rx,0,5,0A,0A,80,00,C8,00,00,00,
906132,000000C4,false,Rx,0,7,42,08,FC,71,00,FF,F1,00,
906357,000000CE,false,Rx,0,8,00,00,00,00,00,00,00,00,
906582,0000019E,false,Rx,0,8,00,E8,5F,FC,FE,00,00,E3,
906821,000001A0,false,Rx,0,8,00,80,00,60,01,14,A0,38,
907046,000002B2,false,Rx,0,8,00,00,00,00,50,00,00,04,
914961,000000AA,false,Rx,0,8,60,56,07,00,B8,0B,94,00,
915205,000000A8,false,Rx,0,8,09,0B,21,E0,21,1F,0F,04,
915452,000000A9,false,Rx,0,8,F4,0B,79,DF,1D,C7,E0,21,
915691,000000BA,false,Rx,0,7,03,FF,0F,00,00,58,8B,00,
915928,000000C4,false,Rx,0,7,42,08,FC,00,00,FF,F1,00,
925000,000000AA,false,Rx,0,8,62,58,07,00,B8,0B,94,00,
925225,000000A8,false,Rx,0,8,0A,0C,21,E0,21,1F,0F,04,
925451,000000A9,false,Rx,0,8,F5,0C,79,DF,1D,C7,E0,21,
925678,000000BA,false,Rx,0,7,03,FF,0F,00,00,59,8C,00,
925904,000000B6,false,Rx,0,5,0B,0B,80,00,C8,00,00,00,
926128,000000C4,false,Rx,0,7,45,08,FC,00,00,FF,F1,00,
926354,000000CE,false,Rx,0,8,00,00,00,00,00,00,00,00,
926579,0000019E,false,Rx,0,8,00,E8,5F,FC,FE,00,00,E3,
926817,000001A0,false,Rx,0,8,00,80,00,70,01,11,B0,55,
927042,000002B2,false,Rx,0,8,00,00,00,00,40,00,00,04,
927267,000004A9,false,Rx,0,8,30,42,FF,FF,FF,FF,FF,FF,
927491,000000C8,false,Rx,0,6,3B,08,3C,00,00,5C,00,00,
934938,000000AA,false,Rx,0,8,64,5A,07,00,B8,0B,94,00,
935352,000000A8,false,Rx,0,8,0B,0D,21,E0,21,1F,0F,04,
935577,000000A9,false,Rx,0,8,F6,0D,79,DF,1D,C7,E0,21,
935847,000000BA,false,Rx,0,7,03,FF,0F,00,00,5A,8D,00,
935853,000000C4,false,Rx,0,7,45,08,FC,00,00,FF,F1,00,
939643,000001D0,false,Rx,0,8,3C,76,62,C3,9C,9E,CD,82,
944967,000000AA,false,Rx,0,8,66,5C,07,00,B8,0B,94,00,
945192,000000A8,false,Rx,0,8,0C,0E,21,E0,21,1F,0F,04,
945417,000000A9,false,Rx,0,8,F7,0E,79,DF,1D,C7,E0,21,
945643,000000B6,false,Rx,0,5,0C,0C,80,00,C8,00,00,00,
945881,000000BA,false,Rx,0,7,03,FF,0F,00,00,5B,8E,00,
946106,000000C4,false,Rx,0,7,45,08,FC,00,00,FF,F1,00,
946331,000000CE,false,Rx,0,8,00,00,00,00,00,00,00,00,
946556,0000019E,false,Rx,0,8,00,E8,5F,FC,FE,00,00,E3,
946794,000001A0,false,Rx,0,8,00,80,00,60,01,11,C0,55,
947204,000002B2,false,Rx,0,8,00,00,00,00,40,00,00,04,
947430,000001A6,false,Rx,0,8,00,00,00,00,00,00,00,F8,
955064,000000AA,false,Rx,0,8,5A,50,07,00,B8,0B,94,00,
955293,000000A8,false,Rx,0,8,FD,00,21,E0,21,1F,0F,04,
955518,000000A9,false,Rx,0,8,E9,00,79,DF,1D,C7,E0,21,
955751,000000BA,false,Rx,0,7,03,FF,0F,00,00,4D,80,00,
955983,000000C4,false,Rx,0,7,42,08,FC,B5,FF,FF,F1,00,
965081,000000AA,false,Rx,0,8,5C,52,07,00,B8,0B,94,00,
965306,000000A8,false,Rx,0,8,FE,01,21,E0,21,1F,0F,04,
965532,000000A9,false,Rx,0,8,EA,01,79,DF,1D,C7,E0,21,
965765,000000B6,false,Rx,0,5,0D,0D,80,00,C8,00,00,00,
965990,000000BA,false,Rx,0,7,03,FF,0F,00,00,4E,81,00,
966215,000000C4,false,Rx,0,7,42,08,FC,B5,FF,FF,F1,00,
966440,000000CE,false,Rx,0,8,00,00,00,00,00,00,00,00,
966672,0000019E,false,Rx,0,8,00,E8,5F,FC,FE,00,00,E3,
966904,000001A0,false,Rx,0,8,00,80,00,60,01,11,D0,65,
967129,000001B4,false,Rx,0,8,00,D0,E2,F8,44,32,FE,D7,
967354,000002B2,false,Rx,0,8,00,00,00,00,40,00,00,04,
974995,000000AA,false,Rx,0,8,5E,54,07,00,B8,0B,94,00,
975223,000000A8,false,Rx,0,8,FF,02,21,E0,21,1F,0F,04,
975448,000000A9,false,Rx,0,8,EB,02,79,DF,1D,C7,E0,21,
975678,000000BA,false,Rx,0,7,03,FF,0F,00,00,4F,82,00,
975910,000000C4,false,Rx,0,7,45,08,FC,71,00,FF,F1,00,
984975,000000AA,false,Rx,0,8,60,56,07,00,B8,0B,94,00,
985200,000000A8,false,Rx,0,8,00,03,21,E0,21,1F,0F,04,
985426,000000A9,false,Rx,0,8,EC,03,79,DF,1D,C7,E0,21,
985655,000000B6,false,Rx,0,5,0E,0E,80,00,C8,00,00,00,
985887,000000BA,false,Rx,0,7,03,FF,0F,00,00,50,83,00,
986113,000000C4,false,Rx,0,7,45,08,FC,71,00,FF,F1,00,
986338,000000CE,false,Rx,0,8,00,00,00,00,00,00,00,00,
986563,0000019E,false,Rx,0,8,00,E8,6F,FC,FE,00,00,F3,
986803,000001A0,false,Rx,0,8,00,80,00,60,01,11,E0,75,
987028,000002B2,false,Rx,0,8,00,00,00,00,40,00,00,04,
993994,00000130,false,Rx,0,5,45,43,21,8F,11,00,00,00,
995048,000000AA,false,Rx,0,8,62,58,07,00,B8,0B,94,00,
995273,000000A8,false,Rx,0,8,02,04,21,E0,21,1F,0F,04,
995497,000000A9,false,Rx,0,8,ED,04,79,DF,1D,C7,E0,21,
995727,000000BA,false,Rx,0,7,03,FF,0F,00,00,51,84,00,
995958,000000C4,false,Rx,0,7,45,08,FC,00,00,FF,F1,00,
996216,000001D2,false,Rx,0,5,E1,0C,8F,10,F0,00,00,00,
996222,000001D6,false,Rx,0,2,FF,F3,00,00,00,00,00,00,
1005116,000000AA,false,Rx,0,8,64,5A,07,00,B8,0B,94,00,
1005341,000000A8,false,Rx,0,8,03,05,21,E0,21,1F,0F,04,
1005567,000000A9,false,Rx,0,8,EE,05,79,DF,1D,C7,E0,21,
1005840,000000BA,false,Rx,0,7,03,FF,0F,00,00,52,85,00,
1005845,000000B6,false,Rx,0,5,FF,00,80,00,C8,00,00,00,
1006069,000000C4,false,Rx,0,7,45,08,FC,00,00,FF,F1,00,
1006480,000000CE,false,Rx,0,8,00,00,00,00,00,00,00,00,
1006708,0000019E,false,Rx,0,8,00,E8,6F,FC,FE,00,00,F3,
1006940,000001A0,false,Rx,0,8,00,80,00,60,01,11,00,94,
1007165,000002B2,false,Rx,0,8,00,00,00,00,40,00,00,04,
1015062,000000AA,false,Rx,0,8,66,5C,07,00,B8,0B,94,00,
1015306,000000A8,false,Rx,0,8,04,06,21,E0,21,1F,0F,04,
1015544,000000A9,false,Rx,0,8,EF,06,79,DF,1D,C7,E0,21,
1015794,000000BA,false,Rx,0,7,03,FF,0F,00,00,53,86,00,
1016034,000000C4,false,Rx,0,7,45,08,FC,00,00,FF,F1,00,
1017959,000004B0,false,Rx,0,8,00,42,FE,01,FF,FF,FF,FF,
1024944,000000AA,false,Rx,0,8,68,5E,07,00,B8,0B,94,00,
1025355,000000A8,false,Rx,0,8,05,07,21,E0,21,1F,0F,04,
1025580,000000A9,false,Rx,0,8,F0,07,79,DF,1D,C7,E0,21,
1025852,000000BA,false,Rx,0,7,03,FF,0F,00,00,54,87,00,
1025857,000000B6,false,Rx,0,5,00,01,80,00,C8,00,00,00,
1026081,000000C4,false,Rx,0,7,42,08,FC,00,00,FF,F1,00,
1026305,000000CE,false,Rx,0,8,00,00,00,00,00,00,00,00,
1026718,0000019E,false,Rx,0,8,00,E8,6F,FC,FE,00,00,F3,
1026951,000001A0,false,Rx,0,8,00,80,00,60,01,14,10,A7,
1027175,000002B2,false,Rx,0,8,00,00,00,00,50,00,00,04,
1034971,000000AA,false,Rx,0,8,5A,50,07,00,B8,0B,94,00,
1035200,000000A8,false,Rx,0,8,06,08,21,E0,21,1F,0F,04,
1035425,000000A9,false,Rx,0,8,F1,08,79,DF,1D,C7,E0,21,
1035650,000000BA,false,Rx,0,7,03,FF,0F,00,00,55,88,00,
1035883,000000C4,false,Rx,0,7,45,08,FC,E4,00,FF,F1,00,
1039677,000001D0,false,Rx,0,8,3C,76,63,C3,9C,9E,CD,82,
1045081,000000AA,false,Rx,0,8,5C,52,07,00,B8,0B,94,00,
1045306,000000A8,false,Rx,0,8,07,09,21,E0,21,1F,0F,04,
1045532,000000A9,false,Rx,0,8,F2,09,79,DF,1D,C7,E0,21,
1045765,000000B6,false,Rx,0,5,02,02,80,00,C8,00,00,00,
1045991,000000BA,false,Rx,0,7,03,FF,0F,00,00,56,89,00,
1046216,000000C4,false,Rx,0,7,45,08,FC,E4,00,FF,F1,00,
1046441,000000CE,false,Rx,0,8,00,00,00,00,00,00,00,00,
1046672,0000019E,false,Rx,0,8,00,E8,6F,FC,FE,00,00,F3,
1046904,000001A0,false,Rx,0,8,00,80,00,60,01,11,20,B4,
1047129,000002B2,false,Rx,0,8,00,00,00,00,40,00,00,04,
1047354,000001A6,false,Rx,0,8,00,00,00,00,00,00,90,F9,
1048715,000001FB,false,Rx,0,2,F6,FF,00,00,00,00,00,00,
1054970,000000AA,false,Rx,0,8,5E,54,07,00,B8,0B,94,00,
1055199,000000A8,false,Rx,0,8,08,0A,21,E0,21,1F,0F,04,
1055436,000000A9,false,Rx,0,8,F3,0A,79,DF,1D,C7,E0,21,
1055668,000000BA,false,Rx,0,7,03,FF,0F,00,00,57,8A,00,
1055908,000000C4,false,Rx,0,7,45,08,FC,00,00,FF,F1,00,
1065072,000000AA,false,Rx,0,8,60,56,07,00,B8,0B,94,00,
1065297,000000A8,false,Rx,0,8,09,0B,21,E0,21,1F,0F,04,
1065522,000000A9,false,Rx,0,8,F4,0B,79,DF,1D,C7,E0,21,
1065754,000000B6,false,Rx,0,5,03,03,80,00,C8,00,00,00,
1065979,000000BA,false,Rx,0,7,03,FF,0F,00,00,58,8B,00,
1066204,000000C4,false,Rx,0,7,45,08,FC,00,00,FF,F1,00,
1066430,000000CE,false,Rx,0,8,00,00,00,00,00,00,00,00,
1066664,0000019E,false,Rx,0,8,00,E8,6F,FC,FE,00,00,F3,
1066897,000001A0,false,Rx,0,8,00,80,00,60,01,11,30,C4,
1067121,000001B4,false,Rx,0,8,00,D0,E2,F9,44,32,FE,D8,
1067347,000002B2,false,Rx,0,8,00,00,00,00,40,00,00,04,
1075026,000000AA,false,Rx,0,8,62,58,07,00,B8,0B,94,00,
1075255,000000A8,false,Rx,0,8,0A,0C,21,E0,21,1F,0F,04,
1075480,000000A9,false,Rx,0,8,F5,0C,79,DF,1D,C7,E0,21,
1075708,000000BA,false,Rx,0,7,03,FF,0F,00,00,59,8C,00,
1075940,000000C4,false,Rx,0,7,45,08,FC,00,00,FF,F1,00,
1085010,000000AA,false,Rx,0,8,64,5A,07,00,B8,0B,94,00,
1085235,000000A8,false,Rx,0,8,0B,0D,21,E0,21,1F,0F,04,
1085460,000000A9,false,Rx,0,8,F6,0D,79,DF,1D,C7,E0,21,
1085694,000000B6,false,Rx,0,5,04,04,80,00,C8,00,00,00,
1085925,000000BA,false,Rx,0,7,03,FF,0F,00,00,5A,8D,00,
1086150,000000C4,false,Rx,0,7,45,08,FC,00,00,FF,F1,00,
1086375,000000CE,false,Rx,0,8,00,00,00,00,00,00,00,00,
1086600,0000019E,false,Rx,0,8,00,E8,6F,FC,FE,00,00,F3,
1086841,000001A0,false,Rx,0,8,00,80,00,60,01,14,40,D7,
1087066,000002B2,false,Rx,0,8,00,00,00,00,50,00,00,04,
1093880,00000130,false,Rx,0,5,45,43,21,8F,22,00,00,00,
1095098,000000AA,false,Rx,0,8,66,5C,07,00,B8,0B,94,00,
1095323,000000A8,false,Rx,0,8,0C,0E,21,E0,21,1F,0F,04,
1095548,000000A9,false,Rx,0,8,F7,0E,79,DF,1D,C7,E0,21,
1095787,000000BA,false,Rx,0,7,03,FF,0F,00,00,5B,8E,00,
1096046,000000C4,false,Rx,0,7,42,08,FC,DC,FF,FF,F1,00,
1096052,00000194,false,Rx,0,4,E6,F5,00,F0,00,00,00,00,
1096276,000001D6,false,Rx,0,2,FF,F3,00,00,00,00,00,00,
1096500,000002A6,false,Rx,0,2,00,FC,00,00,00,00,00,00,
1099364,00000480,false,Rx,0,8,17,42,FD,FF,FF,FF,FF,FF,
1105059,000000AA,false,Rx,0,8,5A,50,07,00,B8,0B,94,00,
1105284,000000A8,false,Rx,0,8,FD,00,21,E0,21,1F,0F,04,
1105509,000000A9,false,Rx,0,8,E9,00,79,DF,1D,C7,E0,21,
1105745,000000BA,false,Rx,0,7,03,FF,0F,00,00,4D,80,00,
1105977,000000B6,false,Rx,0,5,05,05,80,00,C8,00,00,00,
1106202,000000C4,false,Rx,0,7,45,08,FC,DC,FF,FF,F1,00,
1106427,000000CE,false,Rx,0,8,00,00,00,00,00,00,00,00,
1106655,0000019E,false,Rx,0,8,00,E8,6F,FC,FE,00,00,F3,
1106887,000001A0,false,Rx,0,8,00,80,00,40,01,14,50,C7,
1107113,000002B2,false,Rx,0,8,00,00,00,00,50,00,00,04,
1115085,000000AA,false,Rx,0,8,5C,52,07,00,B8,0B,94,00,
1115314,000000A8,false,Rx,0,8,FE,01,21,E0,21,1F,0F,04,
1115539,000000A9,false,Rx,0,8,EA,01,79,DF,1D,C7,E0,21,
1115767,000000BA,false,Rx,0,7,03,FF,0F,00,00,4E,81,00,
1115999,000000C4,false,Rx,0,7,45,08,FC,00,00,FF,F1,00,
1125068,000000AA,false,Rx,0,8,5E,54,07,00,B8,0B,94,00,
1125294,000000A8,false,Rx,0,8,FF,02,21,E0,21,1F,0F,04,
1125519,000000A9,false,Rx,0,8,EB,02,79,DF,1D,C7,E0,21,
1125752,000000B6,false,Rx,0,5,06,06,80,00,C8,00,00,00,
1125983,000000BA,false,Rx,0,7,03,FF,0F,00,00,4F,82,00,
1126208,000000C4,false,Rx,0,7,45,08,FC,00,00,FF,F1,00,
1126433,000000CE,false,Rx,0,8,00,00,00,00,00,00,00,00,
1126665,0000019E,false,Rx,0,8,00,E8,6F,FC,FE,00,00,F3,
1126897,000001A0,false,Rx,0,8,00,80,00,40,01,14,60,D7,
1127121,000002B2,false,Rx,0,8,00,00,00,00,50,00,00,04,
1127345,000000C8,false,Rx,0,6,3B,08,7C,00,00,CC,00,00,
1135092,000000AA,false,Rx,0,8,60,56,07,00,B8,0B,94,00,
1135321,000000A8,false,Rx,0,8,00,03,21,E0,21,1F,0F,04,
1135545,000000A9,false,Rx,0,8,EC,03,79,DF,1D,C7,E0,21,
1135787,000000BA,false,Rx,0,7,03,FF,0F,00,00,50,83,00,
1136022,000000C4,false,Rx,0,7,45,08,FC,00,00,FF,F1,00,
1139677,000001D0,false,Rx,0,8,3C,76,63,C3,9C,9E,CD,82,
1145000,000000AA,false,Rx,0,8,62,58,07,00,B8,0B,94,00,
1145225,000000A8,false,Rx,0,8,02,04,21,E0,21,1F,0F,04,
1145450,000000A9,false,Rx,0,8,ED,04,79,DF,1D,C7,E0,21,
1145678,000000B6,false,Rx,0,5,07,07,80,00,C8,00,00,00,
1145909,000000BA,false,Rx,0,7,03,FF,0F,00,00,51,84,00,
1146134,000000C4,false,Rx,0,7,45,08,FC,00,00,FF,F1,00,
1146359,000000CE,false,Rx,0,8,00,00,00,00,00,00,00,00,
1146584,0000019E,false,Rx,0,8,00,E8,6F,FC,FE,00,00,F3,
1146821,000001A0,false,Rx,0,8,00,80,00,40,01,14,70,E7,
1147046,000002B2,false,Rx,0,8,00,00,00,00,50,00,00,04,
1147270,000001A6,false,Rx,0,8,00,00,00,00,00,00,20,FB,
1147494,00000374,false,Rx,0,5,00,00,00,00,FC,00,00,00,
1155115,000000AA,false,Rx,0,8,64,5A,07,00,B8,0B,94,00,
1155351,000000A8,false,Rx,0,8,03,05,21,E0,21,1F,0F,04,
1155595,000000A9,false,Rx,0,8,EE,05,79,DF,1D,C7,E0,21,
1155634,000000BA,false,Rx,0,7,03,FF,0F,00,00,52,85,00,
1155874,000000C4,false,Rx,0,7,42,08,FC,D3,FF,FF,F1,00,
1164953,000000AA,false,Rx,0,8,66,5C,07,00,B8,0B,94,00,
1165363,000000A8,false,Rx,0,8,04,06,21,E0,21,1F,0F,04,
1165622,000000A9,false,Rx,0,8,EF,06,79,DF,1D,C7,E0,21,
1165627,000000B6,false,Rx,0,5,08,08,80,00,C8,00,00,00,
1165863,000000BA,false,Rx,0,7,03,FF,0F,00,00,53,86,00,
1166087,000000C4,false,Rx,0,7,45,08,FC,D3,FF,FF,F1,00,
1166313,000000CE,false,Rx,0,8,00,00,00,00,00,00,00,00,
1166538,0000019E,false,Rx,0,8,00,E8,6F,FC,FE,00,00,F3,
1166960,000001A0,false,Rx,0,8,00,80,00,60,01,14,80,18,
1167185,000001B4,false,Rx,0,8,00,D0,E2,FA,44,32,FE,D9,
1167410,000002B2,false,Rx,0,8,00,00,00,00,50,00,00,04,
1175003,000000AA,false,Rx,0,8,68,5E,07,00,B8,0B,94,00,
1175250,000000A8,false,Rx,0,8,05,07,21,E0,21,1F,0F,04,
1175475,000000A9,false,Rx,0,8,F0,07,79,DF,1D,C7,E0,21,
1175708,000000BA,false,Rx,0,7,03,FF,0F,00,00,54,87,00,
1175940,000000C4,false,Rx,0,7,45,08,FC,00,00,FF,F1,00,
1185087,000000AA,false,Rx,0,8,5A,50,07,00,B8,0B,94,00,
1185311,000000A8,false,Rx,0,8,06,08,21,E0,21,1F,0F,04,
1185537,000000A9,false,Rx,0,8,F1,08,79,DF,1D,C7,E0,21,
1185768,000000B6,false,Rx,0,5,09,09,80,00,C8,00,00,00,
1185994,000000BA,false,Rx,0,7,03,FF,0F,00,00,55,88,00,
1186219,000000C4,false,Rx,0,7,45,08,FC,00,00,FF,F1,00,
1186444,000000CE,false,Rx,0,8,00,00,00,00,00,00,00,00,
1186677,0000019E,false,Rx,0,8,00,E8,7F,FC,FE,00,00,03,
1186909,000001A0,false,Rx,0,8,00,80,00,40,01,14,90,08,
1187134,000002B2,false,Rx,0,8,00,00,00,00,50,00,00,04,
1193544,00000497,false,Rx,0,8,29,42,FF,FF,FF,FF,FF,FF,
1193993,00000130,false,Rx,0,5,45,43,21,8F,33,00,00,00,
1195034,000000AA,false,Rx,0,8,5C,52,07,00,B8,0B,94,00,
1195259,000000A8,false,Rx,0,8,07,09,21,E0,21,1F,0F,04,
1195484,000000A9,false,Rx,0,8,F2,09,79,DF,1D,C7,E0,21,
1195711,000000BA,false,Rx,0,7,03,FF,0F,00,00,56,89,00,
1195943,000000C4,false,Rx,0,7,42,08,FC,B5,FF,FF,F1,00,
1196201,000001D2,false,Rx,0,5,E1,0C,8F,20,F0,00,00,00,
1196206,000001D6,false,Rx,0,2,FF,F3,00,00,00,00,00,00,
1205068,000000AA,false,Rx,0,8,5E,54,07,00,B8,0B,94,00,
1205293,000000A8,false,Rx,0,8,08,0A,21,E0,21,1F,0F,04,
1205518,000000A9,false,Rx,0,8,F3,0A,79,DF,1D,C7,E0,21,
1205752,000000BA,false,Rx,0,7,03,FF,0F,00,00,57,8A,00,
1205978,000000B6,false,Rx,0,5,0A,0A,80,00,C8,00,00,00,
1206203,000000C4,false,Rx,0,7,45,08,FC,B5,FF,FF,F1,00,
1206428,000000CE,false,Rx,0,8,00,00,00,00,00,00,00,00,
1206655,0000019E,false,Rx,0,8,00,E8,7F,FC,FE,00,00,03,
1206888,000001A0,false,Rx,0,8,00,80,00,70,01,14,A0,48,
1207113,000002B2,false,Rx,0,8,00,00,00,00,50,00,00,04,
1215027,000000AA,false,Rx,0,8,60,56,07,00,B8,0B,94,00,
1215272,000000A8,false,Rx,0,8,09,0B,21,E0,21,1F,0F,04,
1215522,000000A9,false,Rx,0,8,F4,0B,79,DF,1D,C7,E0,21,
1215763,000000BA,false,Rx,0,7,03,FF,0F,00,00,58,8B,00,
1215995,000000C4,false,Rx,0,7,45,08,FC,00,00,FF,F1,00,
1225067,000000AA,false,Rx,0,8,62,58,07,00,B8,0B,94,00,
1225292,000000A8,false,Rx,0,8,0A,0C,21,E0,21,1F,0F,04,
1225518,000000A9,false,Rx,0,8,F5,0C,79,DF,1D,C7,E0,21,
1225752,000000B6,false,Rx,0,5,0B,0B,80,00,C8,00,00,00,
1225978,000000BA,false,Rx,0,7,03,FF,0F,00,00,59,8C,00,
1226203,000000C4,false,Rx,0,7,45,08,FC,00,00,FF,F1,00,
1226427,000000CE,false,Rx,0,8,00,00,00,00,00,00,00,00,
1226655,0000019E,false,Rx,0,8,00,E8,7F,FC,FE,00,00,03,
1226887,000001A0,false,Rx,0,8,00,80,00,40,01,11,B0,25,
1227113,000002B2,false,Rx,0,8,00,00,00,00,40,00,00,04,
1231474,00000310,false,Rx,0,7,6E,E5,DA,2D,01,40,23,00,
1235078,000000AA,false,Rx,0,8,64,5A,07,00,B8,0B,94,00,
1235316,000000A8,false,Rx,0,8,0B,0D,21,E0,21,1F,0F,04,
1235540,000000A9,false,Rx,0,8,F6,0D,79,DF,1D,C7,E0,21,
1235772,000000BA,false,Rx,0,7,03,FF,0F,00,00,5A,8D,00,
1236003,000000C4,false,Rx,0,7,45,08,FC,00,00,FF,F1,00,
1238673,000001FB,false,Rx,0,2,F7,FF,00,00,00,00,00,00,
1239650,000001D0,false,Rx,0,8,3C,76,64,C3,9C,9E,CD,82,
1244957,000000AA,false,Rx,0,8,66,5C,07,00,B8,0B,94,00,
1245181,000000A8,false,Rx,0,8,0C,0E,21,E0,21,1F,0F,04,
1245626,000000A9,false,Rx,0,8,F7,0E,79,DF,1D,C7,E0,21,
1245631,000000B6,false,Rx,0,5,0C,0C,80,00,C8,00,00,00,
1245866,000000BA,false,Rx,0,7,03,FF,0F,00,00,5B,8E,00,
1246100,000000C4,false,Rx,0,7,45,08,FC,00,00,FF,F1,00,
1246347,000000CE,false,Rx,0,8,00,00,00,00,00,00,00,00,
1246586,0000019E,false,Rx,0,8,00,E8,7F,FC,FE,00,00,03,
1246828,000001A0,false,Rx,0,8,00,80,00,60,01,14,C0,58,
1247060,000002B2,false,Rx,0,8,00,00,00,00,50,00,00,04,
1247311,000001A6,false,Rx,0,8,00,00,00,00,00,00,B0,FC,
1254853,000002C0,false,Rx,0,3,70,81,7A,00,00,00,00,00,
1255126,000000A8,false,Rx,0,8,FD,00,21,E0,21,1F,0F,04,
1255360,000000A9,false,Rx,0,8,E9,00,79,DF,1D,C7,E0,21,
1255593,000000AA,false,Rx,0,8,5A,50,07,00,B8,0B,94,00,
1255833,000000BA,false,Rx,0,7,03,FF,0F,00,00,4D,80,00,
1256058,000000C4,false,Rx,0,7,45,08,FC,00,00,FF,F1,00,
1265102,000000AA,false,Rx,0,8,5C,52,07,00,B8,0B,94,00,
1265327,000000A8,false,Rx,0,8,FE,01,21,E0,21,1F,0F,04,
1265552,000000A9,false,Rx,0,8,EA,01,79,DF,1D,C7,E0,21,
1265590,000000B6,false,Rx,0,5,0D,0D,80,00,C8,00,00,00,
1265825,000000BA,false,Rx,0,7,03,FF,0F,00,00,4E,81,00,
1266049,000000C4,false,Rx,0,7,45,08,FC,00,00,FF,F1,00,
1266458,000000CE,false,Rx,0,8,00,00,00,00,00,00,00,00,
1266691,0000019E,false,Rx,0,8,00,E8,7F,FC,FE,00,00,03,
1266922,000001A0,false,Rx,0,8,00,80,00,60,01,14,D0,68,
1267146,000001B4,false,Rx,0,8,00,D0,E2,FB,44,32,FE,DA,
1267372,000002B2,false,Rx,0,8,00,00,00,00,50,00,00,04,
1275095,000000AA,false,Rx,0,8,5E,54,07,00,B8,0B,94,00,
1275362,000000A8,false,Rx,0,8,FF,02,21,E0,21,1F,0F,04,
1275663,000000A9,false,Rx,0,8,EB,02,79,DF,1D,C7,E0,21,
1275669,000000BA,false,Rx,0,7,03,FF,0F,00,00,4F,82,00,
1275900,000000C4,false,Rx,0,7,45,08,FC,00,00,FF,F1,00,
1284957,000000AA,false,Rx,0,8,60,56,07,00,B8,0B,94,00,
1285367,000000A8,false,Rx,0,8,00,03,21,E0,21,1F,0F,04,
1285625,000000A9,false,Rx,0,8,EC,03,79,DF,1D,C7,E0,21,
1285631,000000B6,false,Rx,0,5,0E,0E,80,00,C8,00,00,00,
1285867,000000BA,false,Rx,0,7,03,FF,0F,00,00,50,83,00,
1286092,000000C4,false,Rx,0,7,45,08,FC,00,00,FF,F1,00,
1286317,000000CE,false,Rx,0,8,00,00,00,00,00,00,00,00,
1286733,0000019E,false,Rx,0,8,00,E8,7F,FC,FE,00,00,03,
1286964,000001A0,false,Rx,0,8,00,80,00,60,01,14,E0,78,
1287189,000002B2,false,Rx,0,8,00,00,00,00,50,00,00,04,
1287415,000004A9,false,Rx,0,8,30,42,FF,FF,FF,FF,FF,FF,
1294034,00000130,false,Rx,0,5,45,43,21,8F,44,00,00,00,
1295035,000000AA,false,Rx,0,8,62,58,07,00,B8,0B,94,00,
1295261,000000A8,false,Rx,0,8,02,04,21,E0,21,1F,0F,04,
1295486,000000A9,false,Rx,0,8,ED,04,79,DF,1D,C7,E0,21,
1295714,000000BA,false,Rx,0,7,03,FF,0F,00,00,51,84,00,
1295968,000000C4,false,Rx,0,7,42,08,FC,E7,FF,FF,F1,00,
1296247,00000194,false,Rx,0,4,E7,F6,00,F0,00,00,00,00,
1296252,000001D6,false,Rx,0,2,FF,F3,00,00,00,00,00,00,
1305000,000000AA,false,Rx,0,8,64,5A,07,00,B8,0B,94,00,
1305225,000000A8,false,Rx,0,8,03,05,21,E0,21,1F,0F,04,
1305450,000000A9,false,Rx,0,8,EE,05,79,DF,1D,C7,E0,21,
1305677,000000BA,false,Rx,0,7,03,FF,0F,00,00,52,85,00,
1305908,000000B6,false,Rx,0,5,FF,00,80,00,C8,00,00,00,
1306133,000000C4,false,Rx,0,7,45,08,FC,E7,FF,FF,F1,00,
1306358,000000CE,false,Rx,0,8,00,00,00,00,00,00,00,00,
1306584,0000019E,false,Rx,0,8,00,E8,7F,FC,FE,00,00,03,
1306821,000001A0,false,Rx,0,8,00,80,00,70,01,14,00,A7,
1307046,000002B2,false,Rx,0,8,00,00,00,00,50,00,00,04,
1314972,000000AA,false,Rx,0,8,66,5C,07,00,B8,0B,94,00,
1315200,000000A8,false,Rx,0,8,04,06,21,E0,21,1F,0F,04,
1315429,000000A9,false,Rx,0,8,EF,06,79,DF,1D,C7,E0,21,
1315667,000000BA,false,Rx,0,7,03,FF,0F,00,00,53,86,00,
1315899,000000C4,false,Rx,0,7,45,08,FC,00,00,FF,F1,00,
1316895,000003B0,false,Rx,0,2,FD,FF,00,00,00,00,00,00,
1325118,000000AA,false,Rx,0,8,68,5E,07,00,B8,0B,94,00,
1325343,000000A8,false,Rx,0,8,05,07,21,E0,21,1F,0F,04,
1325569,000000A9,false,Rx,0,8,F0,07,79,DF,1D,C7,E0,21,
1325842,000000BA,false,Rx,0,7,03,FF,0F,00,00,54,87,00,
1325847,000000B6,false,Rx,0,5,00,01,80,00,C8,00,00,00,
1326072,000000C4,false,Rx,0,7,42,08,FC,00,00,FF,F1,00,
1326482,000000CE,false,Rx,0,8,00,00,00,00,00,00,00,00,
1326710,0000019E,false,Rx,0,8,00,E8,7F,FC,FE,00,00,03,
1326942,000001A0,false,Rx,0,8,00,80,00,60,01,14,10,A7,
1327168,000002B2,false,Rx,0,8,00,00,00,00,50,00,00,04,
1327392,000000C8,false,Rx,0,6,38,08,CC,8F,FF,EC,00,00,
1334966,000000AA,false,Rx,0,8,5A,50,07,00,B8,0B,94,00,
1335203,000000A8,false,Rx,0,8,06,08,21,E0,21,1F,0F,04,
1335457,000000A9,false,Rx,0,8,F1,08,79,DF,1D,C7,E0,21,
1335724,000000BA,false,Rx,0,7,03,FF,0F,00,00,55,88,00,
1335956,000000C4,false,Rx,0,7,45,08,FC,E4,00,FF,F1,00,
1339557,000001D0,false,Rx,0,8,3C,76,64,C3,9C,9E,CD,82,
1345066,000000AA,false,Rx,0,8,5C,52,07,00,B8,0B,94,00,
1345290,000000A8,false,Rx,0,8,07,09,21,E0,21,1F,0F,04,
1345516,000000A9,false,Rx,0,8,F2,09,79,DF,1D,C7,E0,21,
1345748,000000B6,false,Rx,0,5,02,02,80,00,C8,00,00,00,
1345978,000000BA,false,Rx,0,7,03,FF,0F,00,00,56,89,00,
1346203,000000C4,false,Rx,0,7,42,08,FC,E4,00,FF,F1,00,
1346427,000000CE,false,Rx,0,8,00,00,00,00,00,00,00,00,
1346655,0000019E,false,Rx,0,8,00,E8,7F,FC,FE,00,00,03,
1346887,000001A0,false,Rx,0,8,00,80,00,40,01,14,20,97,
1347113,000002B2,false,Rx,0,8,00,00,00,00,50,00,00,04,
1347338,000001A6,false,Rx,0,8,00,00,00,00,00,00,40,FE,
1355024,000000AA,false,Rx,0,8,5E,54,07,00,B8,0B,94,00,
1355267,000000A8,false,Rx,0,8,08,0A,21,E0,21,1F,0F,04,
1355506,000000A9,false,Rx,0,8,F3,0A,79,DF,1D,C7,E0,21,
1355747,000000BA,false,Rx,0,7,03,FF,0F,00,00,57,8A,00,
1355991,000000C4,false,Rx,0,7,42,08,FC,00,00,FF,F1,00,
1365108,000000AA,false,Rx,0,8,60,56,07,00,B8,0B,94,00,
1365333,000000A8,false,Rx,0,8,09,0B,21,E0,21,1F,0F,04,
1365558,000000A9,false,Rx,0,8,F4,0B,79,DF,1D,C7,E0,21,
1365596,000000B6,false,Rx,0,5,03,03,80,00,C8,00,00,00,
1365830,000000BA,false,Rx,0,7,03,FF,0F,00,00,58,8B,00,
1366055,000000C4,false,Rx,0,7,45,08,FC,00,00,FF,F1,00,
1366466,000000CE,false,Rx,0,8,00,00,00,00,00,00,00,00,
1366697,0000019E,false,Rx,0,8,00,E8,7F,FC,FE,00,00,03,
1366929,000001A0,false,Rx,0,8,00,80,00,60,01,14,30,C7,
1367154,000001B4,false,Rx,0,8,00,D0,E2,FC,44,32,FE,DB,
1367380,000002B2,false,Rx,0,8,00,00,00,00,50,00,00,04,
1374948,000000AA,false,Rx,0,8,62,58,07,00,B8,0B,94,00,
1375370,000000A8,false,Rx,0,8,0A,0C,21,E0,21,1F,0F,04,
1375411,000000A9,false,Rx,0,8,F5,0C,79,DF,1D,C7,E0,21,
1375655,000000BA,false,Rx,0,7,03,FF,0F,00,00,59,8C,00,
1375904,000000C4,false,Rx,0,7,45,08,FC,00,00,FF,F1,00,
1377847,000004B0,false,Rx,0,8,00,42,FE,01,FF,FF,FF,FF,
1385034,000000AA,false,Rx,0,8,64,5A,07,00,B8,0B,94,00,
1385259,000000A8,false,Rx,0,8,0B,0D,21,E0,21,1F,0F,04,
1385484,000000A9,false,Rx,0,8,F6,0D,79,DF,1D,C7,E0,21,
1385710,000000B6,false,Rx,0,5,04,04,80,00,C8,00,00,00,
1385941,000000BA,false,Rx,0,7,03,FF,0F,00,00,5A,8D,00,
1386166,000000C4,false,Rx,0,7,45,08,FC,00,00,FF,F1,00,
1386391,000000CE,false,Rx,0,8,00,00,00,00,00,00,00,00,
1386616,0000019E,false,Rx,0,8,00,E8,7F,FC,FE,00,00,03,
1386854,000001A0,false,Rx,0,8,00,80,00,60,01,14,40,D7,
1387080,000002B2,false,Rx,0,8,00,00,00,00,50,00,00,04,
1394534,00000130,false,Rx,0,5,45,43,21,8F,55,00,00,00,
1394985,000000AA,false,Rx,0,8,66,5C,07,00,B8,0B,94,00,
1395211,000000A8,false,Rx,0,8,0C,0E,21,E0,21,1F,0F,04,
1395436,000000A9,false,Rx,0,8,F7,0E,79,DF,1D,C7,E0,21,
1395671,000000BA,false,Rx,0,7,03,FF,0F,00,00,5B,8E,00,
1395913,000000C4,false,Rx,0,7,45,08,FC,00,00,FF,F1,00,
1396194,000001D2,false,Rx,0,5,E1,0C,8F,30,F0,00,00,00,
1396199,000001D6,false,Rx,0,2,FF,F3,00,00,00,00,00,00,
1405085,000000AA,false,Rx,0,8,5A,50,07,00,B8,0B,94,00,
1405310,000000A8,false,Rx,0,8,FD,00,21,E0,21,1F,0F,04,
1405535,000000A9,false,Rx,0,8,E9,00,79,DF,1D,C7,E0,21,
1405769,000000BA,false,Rx,0,7,03,FF,0F,00,00,4D,80,00,
1406001,000000B6,false,Rx,0,5,05,05,80,00,C8,00,00,00,
1406226,000000C4,false,Rx,0,7,42,08,FC,00,00,FF,F1,00,
1406451,000000CE,false,Rx,0,8,00,00,00,00,00,00,00,00,
1406680,0000019E,false,Rx,0,8,00,E8,8F,FC,FE,00,00,14,
1406912,000001A0,false,Rx,0,8,00,80,00,60,01,14,50,E7,
1407137,000002B2,false,Rx,0,8,00,00,00,00,50,00,00,04,
1415030,000000AA,false,Rx,0,8,5C,52,07,00,B8,0B,94,00,
1415259,000000A8,false,Rx,0,8,FE,01,21,E0,21,1F,0F,04,
1415491,000000A9,false,Rx,0,8,EA,01,79,DF,1D,C7,E0,21,
1415726,000000BA,false,Rx,0,7,03,FF,0F,00,00,4E,81,00,
1415974,000000C4,false,Rx,0,7,45,08,FC,E4,00,FF,F1,00,
1425067,000000AA,false,Rx,0,8,5E,54,07,00,B8,0B,94,00,
1425292,000000A8,false,Rx,0,8,FF,02,21,E0,21,1F,0F,04,
1425517,000000A9,false,Rx,0,8,EB,02,79,DF,1D,C7,E0,21,
1425752,000000BA,false,Rx,0,7,03,FF,0F,00,00,4F,82,00,
1425984,000000B6,false,Rx,0,5,06,06,80,00,C8,00,00,00,
1426208,000000C4,false,Rx,0,7,45,08,FC,E4,00,FF,F1,00,
1426431,000000CE,false,Rx,0,8,00,00,00,00,00,00,00,00,
1426664,0000019E,false,Rx,0,8,00,E8,8F,FC,FE,00,00,14,
1426896,000001A0,false,Rx,0,8,00,80,00,60,01,14,60,F7,
1427810,000002B2,false,Rx,0,8,00,00,00,00,50,00,00,04,
1428038,000001FB,false,Rx,0,2,F8,FF,00,00,00,00,00,00,
1435447,000000AA,false,Rx,0,8,60,56,07,00,B8,0B,94,00,
1435454,000000A8,false,Rx,0,8,00,03,21,E0,21,1F,0F,04,
1435460,000000A9,false,Rx,0,8,EC,03,79,DF,1D,C7,E0,21,
1435717,000000BA,false,Rx,0,7,03,FF,0F,00,00,50,83,00,
1435969,000000C4,false,Rx,0,7,45,08,FC,00,00,FF,F1,00,
1439615,000001D0,false,Rx,0,8,3C,76,65,C3,9C,9E,CD,82,
1445118,000000AA,false,Rx,0,8,62,58,07,00,B8,0B,94,00,
1445343,000000A8,false,Rx,0,8,02,04,21,E0,21,1F,0F,04,
1445602,000000A9,false,Rx,0,8,ED,04,79,DF,1D,C7,E0,21,
1445607,000000B6,false,Rx,0,5,07,07,80,00,C8,00,00,00,
1445846,000000BA,false,Rx,0,7,03,FF,0F,00,00,51,84,00,
1446071,000000C4,false,Rx,0,7,42,08,FC,00,00,FF,F1,00,
1446482,000000CE,false,Rx,0,8,00,00,00,00,00,00,00,00,
1446709,0000019E,false,Rx,0,8,00,E8,8F,FC,FE,00,00,14,
1446941,000001A0,false,Rx,0,8,00,80,00,60,01,14,70,08,
1447166,000002B2,false,Rx,0,8,00,00,00,00,50,00,00,04,
1447391,000001A6,false,Rx,0,8,00,00,00,00,00,00,D0,FF,
1455079,000000AA,false,Rx,0,8,64,5A,07,00,B8,0B,94,00,
1455324,000000A8,false,Rx,0,8,03,05,21,E0,21,1F,0F,04,
1455549,000000A9,false,Rx,0,8,EE,05,79,DF,1D,C7,E0,21,
1455778,000000BA,false,Rx,0,7,03,FF,0F,00,00,52,85,00,
1456022,000000C4,false,Rx,0,7,45,08,FC,E4,00,FF,F1,00,
1459507,00000480,false,Rx,0,8,17,42,FD,FF,FF,FF,FF,FF,
1465057,000000AA,false,Rx,0,8,66,5C,07,00,B8,0B,94,00,
1465282,000000A8,false,Rx,0,8,04,06,21,E0,21,1F,0F,04,
1465506,000000A9,false,Rx,0,8,EF,06,79,DF,1D,C7,E0,21,
1465740,000000B6,false,Rx,0,5,08,08,80,00,C8,00,00,00,
1465970,000000BA,false,Rx,0,7,03,FF,0F,00,00,53,86,00,
1466195,000000C4,false,Rx,0,7,42,08,FC,E4,00,FF,F1,00,
1466419,000000CE,false,Rx,0,8,00,00,00,00,00,00,00,00,
1466646,0000019E,false,Rx,0,8,00,E8,8F,FC,FE,00,00,14,
1466882,000001A0,false,Rx,0,8,00,80,00,40,01,14,80,F7,
1467107,000001B4,false,Rx,0,8,00,D0,E2,FD,44,32,FE,DC,
1467331,000002B2,false,Rx,0,8,00,00,00,00,50,00,00,04,
1475028,000000AA,false,Rx,0,8,68,5E,07,00,B8,0B,94,00,
1475268,000000A8,false,Rx,0,8,05,07,21,E0,21,1F,0F,04,
1475507,000000A9,false,Rx,0,8,F0,07,79,DF,1D,C7,E0,21,
1475736,000000BA,false,Rx,0,7,03,FF,0F,00,00,54,87,00,
1475972,000000C4,false,Rx,0,7,45,08,FC,E4,00,FF,F1,00,
1485116,000000AA,false,Rx,0,8,5A,50,07,00,B8,0B,94,00,
1485341,000000A8,false,Rx,0,8,06,08,21,E0,21,1F,0F,04,
1485600,000000A9,false,Rx,0,8,F1,08,79,DF,1D,C7,E0,21,
1485605,000000B6,false,Rx,0,5,09,09,80,00,C8,00,00,00,
1485837,000000BA,false,Rx,0,7,03,FF,0F,00,00,55,88,00,
1486062,000000C4,false,Rx,0,7,45,08,FC,E4,00,FF,F1,00,
1486472,000000CE,false,Rx,0,8,00,00,00,00,00,00,00,00,
1486703,0000019E,false,Rx,0,8,00,E8,8F,FC,FE,00,00,14,
1486936,000001A0,false,Rx,0,8,00,80,00,60,01,14,90,28,
1487161,000002B2,false,Rx,0,8,00,00,00,00,50,00,00,04,
1495056,000000AA,false,Rx,0,8,5C,52,07,00,B8,0B,94,00,
1495301,000000A8,false,Rx,0,8,07,09,21,E0,21,1F,0F,04,
1495533,000000A9,false,Rx,0,8,F2,09,79,DF,1D,C7,E0,21,
1495768,000000BA,false,Rx,0,7,03,FF,0F,00,00,56,89,00,
1496033,000000C4,false,Rx,0,7,42,08,FC,8F,FF,FF,F1,00,
1496039,00000130,false,Rx,0,5,45,43,21,8F,76,00,00,00,
1496275,00000194,false,Rx,0,4,E8,F7,00,F0,00,00,00,00,
1496535,000001D6,false,Rx,0,2,FF,F3,00,00,00,00,00,00,
1505065,000000AA,false,Rx,0,8,5E,54,07,00,B8,0B,94,00,
1505290,000000A8,false,Rx,0,8,08,0A,21,E0,21,1F,0F,04,
1505515,000000A9,false,Rx,0,8,F3,0A,79,DF,1D,C7,E0,21,
1505745,000000BA,false,Rx,0,7,03,FF,0F,00,00,57,8A,00,
1505972,000000B6,false,Rx,0,5,0A,0A,80,00,C8,00,00,00,
1506197,000000C4,false,Rx,0,7,45,08,FC,8F,FF,FF,F1,00,
1506422,000000CE,false,Rx,0,8,00,00,00,00,00,00,00,00,
1506650,0000019E,false,Rx,0,8,00,E8,8F,FC,FE,00,00,14,
1506883,000001A0,false,Rx,0,8,00,80,00,60,01,14,A0,38,
1507108,000002B2,false,Rx,0,8,00,00,00,00,50,00,00,04,
1511858,000001B5,false,Rx,0,7,C8,FF,04,00,88,FF,FF,00,
1515222,000000AA,false,Rx,0,8,60,56,07,00,B8,0B,94,00,
1515228,000000A8,false,Rx,0,8,09,0B,21,E0,21,1F,0F,04,
1515460,000000A9,false,Rx,0,8,F4,0B,79,DF,1D,C7,E0,21,
1515694,000000BA,false,Rx,0,7,03,FF,0F,00,00,58,8B,00,
1515940,000000C4,false,Rx,0,7,45,08,FC,00,00,FF,F1,00,
1525065,000000AA,false,Rx,0,8,62,58,07,00,B8,0B,94,00,
1525290,000000A8,false,Rx,0,8,0A,0C,21,E0,21,1F,0F,04,
1525515,000000A9,false,Rx,0,8,F5,0C,79,DF,1D,C7,E0,21,
1525748,000000BA,false,Rx,0,7,03,FF,0F,00,00,59,8C,00,
1525975,000000B6,false,Rx,0,5,0B,0B,80,00,C8,00,00,00,
1526200,000000C4,false,Rx,0,7,45,08,FC,00,00,FF,F1,00,
1526424,000000CE,false,Rx,0,8,00,00,00,00,00,00,00,00,
1526650,0000019E,false,Rx,0,8,00,E8,8F,FC,FE,00,00,14,
1526882,000001A0,false,Rx,0,8,00,80,00,60,01,14,B0,48,
1527107,000002B2,false,Rx,0,8,00,00,00,00,50,00,00,04,
1527332,000000C8,false,Rx,0,6,3B,08,3C,00,00,5C,00,00,
1535353,000000AA,false,Rx,0,8,64,5A,07,00,B8,0B,94,00,
1535360,000000A8,false,Rx,0,8,0B,0D,21,E0,21,1F,0F,04,
1535635,000000A9,false,Rx,0,8,F6,0D,79,DF,1D,C7,E0,21,
1535642,000000BA,false,Rx,0,7,03,FF,0F,00,00,5A,8D,00,
1535886,000000C4,false,Rx,0,7,45,08,FC,00,00,FF,F1,00,
1539557,000001D0,false,Rx,0,8,3C,76,65,C3,9C,9E,CD,82,
1545126,000000AA,false,Rx,0,8,66,5C,07,00,B8,0B,94,00,
1545375,000000A8,false,Rx,0,8,0C,0E,21,E0,21,1F,0F,04,
1545643,000000A9,false,Rx,0,8,F7,0E,79,DF,1D,C7,E0,21,
1545648,000000B6,false,Rx,0,5,0C,0C,80,00,C8,00,00,00,
1545881,000000BA,false,Rx,0,7,03,FF,0F,00,00,5B,8E,00,
1546106,000000C4,false,Rx,0,7,45,08,FC,00,00,FF,F1,00,
1546331,000000CE,false,Rx,0,8,00,00,00,00,00,00,00,00,
1546555,0000019E,false,Rx,0,8,00,E8,8F,FC,FE,00,00,14,
1546977,000001A0,false,Rx,0,8,00,80,00,60,01,11,C0,55,
1547202,000002B2,false,Rx,0,8,00,00,00,00,40,00,00,04,
1547427,000001A6,false,Rx,0,8,00,00,00,00,00,00,60,F1,
1552739,00000497,false,Rx,0,8,29,42,FF,FF,FF,FF,FF,FF,
1555526,000000AA,false,Rx,0,8,5A,50,07,00,B8,0B,94,00,
1555532,000000A8,false,Rx,0,8,FD,00,21,E0,21,1F,0F,04,
1555538,000000A9,false,Rx,0,8,E9,00,79,DF,1D,C7,E0,21,
1555793,000000BA,false,Rx,0,7,03,FF,0F,00,00,4D,80,00,
1556033,000000C4,false,Rx,0,7,45,08,FC,00,00,FF,F1,00,
1564969,000000AA,false,Rx,0,8,5C,52,07,00,B8,0B,94,00,
1565207,000000A8,false,Rx,0,8,FE,01,21,E0,21,1F,0F,04,
1565430,000000A9,false,Rx,0,8,EA,01,79,DF,1D,C7,E0,21,
1565666,000000B6,false,Rx,0,5,0D,0D,80,00,C8,00,00,00,
1565893,000000BA,false,Rx,0,7,03,FF,0F,00,00,4E,81,00,
1566117,000000C4,false,Rx,0,7,42,08,FC,00,00,FF,F1,00,
1566343,000000CE,false,Rx,0,8,00,00,00,00,00,00,00,00,
1566567,0000019E,false,Rx,0,8,00,E8,8F,FC,FE,00,00,14,
1566811,000001A0,false,Rx,0,8,00,80,00,70,01,14,D0,78,
1567045,000001B4,false,Rx,0,8,00,D0,E2,FE,44,32,FE,DD,
1567270,000002B2,false,Rx,0,8,00,00,00,00,50,00,00,04,
1575582,000000AA,false,Rx,0,8,5E,54,07,00,B8,0B,94,00,
1575588,000000A8,false,Rx,0,8,FF,02,21,E0,21,1F,0F,04,
1575593,000000A9,false,Rx,0,8,EB,02,79,DF,1D,C7,E0,21,
1575888,000000BA,false,Rx,0,7,03,FF,0F,00,00,4F,82,00,
1575895,000000C4,false,Rx,0,7,45,08,FC,E4,00,FF,F1,00,
1585045,000000AA,false,Rx,0,8,60,56,07,00,B8,0B,94,00,
1585270,000000A8,false,Rx,0,8,00,03,21,E0,21,1F,0F,04,
1585495,000000A9,false,Rx,0,8,EC,03,79,DF,1D,C7,E0,21,
1585723,000000B6,false,Rx,0,5,0E,0E,80,00,C8,00,00,00,
1585955,000000BA,false,Rx,0,7,03,FF,0F,00,00,50,83,00,
1586179,000000C4,false,Rx,0,7,42,08,FC,E4,00,FF,F1,00,
1586404,000000CE,false,Rx,0,8,00,00,00,00,00,00,00,00,
1586629,0000019E,false,Rx,0,8,00,E8,8F,FC,FE,00,00,14,
1586862,000001A0,false,Rx,0,8,00,80,00,40,01,14,E0,58,
1587088,000002B2,false,Rx,0,8,00,00,00,00,50,00,00,04,
1594085,00000130,false,Rx,0,5,45,43,21,8F,87,00,00,00,
1595755,000000AA,false,Rx,0,8,62,58,07,00,B8,0B,94,00,
1595762,000000A8,false,Rx,0,8,02,04,21,E0,21,1F,0F,04,
1595767,000000A9,false,Rx,0,8,ED,04,79,DF,1D,C7,E0,21,
1595772,000000BA,false,Rx,0,7,03,FF,0F,00,00,51,84,00,
1596045,000000C4,false,Rx,0,7,45,08,FC,E4,00,FF,F1,00,
1596051,000001D2,false,Rx,0,5,E1,0C,8F,40,F0,00,00,00,
1596275,000005A9,false,Rx,0,8,30,06,00,A1,25,F1,5F,04,
1596500,000001D6,false,Rx,0,2,FF,F3,00,00,00,00,00,00,
1605007,000000AA,false,Rx,0,8,64,5A,07,00,B8,0B,94,00,
1605231,000000A8,false,Rx,0,8,03,05,21,E0,21,1F,0F,04,
1605461,000000A9,false,Rx,0,8,EE,05,79,DF,1D,C7,E0,21,
1605700,000000BA,false,Rx,0,7,03,FF,0F,00,00,52,85,00,
1605932,000000B6,false,Rx,0,5,FF,00,80,00,C8,00,00,00,
1606169,000000C4,false,Rx,0,7,45,08,FC,E4,00,FF,F1,00,
1606413,000000CE,false,Rx,0,8,00,00,00,00,00,00,00,00,
1606701,0000019E,false,Rx,0,8,00,E8,9F,FC,FE,00,00,24,
1606933,000001A0,false,Rx,0,8,00,80,00,60,01,14,00,97,
1607158,000002B2,false,Rx,0,8,00,00,00,00,50,00,00,04,
1607383,000005A9,false,Rx,0,8,32,06,00,65,00,F0,00,FF,
1615866,000000AA,false,Rx,0,8,66,5C,07,00,B8,0B,94,00,
1615873,000000A8,false,Rx,0,8,04,06,21,E0,21,1F,0F,04,
1615879,000000A9,false,Rx,0,8,EF,06,79,DF,1D,C7,E0,21,
1615884,000000BA,false,Rx,0,7,03,FF,0F,00,00,53,86,00,
1615890,000000C4,false,Rx,0,7,42,08,FC,8F,FF,FF,F1,00,
1618825,000001FB,false,Rx,0,2,F9,FF,00,00,00,00,00,00,
1625064,000000AA,false,Rx,0,8,68,5E,07,00,B8,0B,94,00,
1625289,000000A8,false,Rx,0,8,05,07,21,E0,21,1F,0F,04,
1625514,000000A9,false,Rx,0,8,F0,07,79,DF,1D,C7,E0,21,
1625745,000000BA,false,Rx,0,7,03,FF,0F,00,00,54,87,00,
1625977,000000B6,false,Rx,0,5,00,01,80,00,C8,00,00,00,
1626202,000000C4,false,Rx,0,7,45,08,FC,8F,FF,FF,F1,00,
1626427,000000CE,false,Rx,0,8,00,00,00,00,00,00,00,00,
1626655,0000019E,false,Rx,0,8,00,E8,9F,FC,FE,00,00,24,
1626888,000001A0,false,Rx,0,8,00,80,00,60,01,11,10,A4,
1627113,000002B2,false,Rx,0,8,00,00,00,00,40,00,00,04,
1635961,000000AA,false,Rx,0,8,5A,50,07,00,B8,0B,94,00,
1635967,000000A8,false,Rx,0,8,06,08,21,E0,21,1F,0F,04,
1635972,000000A9,false,Rx,0,8,F1,08,79,DF,1D,C7,E0,21,
1635978,000000BA,false,Rx,0,7,03,FF,0F,00,00,55,88,00,
1635983,000000C4,false,Rx,0,7,45,08,FC,00,00,FF,F1,00,
1639668,000001D0,false,Rx,0,8,3C,76,66,C3,9C,9E,CD,82,
1644989,000000AA,false,Rx,0,8,5C,52,07,00,B8,0B,94,00,
1645213,000000A8,false,Rx,0,8,07,09,21,E0,21,1F,0F,04,
1645439,000000A9,false,Rx,0,8,F2,09,79,DF,1D,C7,E0,21,
1645668,000000B6,false,Rx,0,5,02,02,80,00,C8,00,00,00,
1645899,000000BA,false,Rx,0,7,03,FF,0F,00,00,56,89,00,
1646124,000000C4,false,Rx,0,7,45,08,FC,00,00,FF,F1,00,
1646349,000000CE,false,Rx,0,8,00,00,00,00,00,00,00,00,
1646574,0000019E,false,Rx,0,8,00,E8,9F,FC,FE,00,00,24,
1646809,000001A0,false,Rx,0,8,00,80,00,40,01,14,20,97,
1647033,000002B2,false,Rx,0,8,00,00,00,00,50,00,00,04,
1647444,000001A6,false,Rx,0,8,00,00,00,00,00,00,F0,F2,
1647677,000004A9,false,Rx,0,8,30,42,FF,FF,FF,FF,FF,FF,
1655964,000000AA,false,Rx,0,8,5E,54,07,00,B8,0B,94,00,
1655971,000000A8,false,Rx,0,8,08,0A,21,E0,21,1F,0F,04,
1655976,000000A9,false,Rx,0,8,F3,0A,79,DF,1D,C7,E0,21,
1655981,000000BA,false,Rx,0,7,03,FF,0F,00,00,57,8A,00,
1655987,000000C4,false,Rx,0,7,45,08,FC,00,00,FF,F1,00,
1664962,000000AA,false,Rx,0,8,60,56,07,00,B8,0B,94,00,
1665188,000000A8,false,Rx,0,8,09,0B,21,E0,21,1F,0F,04,
1665632,000000A9,false,Rx,0,8,F4,0B,79,DF,1D,C7,E0,21,
1665638,000000B6,false,Rx,0,5,03,03,80,00,C8,00,00,00,
1665875,000000BA,false,Rx,0,7,03,FF,0F,00,00,58,8B,00,
1666100,000000C4,false,Rx,0,7,45,08,FC,00,00,FF,F1,00,
1666325,000000CE,false,Rx,0,8,00,00,00,00,00,00,00,00,
1666550,0000019E,false,Rx,0,8,00,E8,9F,FC,FE,00,00,24,
1666789,000001A0,false,Rx,0,8,00,80,00,60,01,14,30,C7,
1667015,000001B4,false,Rx,0,8,00,D0,E2,F0,44,32,FE,CF,
1667425,000002B2,false,Rx,0,8,00,00,00,00,50,00,00,04,
1676179,000000AA,false,Rx,0,8,62,58,07,00,B8,0B,94,00,
1676186,000000A8,false,Rx,0,8,0A,0C,21,E0,21,1F,0F,04,
1676192,000000A9,false,Rx,0,8,F5,0C,79,DF,1D,C7,E0,21,
1676197,000000BA,false,Rx,0,7,03,FF,0F,00,00,59,8C,00,
1676202,000000C4,false,Rx,0,7,42,08,FC,D3,FF,FF,F1,00,
1684975,000000AA,false,Rx,0,8,64,5A,07,00,B8,0B,94,00,
1685220,000000A8,false,Rx,0,8,0B,0D,21,E0,21,1F,0F,04,
1685474,000000A9,false,Rx,0,8,F6,0D,79,DF,1D,C7,E0,21,
1685751,000000B6,false,Rx,0,5,04,04,80,00,C8,00,00,00,
1685983,000000BA,false,Rx,0,7,03,FF,0F,00,00,5A,8D,00,
1686208,000000C4,false,Rx,0,7,42,08,FC,D3,FF,FF,F1,00,
1686432,000000CE,false,Rx,0,8,00,00,00,00,00,00,00,00,
1686666,0000019E,false,Rx,0,8,00,E8,9F,FC,FE,00,00,24,
1686897,000001A0,false,Rx,0,8,00,80,00,40,01,11,40,B4,
1687123,000002B2,false,Rx,0,8,00,00,00,00,40,00,00,04,
1693937,00000130,false,Rx,0,5,45,43,21,8F,98,00,00,00,
1696230,000000AA,false,Rx,0,8,66,5C,07,00,B8,0B,94,00,
1696237,000000A8,false,Rx,0,8,0C,0E,21,E0,21,1F,0F,04,
1696242,000000A9,false,Rx,0,8,F7,0E,79,DF,1D,C7,E0,21,
1696247,000000BA,false,Rx,0,7,03,FF,0F,00,00,5B,8E,00,
1696253,000000C4,false,Rx,0,7,45,08,FC,71,00,FF,F1,00,
1696258,00000194,false,Rx,0,4,E9,F8,00,F0,00,00,00,00,
1696263,000001D6,false,Rx,0,2,FF,F3,00,00,00,00,00,00,
1705059,000000AA,false,Rx,0,8,5A,50,07,00,B8,0B,94,00,
1705285,000000A8,false,Rx,0,8,FD,00,21,E0,21,1F,0F,04,
1705510,000000A9,false,Rx,0,8,E9,00,79,DF,1D,C7,E0,21,
1705745,000000BA,false,Rx,0,7,03,FF,0F,00,00,4D,80,00,
1705976,000000B6,false,Rx,0,5,05,05,80,00,C8,00,00,00,
1706201,000000C4,false,Rx,0,7,42,08,FC,71,00,FF,F1,00,
1706426,000000CE,false,Rx,0,8,00,00,00,00,00,00,00,00,
1706652,0000019E,false,Rx,0,8,00,E8,9F,FC,FE,00,00,24,
1706884,000001A0,false,Rx,0,8,00,80,00,40,01,14,50,C7,
1707109,000002B2,false,Rx,0,8,00,00,00,00,50,00,00,04,
1716423,000000AA,false,Rx,0,8,5C,52,07,00,B8,0B,94,00,
1716429,000000A8,false,Rx,0,8,FE,01,21,E0,21,1F,0F,04,
1716435,000000A9,false,Rx,0,8,EA,01,79,DF,1D,C7,E0,21,
1716440,000000BA,false,Rx,0,7,03,FF,0F,00,00,4E,81,00,
1716445,000000C4,false,Rx,0,7,45,08,FC,E4,00,FF,F1,00,
1717870,00000335,false,Rx,0,8,00,5C,10,00,00,9A,00,00,
1725116,000000AA,false,Rx,0,8,5E,54,07,00,B8,0B,94,00,
1725341,000000A8,false,Rx,0,8,FF,02,21,E0,21,1F,0F,04,
1725566,000000A9,false,Rx,0,8,EB,02,79,DF,1D,C7,E0,21,
1725836,000000BA,false,Rx,0,7,03,FF,0F,00,00,4F,82,00,
1725841,000000B6,false,Rx,0,5,06,06,80,00,C8,00,00,00,
1726066,000000C4,false,Rx,0,7,45,08,FC,E4,00,FF,F1,00,
1726477,000000CE,false,Rx,0,8,00,00,00,00,00,00,00,00,
1726706,0000019E,false,Rx,0,8,00,E8,9F,FC,FE,00,00,24,
1726938,000001A0,false,Rx,0,8,00,80,00,60,01,11,60,F4,
1727163,000002B2,false,Rx,0,8,00,00,00,00,40,00,00,04,
1727388,000000C8,false,Rx,0,6,3B,08,7C,00,00,1C,00,00,
1736459,000000AA,false,Rx,0,8,60,56,07,00,B8,0B,94,00,
1736466,000000A8,false,Rx,0,8,00,03,21,E0,21,1F,0F,04,
1736471,000000A9,false,Rx,0,8,EC,03,79,DF,1D,C7,E0,21,
1736476,000000BA,false,Rx,0,7,03,FF,0F,00,00,50,83,00,
1736481,000000C4,false,Rx,0,7,45,08,FC,00,00,FF,F1,00,
1737863,000004B0,false,Rx,0,8,00,42,FE,01,FF,FF,FF,FF,
1739604,000001D0,false,Rx,0,8,3C,76,66,C3,9C,9E,CD,82,
1745009,000000AA,false,Rx,0,8,62,58,07,00,B8,0B,94,00,
1745235,000000A8,false,Rx,0,8,02,04,21,E0,21,1F,0F,04,
1745459,000000A9,false,Rx,0,8,ED,04,79,DF,1D,C7,E0,21,
1745690,000000B6,false,Rx,0,5,07,07,80,00,C8,00,00,00,
1745922,000000BA,false,Rx,0,7,03,FF,0F,00,00,51,84,00,
1746147,000000C4,false,Rx,0,7,42,08,FC,00,00,FF,F1,00,
1746373,000000CE,false,Rx,0,8,00,00,00,00,00,00,00,00,
1746598,0000019E,false,Rx,0,8,00,E8,9F,FC,FE,00,00,24,
1746838,000001A0,false,Rx,0,8,00,80,00,40,01,11,70,E4,
1747063,000002B2,false,Rx,0,8,00,00,00,00,40,00,00,04,
1747288,000001A6,false,Rx,0,8,00,00,00,00,00,00,80,F4,
1756592,000000AA,false,Rx,0,8,64,5A,07,00,B8,0B,94,00,
1756599,000000A8,false,Rx,0,8,03,05,21,E0,21,1F,0F,04,
1756604,000000A9,false,Rx,0,8,EE,05,79,DF,1D,C7,E0,21,
1756609,000000BA,false,Rx,0,7,03,FF,0F,00,00,52,85,00,
1756614,000000C4,false,Rx,0,7,45,08,FC,E4,00,FF,F1,00,
1765078,000000AA,false,Rx,0,8,66,5C,07,00,B8,0B,94,00,
1765305,000000A8,false,Rx,0,8,04,06,21,E0,21,1F,0F,04,
1765530,000000A9,false,Rx,0,8,EF,06,79,DF,1D,C7,E0,21,
1765761,000000B6,false,Rx,0,5,08,08,80,00,C8,00,00,00,
1765992,000000BA,false,Rx,0,7,03,FF,0F,00,00,53,86,00,
1766217,000000C4,false,Rx,0,7,45,08,FC,E4,00,FF,F1,00,
1766442,000000CE,false,Rx,0,8,00,00,00,00,00,00,00,00,
1766672,0000019E,false,Rx,0,8,00,E8,9F,FC,FE,00,00,24,
1766904,000001A0,false,Rx,0,8,00,80,00,40,01,14,80,F7,
1767129,000001B4,false,Rx,0,8,00,D0,E2,F1,44,32,FE,D0,
1767354,000002B2,false,Rx,0,8,00,00,00,00,50,00,00,04,
1774957,000000AA,false,Rx,0,8,68,5E,07,00,B8,0B,94,00,
1776743,000000A8,false,Rx,0,8,05,07,21,E0,21,1F,0F,04,
1776750,000000A9,false,Rx,0,8,F0,07,79,DF,1D,C7,E0,21,
1776755,000000BA,false,Rx,0,7,03,FF,0F,00,00,54,87,00,
1776760,000000C4,false,Rx,0,7,42,08,FC,8F,FF,FF,F1,00,
1784974,000000AA,false,Rx,0,8,5A,50,07,00,B8,0B,94,00,
1785201,000000A8,false,Rx,0,8,06,08,21,E0,21,1F,0F,04,
1785426,000000A9,false,Rx,0,8,F1,08,79,DF,1D,C7,E0,21,
1785655,000000B6,false,Rx,0,5,09,09,80,00,C8,00,00,00,
1785886,000000BA,false,Rx,0,7,03,FF,0F,00,00,55,88,00,
1786112,000000C4,false,Rx,0,7,45,08,FC,8F,FF,FF,F1,00,
1786337,000000CE,false,Rx,0,8,00,00,00,00,00,00,00,00,
1786562,0000019E,false,Rx,0,8,00,E8,9F,FC,FE,00,00,24,
1786803,000001A0,false,Rx,0,8,00,80,00,60,01,14,90,28,
1787027,000002B2,false,Rx,0,8,00,00,00,00,50,00,00,04,
1793920,00000130,false,Rx,0,5,45,43,21,8F,A9,00,00,00,
1794967,000000AA,false,Rx,0,8,5C,52,07,00,B8,0B,94,00,
1796729,000000A8,false,Rx,0,8,07,09,21,E0,21,1F,0F,04,
1796735,000000A9,false,Rx,0,8,F2,09,79,DF,1D,C7,E0,21,
1796740,000000BA,false,Rx,0,7,03,FF,0F,00,00,56,89,00,
1796746,000000C4,false,Rx,0,7,45,08,FC,00,00,FF,F1,00,
1796751,000001D2,false,Rx,0,5,E1,0C,8F,50,F0,00,00,00,
1796756,000001D6,false,Rx,0,2,FF,F3,00,00,00,00,00,00,
1804989,000000AA,false,Rx,0,8,5E,54,07,00,B8,0B,94,00,
1805215,000000A8,false,Rx,0,8,08,0A,21,E0,21,1F,0F,04,
1805439,000000A9,false,Rx,0,8,F3,0A,79,DF,1D,C7,E0,21,
1805668,000000BA,false,Rx,0,7,03,FF,0F,00,00,57,8A,00,
1805899,000000B6,false,Rx,0,5,0A,0A,80,00,C8,00,00,00,
1806124,000000C4,false,Rx,0,7,42,08,FC,00,00,FF,F1,00,
1806349,000000CE,false,Rx,0,8,00,00,00,00,00,00,00,00,
1806573,0000019E,false,Rx,0,8,00,E8,9F,FC,FE,00,00,24,
1806808,000001A0,false,Rx,0,8,00,80,00,40,01,11,A0,15,
1807033,000002B2,false,Rx,0,8,00,00,00,00,40,00,00,04,
1808760,000001FB,false,Rx,0,2,FA,FF,00,00,00,00,00,00,
1815010,000000AA,false,Rx,0,8,60,56,07,00,B8,0B,94,00,
1816800,000000A8,false,Rx,0,8,09,0B,21,E0,21,1F,0F,04,
1816806,000000A9,false,Rx,0,8,F4,0B,79,DF,1D,C7,E0,21,
1816812,000000BA,false,Rx,0,7,03,FF,0F,00,00,58,8B,00,
1816817,000000C4,false,Rx,0,7,42,08,FC,00,00,FF,F1,00,
1819613,00000480,false,Rx,0,8,17,42,FD,FF,FF,FF,FF,FF,
1825118,000000AA,false,Rx,0,8,62,58,07,00,B8,0B,94,00,
1825344,000000A8,false,Rx,0,8,0A,0C,21,E0,21,1F,0F,04,
1825569,000000A9,false,Rx,0,8,F5,0C,79,DF,1D,C7,E0,21,
1825837,000000BA,false,Rx,0,7,03,FF,0F,00,00,59,8C,00,
1825842,000000B6,false,Rx,0,5,0B,0B,80,00,C8,00,00,00,
1826066,000000C4,false,Rx,0,7,42,08,FC,00,00,FF,F1,00,
1826477,000000CE,false,Rx,0,8,00,00,00,00,00,00,00,00,
1826706,0000019E,false,Rx,0,8,00,E8,AF,FC,FE,00,00,34,
1826938,000001A0,false,Rx,0,8,00,80,00,70,01,14,B0,58,
1827163,000002B2,false,Rx,0,8,00,00,00,00,50,00,00,04,
1835103,000000AA,false,Rx,0,8,64,5A,07,00,B8,0B,94,00,
1836897,000000A8,false,Rx,0,8,0B,0D,21,E0,21,1F,0F,04,
1836904,000000A9,false,Rx,0,8,F6,0D,79,DF,1D,C7,E0,21,
1836909,000000BA,false,Rx,0,7,03,FF,0F,00,00,5A,8D,00,
1836915,000000C4,false,Rx,0,7,42,08,FC,00,00,FF,F1,00,
1839688,000001D0,false,Rx,0,8,3C,76,67,C3,9C,9E,CD,82,
1845003,000000AA,false,Rx,0,8,66,5C,07,00,B8,0B,94,00,
1845227,000000A8,false,Rx,0,8,0C,0E,21,E0,21,1F,0F,04,
1845452,000000A9,false,Rx,0,8,F7,0E,79,DF,1D,C7,E0,21,
1845680,000000B6,false,Rx,0,5,0C,0C,80,00,C8,00,00,00,
1845912,000000BA,false,Rx,0,7,03,FF,0F,00,00,5B,8E,00,
1846137,000000C4,false,Rx,0,7,45,08,FC,00,00,FF,F1,00,
1846362,000000CE,false,Rx,0,8,00,00,00,00,00,00,00,00,
1846587,0000019E,false,Rx,0,8,00,E8,AF,FC,FE,00,00,34,
1846827,000001A0,false,Rx,0,8,00,80,00,60,01,14,C0,58,
1847051,000002B2,false,Rx,0,8,00,00,00,00,50,00,00,04,
1847462,000001A6,false,Rx,0,8,00,00,00,00,00,00,10,F6,
1855029,000000AA,false,Rx,0,8,5A,50,07,00,B8,0B,94,00,
1855253,000000A8,false,Rx,0,8,FD,00,21,E0,21,1F,0F,04,
1857006,000000A9,false,Rx,0,8,E9,00,79,DF,1D,C7,E0,21,
1857013,000000BA,false,Rx,0,7,03,FF,0F,00,00,4D,80,00,
1857018,000000C4,false,Rx,0,7,42,08,FC,1C,FF,FF,F1,00,
1865069,000000AA,false,Rx,0,8,5C,52,07,00,B8,0B,94,00,
1865295,000000A8,false,Rx,0,8,FE,01,21,E0,21,1F,0F,04,
1865520,000000A9,false,Rx,0,8,EA,01,79,DF,1D,C7,E0,21,
1865752,000000B6,false,Rx,0,5,0D,0D,80,00,C8,00,00,00,
1865983,000000BA,false,Rx,0,7,03,FF,0F,00,00,4E,81,00,
1866207,000000C4,false,Rx,0,7,42,08,FC,1C,FF,FF,F1,00,
1866431,000000CE,false,Rx,0,8,00,00,00,00,00,00,00,00,
1866664,0000019E,false,Rx,0,8,00,E8,AF,FC,FE,00,00,34,
1866897,000001A0,false,Rx,0,8,00,80,00,40,01,11,D0,45,
1867121,000001B4,false,Rx,0,8,00,D0,E2,F2,44,32,FE,D1,
1867347,000002B2,false,Rx,0,8,00,00,00,00,40,00,00,04,
1875129,000000AA,false,Rx,0,8,5E,54,07,00,B8,0B,94,00,
1875354,000000A8,false,Rx,0,8,FF,02,21,E0,21,1F,0F,04,
1877140,000000A9,false,Rx,0,8,EB,02,79,DF,1D,C7,E0,21,
1877146,000000BA,false,Rx,0,7,03,FF,0F,00,00,4F,82,00,
1877151,000000C4,false,Rx,0,7,45,08,FC,71,00,FF,F1,00,
1884987,000000AA,false,Rx,0,8,60,56,07,00,B8,0B,94,00,
1885214,000000A8,false,Rx,0,8,00,03,21,E0,21,1F,0F,04,
1885439,000000A9,false,Rx,0,8,EC,03,79,DF,1D,C7,E0,21,
1885668,000000B6,false,Rx,0,5,0E,0E,80,00,C8,00,00,00,
1885900,000000BA,false,Rx,0,7,03,FF,0F,00,00,50,83,00,
1886125,000000C4,false,Rx,0,7,42,08,FC,71,00,FF,F1,00,
1886349,000000CE,false,Rx,0,8,00,00,00,00,00,00,00,00,
1886574,0000019E,false,Rx,0,8,00,E8,AF,FC,FE,00,00,34,
1886815,000001A0,false,Rx,0,8,00,80,00,40,01,11,E0,55,
1887040,000002B2,false,Rx,0,8,00,00,00,00,40,00,00,04,
1894045,00000130,false,Rx,0,5,45,43,21,8F,BA,00,00,00,
1895027,000000AA,false,Rx,0,8,62,58,07,00,B8,0B,94,00,
1895252,000000A8,false,Rx,0,8,02,04,21,E0,21,1F,0F,04,
1895477,000000A9,false,Rx,0,8,ED,04,79,DF,1D,C7,E0,21,
1897265,000000BA,false,Rx,0,7,03,FF,0F,00,00,51,84,00,
1897271,000000C4,false,Rx,0,7,45,08,FC,E4,00,FF,F1,00,
1897277,00000194,false,Rx,0,4,EA,F9,00,F0,00,00,00,00,
1897282,000001D6,false,Rx,0,2,FF,F3,00,00,00,00,00,00,
1905119,000000AA,false,Rx,0,8,64,5A,07,00,B8,0B,94,00,
1905345,000000A8,false,Rx,0,8,03,05,21,E0,21,1F,0F,04,
1905570,000000A9,false,Rx,0,8,EE,05,79,DF,1D,C7,E0,21,
1905848,000000BA,false,Rx,0,7,03,FF,0F,00,00,52,85,00,
1905853,000000B6,false,Rx,0,5,FF,00,80,00,C8,00,00,00,
1906078,000000C4,false,Rx,0,7,45,08,FC,E4,00,FF,F1,00,
1906303,000000CE,false,Rx,0,8,00,00,00,00,00,00,00,00,
1906715,0000019E,false,Rx,0,8,00,E8,AF,FC,FE,00,00,34,
1906947,000001A0,false,Rx,0,8,00,80,00,60,01,14,00,97,
1907172,000002B2,false,Rx,0,8,00,00,00,00,50,00,00,04,
1907396,000005A9,false,Rx,0,8,40,23,00,15,FF,FF,FF,FF,
1912882,00000497,false,Rx,0,8,29,42,FF,FF,FF,FF,FF,FF,
1914991,000000AA,false,Rx,0,8,66,5C,07,00,B8,0B,94,00,
1915217,000000A8,false,Rx,0,8,04,06,21,E0,21,1F,0F,04,
1915442,000000A9,false,Rx,0,8,EF,06,79,DF,1D,C7,E0,21,
1915673,000000BA,false,Rx,0,7,03,FF,0F,00,00,53,86,00,
1917385,000000C4,false,Rx,0,7,45,08,FC,00,00,FF,F1,00,
1917392,000005A9,false,Rx,0,8,40,18,00,19,FF,FF,FF,FF,
1925077,000000AA,false,Rx,0,8,68,5E,07,00,B8,0B,94,00,
1925304,000000A8,false,Rx,0,8,05,07,21,E0,21,1F,0F,04,
1925529,000000A9,false,Rx,0,8,F0,07,79,DF,1D,C7,E0,21,
1925761,000000BA,false,Rx,0,7,03,FF,0F,00,00,54,87,00,
1925992,000000B6,false,Rx,0,5,00,01,80,00,C8,00,00,00,
1926217,000000C4,false,Rx,0,7,45,08,FC,00,00,FF,F1,00,
1926442,000000CE,false,Rx,0,8,00,00,00,00,00,00,00,00,
1926672,0000019E,false,Rx,0,8,00,E8,AF,FC,FE,00,00,34,
1926903,000001A0,false,Rx,0,8,00,80,00,40,01,14,10,87,
1927129,000002B2,false,Rx,0,8,00,00,00,00,50,00,00,04,
1927354,000005A9,false,Rx,0,8,40,32,00,21,FF,FF,FF,FF,
1927578,000000C8,false,Rx,0,6,3B,08,CC,00,00,2C,00,00,
1934955,000000AA,false,Rx,0,8,5A,50,07,00,B8,0B,94,00,
1935365,000000A8,false,Rx,0,8,06,08,21,E0,21,1F,0F,04,
1935591,000000A9,false,Rx,0,8,F1,08,79,DF,1D,C7,E0,21,
1935864,000000BA,false,Rx,0,7,03,FF,0F,00,00,55,88,00,
1935869,000000C4,false,Rx,0,7,45,08,FC,00,00,FF,F1,00,
1939581,000001D0,false,Rx,0,8,3C,76,67,C3,9C,9E,CD,82,
1945090,000000AA,false,Rx,0,8,5C,52,07,00,B8,0B,94,00,
1945315,000000A8,false,Rx,0,8,07,09,21,E0,21,1F,0F,04,
1945540,000000A9,false,Rx,0,8,F2,09,79,DF,1D,C7,E0,21,
1945768,000000B6,false,Rx,0,5,02,02,80,00,C8,00,00,00,
1945999,000000BA,false,Rx,0,7,03,FF,0F,00,00,56,89,00,
1946224,000000C4,false,Rx,0,7,45,08,FC,00,00,FF,F1,00,
1946449,000000CE,false,Rx,0,8,00,00,00,00,00,00,00,00,
1946677,0000019E,false,Rx,0,8,00,E8,AF,FC,FE,00,00,34,
1946909,000001A0,false,Rx,0,8,00,80,00,60,01,11,20,B4,
1947134,000002B2,false,Rx,0,8,00,00,00,00,40,00,00,04,
1947359,000001A6,false,Rx,0,8,00,00,00,00,00,00,A0,F7,
1955122,000000AA,false,Rx,0,8,5E,54,07,00,B8,0B,94,00,
1955348,000000A8,false,Rx,0,8,08,0A,21,E0,21,1F,0F,04,
1955573,000000A9,false,Rx,0,8,F3,0A,79,DF,1D,C7,E0,21,
1955814,000000BA,false,Rx,0,7,03,FF,0F,00,00,57,8A,00,
1956039,000000C4,false,Rx,0,7,42,08,FC,DC,FF,FF,F1,00,
1965110,000000AA,false,Rx,0,8,60,56,07,00,B8,0B,94,00,
1965339,000000A8,false,Rx,0,8,09,0B,21,E0,21,1F,0F,04,
1965563,000000A9,false,Rx,0,8,F4,0B,79,DF,1D,C7,E0,21,
1965602,000000B6,false,Rx,0,5,03,03,80,00,C8,00,00,00,
1965841,000000BA,false,Rx,0,7,03,FF,0F,00,00,58,8B,00,
1966065,000000C4,false,Rx,0,7,45,08,FC,DC,FF,FF,F1,00,
1966476,000000CE,false,Rx,0,8,00,00,00,00,00,00,00,00,
1966706,0000019E,false,Rx,0,8,00,E8,AF,FC,FE,00,00,34,
1966938,000001A0,false,Rx,0,8,00,80,00,40,01,11,30,A4,
1967163,000001B4,false,Rx,0,8,00,D0,E2,F3,44,32,FE,D2,
1967389,000002B2,false,Rx,0,8,00,00,00,00,40,00,00,04,
1975017,000000AA,false,Rx,0,8,62,58,07,00,B8,0B,94,00,
1975255,000000A8,false,Rx,0,8,0A,0C,21,E0,21,1F,0F,04,
1975494,000000A9,false,Rx,0,8,F5,0C,79,DF,1D,C7,E0,21,
1975722,000000BA,false,Rx,0,7,03,FF,0F,00,00,59,8C,00,
1975954,000000C4,false,Rx,0,7,42,08,FC,1C,FF,FF,F1,00,
1985117,000000AA,false,Rx,0,8,64,5A,07,00,B8,0B,94,00,
1985346,000000A8,false,Rx,0,8,0B,0D,21,E0,21,1F,0F,04,
1985604,000000A9,false,Rx,0,8,F6,0D,79,DF,1D,C7,E0,21,
1985609,000000B6,false,Rx,0,5,04,04,80,00,C8,00,00,00,
1985846,000000BA,false,Rx,0,7,03,FF,0F,00,00,5A,8D,00,
1986072,000000C4,false,Rx,0,7,45,08,FC,1C,FF,FF,F1,00,
1986482,000000CE,false,Rx,0,8,00,00,00,00,00,00,00,00,
1986710,0000019E,false,Rx,0,8,00,E8,AF,FC,FE,00,00,34,
1986942,000001A0,false,Rx,0,8,00,80,00,40,01,11,40,B4,
1987166,000002B2,false,Rx,0,8,00,00,00,00,40,00,00,04,
1994047,00000130,false,Rx,0,5,45,43,21,8F,CB,00,00,00,
1995069,000000AA,false,Rx,0,8,66,5C,07,00,B8,0B,94,00,
1995294,000000A8,false,Rx,0,8,0C,0E,21,E0,21,1F,0F,04,
1995519,000000A9,false,Rx,0,8,F7,0E,79,DF,1D,C7,E0,21,
1995750,000000BA,false,Rx,0,7,03,FF,0F,00,00,5B,8E,00,
1995981,000000C4,false,Rx,0,7,45,08,FC,00,00,FF,F1,00,
1996240,000001D2,false,Rx,0,5,E1,0C,8F,60,F0,00,00,00,
1996245,000001D6,false,Rx,0,2,FF,F3,00,00,00,00,00,00,
1998882,000001FB,false,Rx,0,2,FB,FF,00,00,00,00,00,00,
2005000,000000AA,false,Rx,0,8,5A,50,07,00,B8,0B,94,00,
2005225,000000A8,false,Rx,0,8,FD,00,21,E0,21,1F,0F,04,
2005451,000000A9,false,Rx,0,8,E9,00,79,DF,1D,C7,E0,21,
2005679,000000BA,false,Rx,0,7,03,FF,0F,00,00,4D,80,00,
2005911,000000B6,false,Rx,0,5,05,05,80,00,C8,00,00,00,
2006135,000000C4,false,Rx,0,7,45,08,FC,00,00,FF,F1,00,
2006361,000000CE,false,Rx,0,8,00,00,00,00,00,00,00,00,
2006586,0000019E,false,Rx,0,8,00,E8,AF,FC,FE,00,00,34,
2006824,000001A0,false,Rx,0,8,00,80,00,60,01,14,50,E7,
2007049,000002B2,false,Rx,0,8,00,00,00,00,50,00,00,04,
2007460,000004A9,false,Rx,0,8,30,42,FF,FF,FF,FF,FF,FF,
2015029,000000AA,false,Rx,0,8,5C,52,07,00,B8,0B,94,00,
2015254,000000A8,false,Rx,0,8,FE,01,21,E0,21,1F,0F,04,
2015479,000000A9,false,Rx,0,8,EA,01,79,DF,1D,C7,E0,21,
2015707,000000BA,false,Rx,0,7,03,FF,0F,00,00,4E,81,00,
2015939,000000C4,false,Rx,0,7,45,08,FC,00,00,FF,F1,00,
2025017,000000AA,false,Rx,0,8,5E,54,07,00,B8,0B,94,00,
2025246,000000A8,false,Rx,0,8,FF,02,21,E0,21,1F,0F,04,
2025471,000000A9,false,Rx,0,8,EB,02,79,DF,1D,C7,E0,21,
2025707,000000BA,false,Rx,0,7,03,FF,0F,00,00,4F,82,00,
2025939,000000B6,false,Rx,0,5,06,06,80,00,C8,00,00,00,
2026164,000000C4,false,Rx,0,7,45,08,FC,00,00,FF,F1,00,
2026389,000000CE,false,Rx,0,8,00,00,00,00,00,00,00,00,
2026615,0000019E,false,Rx,0,8,00,E8,BF,FC,FE,00,00,44,
2026853,000001A0,false,Rx,0,8,00,80,00,60,01,11,60,F4,
2027078,000002B2,false,Rx,0,8,00,00,00,00,40,00,00,04,
2035007,000000AA,false,Rx,0,8,60,56,07,00,B8,0B,94,00,
2035231,000000A8,false,Rx,0,8,00,03,21,E0,21,1F,0F,04,
2035456,000000A9,false,Rx,0,8,EC,03,79,DF,1D,C7,E0,21,
2035692,000000BA,false,Rx,0,7,03,FF,0F,00,00,50,83,00,
2035924,000000C4,false,Rx,0,7,42,08,FC,D3,FF,FF,F1,00,
2039674,000001D0,false,Rx,0,8,3C,76,68,C3,9C,9E,CD,82,
2044974,000000AA,false,Rx,0,8,62,58,07,00,B8,0B,94,00,
2045206,000000A8,false,Rx,0,8,02,04,21,E0,21,1F,0F,04,
2045431,000000A9,false,Rx,0,8,ED,04,79,DF,1D,C7,E0,21,
2045664,000000B6,false,Rx,0,5,07,07,80,00,C8,00,00,00,
2045896,000000BA,false,Rx,0,7,03,FF,0F,00,00,51,84,00,
2046121,000000C4,false,Rx,0,7,45,08,FC,D3,FF,FF,F1,00,
2046346,000000CE,false,Rx,0,8,00,00,00,00,00,00,00,00,
2046572,0000019E,false,Rx,0,8,00,E8,BF,FC,FE,00,00,44,
2046808,000001A0,false,Rx,0,8,00,80,00,60,01,14,70,08,
2047032,000002B2,false,Rx,0,8,00,00,00,00,50,00,00,04,
2047443,000001A6,false,Rx,0,8,00,00,00,00,00,00,30,F9,
2055007,000000AA,false,Rx,0,8,64,5A,07,00,B8,0B,94,00,
2055232,000000A8,false,Rx,0,8,03,05,21,E0,21,1F,0F,04,
2055457,000000A9,false,Rx,0,8,EE,05,79,DF,1D,C7,E0,21,
2055690,000000BA,false,Rx,0,7,03,FF,0F,00,00,52,85,00,
2055923,000000C4,false,Rx,0,7,45,08,FC,00,00,FF,F1,00,
2065055,000000AA,false,Rx,0,8,66,5C,07,00,B8,0B,94,00,
2065284,000000A8,false,Rx,0,8,04,06,21,E0,21,1F,0F,04,
2065509,000000A9,false,Rx,0,8,EF,06,79,DF,1D,C7,E0,21,
2065741,000000B6,false,Rx,0,5,08,08,80,00,C8,00,00,00,
2065972,000000BA,false,Rx,0,7,03,FF,0F,00,00,53,86,00,
2066197,000000C4,false,Rx,0,7,45,08,FC,00,00,FF,F1,00,
2066422,000000CE,false,Rx,0,8,00,00,00,00,00,00,00,00,
2066651,0000019E,false,Rx,0,8,00,E8,BF,FC,FE,00,00,44,
2066883,000001A0,false,Rx,0,8,00,80,00,40,01,11,80,F4,
2067108,000001B4,false,Rx,0,8,00,D0,E2,F4,44,32,FE,D3,
2067333,000002B2,false,Rx,0,8,00,00,00,00,40,00,00,04,
2075009,000000AA,false,Rx,0,8,68,5E,07,00,B8,0B,94,00,
2075234,000000A8,false,Rx,0,8,05,07,21,E0,21,1F,0F,04,
2075459,000000A9,false,Rx,0,8,F0,07,79,DF,1D,C7,E0,21,
2075691,000000BA,false,Rx,0,7,03,FF,0F,00,00,54,87,00,
2075923,000000C4,false,Rx,0,7,45,08,FC,00,00,FF,F1,00,
2085105,000000AA,false,Rx,0,8,5A,50,07,00,B8,0B,94,00,
2085333,000000A8,false,Rx,0,8,06,08,21,E0,21,1F,0F,04,
2085558,000000A9,false,Rx,0,8,F1,08,79,DF,1D,C7,E0,21,
2085832,000000BA,false,Rx,0,7,03,FF,0F,00,00,55,88,00,
2085837,000000B6,false,Rx,0,5,09,09,80,00,C8,00,00,00,
2086062,000000C4,false,Rx,0,7,45,08,FC,00,00,FF,F1,00,
2086473,000000CE,false,Rx,0,8,00,00,00,00,00,00,00,00,
2086703,0000019E,false,Rx,0,8,00,E8,BF,FC,FE,00,00,44,
2086936,000001A0,false,Rx,0,8,00,80,00,40,01,14,90,08,
2087160,000002B2,false,Rx,0,8,00,00,00,00,50,00,00,04,
2093975,00000130,false,Rx,0,5,45,43,21,8F,DC,00,00,00,
2094953,000000AA,false,Rx,0,8,5C,52,07,00,B8,0B,94,00,
2095364,000000A8,false,Rx,0,8,07,09,21,E0,21,1F,0F,04,
2095589,000000A9,false,Rx,0,8,F2,09,79,DF,1D,C7,E0,21,
2095865,000000BA,false,Rx,0,7,03,FF,0F,00,00,56,89,00,
2095870,000000C4,false,Rx,0,7,42,08,FC,D3,FF,FF,F1,00,
2096095,00000194,false,Rx,0,4,EB,FA,00,F0,00,00,00,00,
2096352,000001D6,false,Rx,0,2,FF,F3,00,00,00,00,00,00,
2096357,000002A6,false,Rx,0,2,00,FC,00,00,00,00,00,00,
2098569,000004B0,false,Rx,0,8,00,42,FE,01,FF,FF,FF,FF,
2105126,000000AA,false,Rx,0,8,5E,54,07,00,B8,0B,94,00,
2105352,000000A8,false,Rx,0,8,08,0A,21,E0,21,1F,0F,04,
2105578,000000A9,false,Rx,0,8,F3,0A,79,DF,1D,C7,E0,21,
2105851,000000BA,false,Rx,0,7,03,FF,0F,00,00,57,8A,00,
2105857,000000B6,false,Rx,0,5,0A,0A,80,00,C8,00,00,00,
2106081,000000C4,false,Rx,0,7,45,08,FC,D3,FF,FF,F1,00,
2106306,000000CE,false,Rx,0,8,00,00,00,00,00,00,00,00,
2106718,0000019E,false,Rx,0,8,00,E8,BF,FC,FE,00,00,44,
2106950,000001A0,false,Rx,0,8,00,80,00,60,01,11,A0,35,
2107175,000002B2,false,Rx,0,8,00,00,00,00,40,00,00,04,
2115123,000000AA,false,Rx,0,8,60,56,07,00,B8,0B,94,00,
2115347,000000A8,false,Rx,0,8,09,0B,21,E0,21,1F,0F,04,
2115573,000000A9,false,Rx,0,8,F4,0B,79,DF,1D,C7,E0,21,
2115812,000000BA,false,Rx,0,7,03,FF,0F,00,00,58,8B,00,
2116037,000000C4,false,Rx,0,7,45,08,FC,00,00,FF,F1,00,
2124957,000000AA,false,Rx,0,8,62,58,07,00,B8,0B,94,00,
2125371,000000A8,false,Rx,0,8,0A,0C,21,E0,21,1F,0F,04,
2125596,000000A9,false,Rx,0,8,F5,0C,79,DF,1D,C7,E0,21,
2125869,000000BA,false,Rx,0,7,03,FF,0F,00,00,59,8C,00,
2125874,000000B6,false,Rx,0,5,0B,0B,80,00,C8,00,00,00,
2126099,000000C4,false,Rx,0,7,42,08,FC,00,00,FF,F1,00,
2126324,000000CE,false,Rx,0,8,00,00,00,00,00,00,00,00,
2126549,0000019E,false,Rx,0,8,00,E8,BF,FC,FE,00,00,44,
2126789,000001A0,false,Rx,0,8,00,80,00,60,01,14,B0,48,
2127234,000002B2,false,Rx,0,8,00,00,00,00,50,00,00,04,
2127240,000000C8,false,Rx,0,6,38,08,2C,8F,FF,6C,00,00,
2135003,000000AA,false,Rx,0,8,64,5A,07,00,B8,0B,94,00,
2135228,000000A8,false,Rx,0,8,0B,0D,21,E0,21,1F,0F,04,
2135452,000000A9,false,Rx,0,8,F6,0D,79,DF,1D,C7,E0,21,
2135680,000000BA,false,Rx,0,7,03,FF,0F,00,00,5A,8D,00,
2135913,000000C4,false,Rx,0,7,45,08,FC,E4,00,FF,F1,00,
2139651,000001D0,false,Rx,0,8,3C,76,68,C3,9C,9E,CD,82,
2145068,000000AA,false,Rx,0,8,66,5C,07,00,B8,0B,94,00,
2145293,000000A8,false,Rx,0,8,0C,0E,21,E0,21,1F,0F,04,
2145519,000000A9,false,Rx,0,8,F7,0E,79,DF,1D,C7,E0,21,
2145752,000000B6,false,Rx,0,5,0C,0C,80,00,C8,00,00,00,
2145984,000000BA,false,Rx,0,7,03,FF,0F,00,00,5B,8E,00,
2146209,000000C4,false,Rx,0,7,42,08,FC,E4,00,FF,F1,00,
2146434,000000CE,false,Rx,0,8,00,00,00,00,00,00,00,00,
2146669,0000019E,false,Rx,0,8,00,E8,BF,FC,FE,00,00,44,
2146900,000001A0,false,Rx,0,8,00,80,00,40,01,11,C0,35,
2147125,000002B2,false,Rx,0,8,00,00,00,00,40,00,00,04,
2147350,000001A6,false,Rx,0,8,00,00,00,00,00,00,C0,FA,
2147575,00000374,false,Rx,0,5,00,00,00,00,FC,00,00,00,
2155130,000000AA,false,Rx,0,8,5A,50,07,00,B8,0B,94,00,
2155355,000000A8,false,Rx,0,8,FD,00,21,E0,21,1F,0F,04,
2155580,000000A9,false,Rx,0,8,E9,00,79,DF,1D,C7,E0,21,
2155820,000000BA,false,Rx,0,7,03,FF,0F,00,00,4D,80,00,
2156045,000000C4,false,Rx,0,7,45,08,FC,E4,00,FF,F1,00,
2164982,000000AA,false,Rx,0,8,5C,52,07,00,B8,0B,94,00,
2165211,000000A8,false,Rx,0,8,FE,01,21,E0,21,1F,0F,04,
2165435,000000A9,false,Rx,0,8,EA,01,79,DF,1D,C7,E0,21,
2165668,000000B6,false,Rx,0,5,0D,0D,80,00,C8,00,00,00,
2165900,000000BA,false,Rx,0,7,03,FF,0F,00,00,4E,81,00,
2166125,000000C4,false,Rx,0,7,42,08,FC,E4,00,FF,F1,00,
2166350,000000CE,false,Rx,0,8,00,00,00,00,00,00,00,00,
2166575,0000019E,false,Rx,0,8,00,E8,BF,FC,FE,00,00,44,
2166815,000001A0,false,Rx,0,8,00,80,00,40,01,11,D0,45,
2167040,000001B4,false,Rx,0,8,00,D0,E2,F5,44,32,FE,D4,
2167265,000002B2,false,Rx,0,8,00,00,00,00,40,00,00,04,
2175017,000000AA,false,Rx,0,8,5E,54,07,00,B8,0B,94,00,
2175242,000000A8,false,Rx,0,8,FF,02,21,E0,21,1F,0F,04,
2175468,000000A9,false,Rx,0,8,EB,02,79,DF,1D,C7,E0,21,
2175700,000000BA,false,Rx,0,7,03,FF,0F,00,00,4F,82,00,
2175933,000000C4,false,Rx,0,7,45,08,FC,E4,00,FF,F1,00,
2179722,00000480,false,Rx,0,8,17,42,FD,FF,FF,FF,FF,FF,
2185009,000000AA,false,Rx,0,8,60,56,07,00,B8,0B,94,00,
2185234,000000A8,false,Rx,0,8,00,03,21,E0,21,1F,0F,04,
2185459,000000A9,false,Rx,0,8,EC,03,79,DF,1D,C7,E0,21,
2185690,000000B6,false,Rx,0,5,0E,0E,80,00,C8,00,00,00,
2185922,000000BA,false,Rx,0,7,03,FF,0F,00,00,50,83,00,
2186147,000000C4,false,Rx,0,7,45,08,FC,E4,00,FF,F1,00,
2186373,000000CE,false,Rx,0,8,00,00,00,00,00,00,00,00,
2186598,0000019E,false,Rx,0,8,00,E8,BF,FC,FE,00,00,44,
2186837,000001A0,false,Rx,0,8,00,80,00,40,01,14,E0,58,
2187062,000002B2,false,Rx,0,8,00,00,00,00,50,00,00,04,
2188044,000001FB,false,Rx,0,2,FC,FF,00,00,00,00,00,00,
2193917,00000130,false,Rx,0,5,45,43,21,8F,ED,00,00,00,
2195085,000000AA,false,Rx,0,8,62,58,07,00,B8,0B,94,00,
2195310,000000A8,false,Rx,0,8,02,04,21,E0,21,1F,0F,04,
2195535,000000A9,false,Rx,0,8,ED,04,79,DF,1D,C7,E0,21,
2195770,000000BA,false,Rx,0,7,03,FF,0F,00,00,51,84,00,
2196002,000000C4,false,Rx,0,7,42,08,FC,8F,FF,FF,F1,00,
2196260,000001D2,false,Rx,0,5,E1,0C,8F,70,F0,00,00,00,
2196265,000001D6,false,Rx,0,2,FF,F3,00,00,00,00,00,00,
2205007,000000AA,false,Rx,0,8,64,5A,07,00,B8,0B,94,00,
2205235,000000A8,false,Rx,0,8,03,05,21,E0,21,1F,0F,04,
2205461,000000A9,false,Rx,0,8,EE,05,79,DF,1D,C7,E0,21,
2205693,000000BA,false,Rx,0,7,03,FF,0F,00,00,52,85,00,
2205925,000000B6,false,Rx,0,5,FF,00,80,00,C8,00,00,00,
2206149,000000C4,false,Rx,0,7,45,08,FC,8F,FF,FF,F1,00,
2206375,000000CE,false,Rx,0,8,00,00,00,00,00,00,00,00,
2206600,0000019E,false,Rx,0,8,00,E8,BF,FC,FE,00,00,44,
2206839,000001A0,false,Rx,0,8,00,80,00,60,01,11,00,94,
2207065,000002B2,false,Rx,0,8,00,00,00,00,40,00,00,04,
2215010,000000AA,false,Rx,0,8,66,5C,07,00,B8,0B,94,00,
2215235,000000A8,false,Rx,0,8,04,06,21,E0,21,1F,0F,04,
2215460,000000A9,false,Rx,0,8,EF,06,79,DF,1D,C7,E0,21,
2215691,000000BA,false,Rx,0,7,03,FF,0F,00,00,53,86,00,
2215923,000000C4,false,Rx,0,7,45,08,FC,00,00,FF,F1,00,
2225033,000000AA,false,Rx,0,8,68,5E,07,00,B8,0B,94,00,
2225262,000000A8,false,Rx,0,8,05,07,21,E0,21,1F,0F,04,
2225487,000000A9,false,Rx,0,8,F0,07,79,DF,1D,C7,E0,21,
2225716,000000BA,false,Rx,0,7,03,FF,0F,00,00,54,87,00,
2225948,000000B6,false,Rx,0,5,00,01,80,00,C8,00,00,00,
2226172,000000C4,false,Rx,0,7,45,08,FC,00,00,FF,F1,00,
2226397,000000CE,false,Rx,0,8,00,00,00,00,00,00,00,00,
2226622,0000019E,false,Rx,0,8,00,E8,BF,FC,FE,00,00,44,
2226862,000001A0,false,Rx,0,8,00,80,00,40,01,11,10,84,
2227087,000002B2,false,Rx,0,8,00,00,00,00,40,00,00,04,
2231447,00000310,false,Rx,0,7,6E,E6,DA,2D,01,40,23,00,
2235065,000000AA,false,Rx,0,8,5A,50,07,00,B8,0B,94,00,
2235290,000000A8,false,Rx,0,8,06,08,21,E0,21,1F,0F,04,
2235516,000000A9,false,Rx,0,8,F1,08,79,DF,1D,C7,E0,21,
2235747,000000BA,false,Rx,0,7,03,FF,0F,00,00,55,88,00,
2235979,000000C4,false,Rx,0,7,45,08,FC,00,00,FF,F1,00,
2239554,000001D0,false,Rx,0,8,3C,76,69,C3,9C,9E,CD,82,
2245122,000000AA,false,Rx,0,8,5C,52,07,00,B8,0B,94,00,
2245348,000000A8,false,Rx,0,8,07,09,21,E0,21,1F,0F,04,
2245609,000000A9,false,Rx,0,8,F2,09,79,DF,1D,C7,E0,21,
2245615,000000B6,false,Rx,0,5,02,02,80,00,C8,00,00,00,
2245869,000000BA,false,Rx,0,7,03,FF,0F,00,00,56,89,00,
2246108,000000C4,false,Rx,0,7,42,08,FC,00,00,FF,F1,00,
2246355,000000CE,false,Rx,0,8,00,00,00,00,00,00,00,00,
2246585,0000019E,false,Rx,0,8,00,E8,CF,FC,FE,00,00,54,
2246863,000001A0,false,Rx,0,8,00,80,00,40,01,11,20,94,
2247103,000002B2,false,Rx,0,8,00,00,00,00,40,00,00,04,
2247328,000001A6,false,Rx,0,8,00,00,00,00,00,00,50,FC,
2255077,000000AA,false,Rx,0,8,5E,54,07,00,B8,0B,94,00,
2255302,000000A8,false,Rx,0,8,08,0A,21,E0,21,1F,0F,04,
2255526,000000A9,false,Rx,0,8,F3,0A,79,DF,1D,C7,E0,21,
2255757,000000BA,false,Rx,0,7,03,FF,0F,00,00,57,8A,00,
2255989,000000C4,false,Rx,0,7,45,08,FC,E4,00,FF,F1,00,
2265014,000000AA,false,Rx,0,8,60,56,07,00,B8,0B,94,00,
2265243,000000A8,false,Rx,0,8,09,0B,21,E0,21,1F,0F,04,
2265467,000000A9,false,Rx,0,8,F4,0B,79,DF,1D,C7,E0,21,
2265696,000000B6,false,Rx,0,5,03,03,80,00,C8,00,00,00,
2265928,000000BA,false,Rx,0,7,03,FF,0F,00,00,58,8B,00,
2266153,000000C4,false,Rx,0,7,42,08,FC,E4,00,FF,F1,00,
2266378,000000CE,false,Rx,0,8,00,00,00,00,00,00,00,00,
2266603,0000019E,false,Rx,0,8,00,E8,CF,FC,FE,00,00,54,
2266844,000001A0,false,Rx,0,8,00,80,00,40,01,11,30,A4,
2267070,000001B4,false,Rx,0,8,00,D0,E2,F6,44,32,FE,D5,
2267306,000002B2,false,Rx,0,8,00,00,00,00,40,00,00,04,
2272914,00000497,false,Rx,0,8,29,42,FF,FF,FF,FF,FF,FF,
2275024,000000AA,false,Rx,0,8,62,58,07,00,B8,0B,94,00,
2275249,000000A8,false,Rx,0,8,0A,0C,21,E0,21,1F,0F,04,
2275475,000000A9,false,Rx,0,8,F5,0C,79,DF,1D,C7,E0,21,
2275706,000000BA,false,Rx,0,7,03,FF,0F,00,00,59,8C,00,
2275939,000000C4,false,Rx,0,7,45,08,FC,E4,00,FF,F1,00,
2285067,000000AA,false,Rx,0,8,64,5A,07,00,B8,0B,94,00,
2285295,000000A8,false,Rx,0,8,0B,0D,21,E0,21,1F,0F,04,
2285521,000000A9,false,Rx,0,8,F6,0D,79,DF,1D,C7,E0,21,
2285751,000000B6,false,Rx,0,5,04,04,80,00,C8,00,00,00,
2285983,000000BA,false,Rx,0,7,03,FF,0F,00,00,5A,8D,00,
2286208,000000C4,false,Rx,0,7,45,08,FC,E4,00,FF,F1,00,
2286433,000000CE,false,Rx,0,8,00,00,00,00,00,00,00,00,
2286665,0000019E,false,Rx,0,8,00,E8,CF,FC,FE,00,00,54,
2286896,000001A0,false,Rx,0,8,00,80,00,60,01,14,40,D7,
2287121,000002B2,false,Rx,0,8,00,00,00,00,50,00,00,04,
2294494,00000130,false,Rx,0,5,45,43,21,8F,FE,00,00,00,
2295103,000000AA,false,Rx,0,8,66,5C,07,00,B8,0B,94,00,
2295328,000000A8,false,Rx,0,8,0C,0E,21,E0,21,1F,0F,04,
2295553,000000A9,false,Rx,0,8,F7,0E,79,DF,1D,C7,E0,21,
2295796,000000BA,false,Rx,0,7,03,FF,0F,00,00,5B,8E,00,
2296055,000000C4,false,Rx,0,7,45,08,FC,00,00,FF,F1,00,
2296060,00000194,false,Rx,0,4,EC,FB,00,F0,00,00,00,00,
2296283,000001D6,false,Rx,0,2,FF,F3,00,00,00,00,00,00,
2305077,000000AA,false,Rx,0,8,5A,50,07,00,B8,0B,94,00,
2305306,000000A8,false,Rx,0,8,FD,00,21,E0,21,1F,0F,04,
2305531,000000A9,false,Rx,0,8,E9,00,79,DF,1D,C7,E0,21,
2305760,000000BA,false,Rx,0,7,03,FF,0F,00,00,4D,80,00,
2305992,000000B6,false,Rx,0,5,05,05,80,00,C8,00,00,00,
2306217,000000C4,false,Rx,0,7,45,08,FC,00,00,FF,F1,00,
2306442,000000CE,false,Rx,0,8,00,00,00,00,00,00,00,00,
2306672,0000019E,false,Rx,0,8,00,E8,CF,FC,FE,00,00,54,
2306903,000001A0,false,Rx,0,8,00,80,00,40,01,11,50,C4,
2307128,000002B2,false,Rx,0,8,00,00,00,00,40,00,00,04,
2315064,000000AA,false,Rx,0,8,5C,52,07,00,B8,0B,94,00,
2315289,000000A8,false,Rx,0,8,FE,01,21,E0,21,1F,0F,04,
2315514,000000A9,false,Rx,0,8,EA,01,79,DF,1D,C7,E0,21,
2315748,000000BA,false,Rx,0,7,03,FF,0F,00,00,4E,81,00,
2315979,000000C4,false,Rx,0,7,45,08,FC,00,00,FF,F1,00,
2325106,000000AA,false,Rx,0,8,5E,54,07,00,B8,0B,94,00,
2325334,000000A8,false,Rx,0,8,FF,02,21,E0,21,1F,0F,04,
2325559,000000A9,false,Rx,0,8,EB,02,79,DF,1D,C7,E0,21,
