Time Stamp,ID,Extended,Dir,Bus,LEN,D1,D2,D3,D4,D5,D6,D7,D8
1634112,0000019E,false,Rx,0,8,00,EA,BF,FC,FE,61,00,A7,
1634118,000001A0,false,Rx,0,8,00,80,00,00,80,00,B8,5B,
1634124,000002B2,false,Rx,0,8,00,00,00,00,0F,80,00,04,
1638398,000000AA,false,Rx,0,8,60,32,FE,00,00,00,84,00,
1638625,000000A8,false,Rx,0,8,07,09,21,E0,21,1F,0F,04,
1638859,000000A9,false,Rx,0,8,F2,09,79,DF,1D,C7,E0,21,
1639083,000000BA,false,Rx,0,7,03,FF,0F,00,00,56,89,00,
1641946,000000C4,false,Rx,0,7,42,03,FC,00,00,FF,F1,00,
1648411,000000AA,false,Rx,0,8,62,34,FE,00,00,00,84,00,
1648636,000000A8,false,Rx,0,8,08,0A,21,E0,21,1F,0F,04,
1648875,000000A9,false,Rx,0,8,F3,0A,79,DF,1D,C7,E0,21,
1649100,000000BA,false,Rx,0,7,03,FF,0F,00,00,57,8A,00,
1651781,000000B6,false,Rx,0,5,0C,0C,80,00,C8,00,00,00,
1652012,000000C4,false,Rx,0,7,42,03,FC,00,00,FF,F1,00,
1652422,000000CE,false,Rx,0,8,00,00,00,00,00,00,00,00,
1654221,0000019E,false,Rx,0,8,00,EA,BF,FC,FE,61,00,A7,
1654228,000001A0,false,Rx,0,8,00,80,00,00,80,00,C8,6B,
1654233,000002B2,false,Rx,0,8,00,00,00,00,0F,80,00,04,
1658521,000000AA,false,Rx,0,8,64,36,FE,00,00,00,84,00,
1658755,000000A8,false,Rx,0,8,09,0B,21,E0,21,1F,0F,04,
1658988,000000A9,false,Rx,0,8,F4,0B,79,DF,1D,C7,E0,21,
1659213,000000BA,false,Rx,0,7,03,FF,0F,00,00,58,8B,00,
1661889,000000C4,false,Rx,0,7,42,03,FC,00,00,FF,F1,00,
1664548,000001FB,false,Rx,0,2,F2,FF,00,00,00,00,00,00,
1668363,000000AA,false,Rx,0,8,66,38,FE,00,00,00,84,00,
1668588,000000A8,false,Rx,0,8,0A,0C,21,E0,21,1F,0F,04,
1668816,000000A9,false,Rx,0,8,F5,0C,79,DF,1D,C7,E0,21,
1669049,000000BA,false,Rx,0,7,03,FF,0F,00,00,59,8C,00,
1671720,000000B6,false,Rx,0,5,0D,0D,80,00,C8,00,00,00,
1671952,000000C4,false,Rx,0,7,42,03,FC,00,00,FF,F1,00,
1672177,000000CE,false,Rx,0,8,00,00,00,00,00,00,00,00,
1672402,0000019E,false,Rx,0,8,00,EA,CF,FC,FE,61,00,B7,
1674311,000001A0,false,Rx,0,8,00,80,00,00,80,00,D8,7B,
1674317,000002B2,false,Rx,0,8,00,00,00,00,0F,80,00,04,
1678390,000000AA,false,Rx,0,8,68,3A,FE,00,00,00,84,00,
1678617,000000A8,false,Rx,0,8,0B,0D,21,E0,21,1F,0F,04,
1678857,000000A9,false,Rx,0,8,F6,0D,79,DF,1D,C7,E0,21,
1679082,000000BA,false,Rx,0,7,03,FF,0F,00,00,5A,8D,00,
1681944,000000C4,false,Rx,0,7,42,03,FC,00,00,FF,F1,00,
1683866,00000130,false,Rx,0,5,00,0E,D0,0F,43,00,00,00,
1688417,000000AA,false,Rx,0,8,6A,3C,FE,00,00,00,84,00,
1688643,000000A8,false,Rx,0,8,0C,0E,21,E0,21,1F,0F,04,
1688881,000000A9,false,Rx,0,8,F7,0E,79,DF,1D,C7,E0,21,
1689107,000000BA,false,Rx,0,7,03,FF,0F,00,00,5B,8E,00,
1691783,000000B6,false,Rx,0,5,0E,0E,80,00,C8,00,00,00,
1692014,000000C4,false,Rx,0,7,42,03,FC,00,00,FF,F1,00,
1692240,000000CE,false,Rx,0,8,00,00,00,00,00,00,00,00,
1692650,0000019E,false,Rx,0,8,00,EA,CF,FC,FE,61,00,B7,
1694364,000001A0,false,Rx,0,8,00,80,00,00,80,00,E8,8B,
1694371,000002B2,false,Rx,0,8,00,00,00,00,0F,80,00,04,
1698474,000000AA,false,Rx,0,8,5E,30,FE,00,00,00,84,00,
1698702,000000A8,false,Rx,0,8,FD,00,21,E0,21,1F,0F,04,
1698935,000000A9,false,Rx,0,8,E9,00,79,DF,1D,C7,E0,21,
1699160,000000BA,false,Rx,0,7,03,FF,0F,00,00,4D,80,00,
1701841,000000C4,false,Rx,0,7,42,03,FC,00,00,FF,F1,00,
1708457,000000AA,false,Rx,0,8,60,32,FE,00,00,00,84,00,
1708682,000000A8,false,Rx,0,8,FE,01,21,E0,21,1F,0F,04,
1708919,000000A9,false,Rx,0,8,EA,01,79,DF,1D,C7,E0,21,
1709144,000000BA,false,Rx,0,7,03,FF,0F,00,00,4E,81,00,
1709369,00000497,false,Rx,0,8,29,52,FF,FF,FF,FF,FF,FF,
1711859,000000B6,false,Rx,0,5,FF,00,80,00,C8,00,00,00,
1712084,000000C4,false,Rx,0,7,42,03,FC,00,00,FF,F1,00,
1712309,000000CE,false,Rx,0,8,00,00,00,00,00,00,00,00,
1712534,0000019E,false,Rx,0,8,00,EA,CF,FC,FE,61,00,B7,
1712765,000001A0,false,Rx,0,8,00,80,00,00,80,00,08,AA,
1714517,000002B2,false,Rx,0,8,00,00,00,00,0F,80,00,04,
1714523,000001A6,false,Rx,0,8,00,00,00,00,00,00,70,F1,
1714529,000000C8,false,Rx,0,6,3E,03,2C,00,00,0C,00,00,
1717684,00000332,false,Rx,0,2,61,82,00,00,00,00,00,00,
1717690,00000332,false,Rx,0,2,61,82,00,00,00,00,00,00,
1717922,000001D0,false,Rx,0,8,3C,76,07,C3,00,00,CD,82,
1718147,00000332,false,Rx,0,2,61,82,00,00,00,00,00,00,
1718371,000000AA,false,Rx,0,8,62,34,FE,00,00,00,84,00,
1718596,000000A8,false,Rx,0,8,FF,02,21,E0,21,1F,0F,04,
1718828,000000A9,false,Rx,0,8,EB,02,79,DF,1D,C7,E0,21,
1719059,000000BA,false,Rx,0,7,03,FF,0F,00,00,4F,82,00,
1721922,000000C4,false,Rx,0,7,42,03,FC,00,00,FF,F1,00,
1722147,000001D6,false,Rx,0,2,FF,F3,00,00,00,00,00,00,
1728393,000000AA,false,Rx,0,8,64,36,FE,00,00,00,84,00,
1728619,000000A8,false,Rx,0,8,00,03,21,E0,21,1F,0F,04,
1728859,000000A9,false,Rx,0,8,EC,03,79,DF,1D,C7,E0,21,
1729083,000000BA,false,Rx,0,7,03,FF,0F,00,00,50,83,00,
1731754,000000B6,false,Rx,0,5,00,01,80,00,C8,00,00,00,
1731985,000000C4,false,Rx,0,7,42,03,FC,00,00,FF,F1,00,
1732395,000000CE,false,Rx,0,8,00,00,00,00,00,00,00,00,
1732621,0000019E,false,Rx,0,8,00,EA,CF,FC,FE,61,00,B7,
1732859,000001A0,false,Rx,0,8,00,80,00,00,80,00,18,BA,
1734536,000002B2,false,Rx,0,8,00,00,00,00,0F,80,00,04,
1738462,000000AA,false,Rx,0,8,66,38,FE,00,00,00,84,00,
1738688,000000A8,false,Rx,0,8,02,04,21,E0,21,1F,0F,04,
1738926,000000A9,false,Rx,0,8,ED,04,79,DF,1D,C7,E0,21,
1739151,000000BA,false,Rx,0,7,03,FF,0F,00,00,51,84,00,
1742018,000000C4,false,Rx,0,7,42,03,FC,00,00,FF,F1,00,
1748439,000000AA,false,Rx,0,8,68,3A,FE,00,00,00,84,00,
1748665,000000A8,false,Rx,0,8,03,05,21,E0,21,1F,0F,04,
1748905,000000A9,false,Rx,0,8,EE,05,79,DF,1D,C7,E0,21,
1749130,000000BA,false,Rx,0,7,03,FF,0F,00,00,52,85,00,
1751821,000000B6,false,Rx,0,5,02,02,80,00,C8,00,00,00,
1752053,000000C4,false,Rx,0,7,42,03,FC,00,00,FF,F1,00,
1752277,000000CE,false,Rx,0,8,00,00,00,00,00,00,00,00,
1752501,0000019E,false,Rx,0,8,00,EA,CF,FC,FE,61,00,B7,
1752728,000001A0,false,Rx,0,8,00,80,00,00,80,00,28,CA,
1754828,000002B2,false,Rx,0,8,00,00,00,00,0F,80,00,04,
1758493,000000AA,false,Rx,0,8,6A,3C,FE,00,00,00,84,00,
1758760,000000A8,false,Rx,0,8,04,06,21,E0,21,1F,0F,04,
1758991,000000A9,false,Rx,0,8,EF,06,79,DF,1D,C7,E0,21,
1759215,000000BA,false,Rx,0,7,03,FF,0F,00,00,53,86,00,
1761889,000000C4,false,Rx,0,7,42,03,FC,00,00,FF,F1,00,
1762299,000001D2,false,Rx,0,5,E1,0C,8F,40,F0,00,00,00,
1768527,000000AA,false,Rx,0,8,6C,3E,FE,00,00,00,84,00,
1768759,000000A8,false,Rx,0,8,05,07,21,E0,21,1F,0F,04,
1768991,000000A9,false,Rx,0,8,F0,07,79,DF,1D,C7,E0,21,
1769215,000000BA,false,Rx,0,7,03,FF,0F,00,00,54,87,00,
1771694,000000B6,false,Rx,0,5,03,03,80,00,C8,00,00,00,
1771931,000000C4,false,Rx,0,7,42,03,FC,00,00,FF,F1,00,
1772156,000000CE,false,Rx,0,8,00,00,00,00,00,00,00,00,
1772567,0000019E,false,Rx,0,8,00,EA,CF,FC,FE,61,00,B7,
1772800,000001A0,false,Rx,0,8,00,80,00,00,80,00,38,DA,
1773032,000002B2,false,Rx,0,8,00,00,00,00,0F,80,00,04,
1778428,000000AA,false,Rx,0,8,5E,30,FE,00,00,00,84,00,
1778657,000000A8,false,Rx,0,8,06,08,21,E0,21,1F,0F,04,
1778897,000000A9,false,Rx,0,8,F1,08,79,DF,1D,C7,E0,21,
1779122,000000BA,false,Rx,0,7,03,FF,0F,00,00,55,88,00,
1781793,000000C4,false,Rx,0,7,42,03,FC,00,00,FF,F1,00,
1783933,00000130,false,Rx,0,5,00,0E,D0,0F,54,00,00,00,
1788485,000000AA,false,Rx,0,8,60,32,FE,00,00,00,84,00,
1788720,000000A8,false,Rx,0,8,07,09,21,E0,21,1F,0F,04,
1788952,000000A9,false,Rx,0,8,F2,09,79,DF,1D,C7,E0,21,
1789176,000000BA,false,Rx,0,7,03,FF,0F,00,00,56,89,00,
1791858,000000B6,false,Rx,0,5,04,04,80,00,C8,00,00,00,
1792084,000000C4,false,Rx,0,7,42,03,FC,00,00,FF,F1,00,
1792309,000000CE,false,Rx,0,8,00,00,00,00,00,00,00,00,
1792534,0000019E,false,Rx,0,8,00,EA,CF,FC,FE,61,00,B7,
1792763,000001A0,false,Rx,0,8,00,80,00,00,80,00,48,EA,
1792995,000002B2,false,Rx,0,8,00,00,00,00,0F,80,00,04,
1794885,000004A9,false,Rx,0,8,30,52,FF,FF,FF,FF,FF,FF,
1798414,000000AA,false,Rx,0,8,62,34,FE,00,00,00,84,00,
1798641,000000A8,false,Rx,0,8,08,0A,21,E0,21,1F,0F,04,
1798880,000000A9,false,Rx,0,8,F3,0A,79,DF,1D,C7,E0,21,
1799105,000000BA,false,Rx,0,7,03,FF,0F,00,00,57,8A,00,
1801969,000000C4,false,Rx,0,7,42,03,FC,00,00,FF,F1,00,
1808412,000000AA,false,Rx,0,8,64,36,FE,00,00,00,84,00,
1808637,000000A8,false,Rx,0,8,09,0B,21,E0,21,1F,0F,04,
1808892,000000A9,false,Rx,0,8,F4,0B,79,DF,1D,C7,E0,21,
1809185,000000BA,false,Rx,0,7,03,FF,0F,00,00,58,8B,00,
1811965,000000B6,false,Rx,0,5,05,05,80,00,C8,00,00,00,
1811970,000000C4,false,Rx,0,7,42,03,FC,00,00,FF,F1,00,
1812380,000000CE,false,Rx,0,8,00,00,00,00,00,00,00,00,
1812605,0000019E,false,Rx,0,8,00,EA,CF,FC,FE,61,00,B7,
1812842,000001A0,false,Rx,0,8,00,80,00,00,80,00,58,FA,
1813067,000002B2,false,Rx,0,8,00,00,00,00,0F,80,00,04,
1813292,000001A6,false,Rx,0,8,00,00,00,00,00,00,00,F3,
1817689,00000332,false,Rx,0,2,61,82,00,00,00,00,00,00,
1817696,00000332,false,Rx,0,2,61,82,00,00,00,00,00,00,
1817929,000001D0,false,Rx,0,8,3C,76,07,C3,00,00,CD,82,
1818152,00000332,false,Rx,0,2,61,82,00,00,00,00,00,00,
1818384,000000AA,false,Rx,0,8,66,38,FE,00,00,00,84,00,
1818622,000000A8,false,Rx,0,8,0A,0C,21,E0,21,1F,0F,04,
1818875,000000A9,false,Rx,0,8,F5,0C,79,DF,1D,C7,E0,21,
1819127,000000BA,false,Rx,0,7,03,FF,0F,00,00,59,8C,00,
1822018,000000C4,false,Rx,0,7,42,03,FC,00,00,FF,F1,00,
1822024,000001D6,false,Rx,0,2,FF,F3,00,00,00,00,00,00,
1828452,000000AA,false,Rx,0,8,68,3A,FE,00,00,00,84,00,
1828677,000000A8,false,Rx,0,8,0B,0D,21,E0,21,1F,0F,04,
1828917,000000A9,false,Rx,0,8,F6,0D,79,DF,1D,C7,E0,21,
1829143,000000BA,false,Rx,0,7,03,FF,0F,00,00,5A,8D,00,
1831806,000000B6,false,Rx,0,5,06,06,80,00,C8,00,00,00,
1832038,000000C4,false,Rx,0,7,42,03,FC,00,00,FF,F1,00,
1832262,000000CE,false,Rx,0,8,00,00,00,00,00,00,00,00,
1832488,0000019E,false,Rx,0,8,00,EA,CF,FC,FE,61,00,B7,
1832907,000001A0,false,Rx,0,8,00,80,00,00,80,00,68,0B,
1833132,000002B2,false,Rx,0,8,00,00,00,00,0F,80,00,04,
1838491,000000AA,false,Rx,0,8,6A,3C,FE,00,00,00,84,00,
1838724,000000A8,false,Rx,0,8,0C,0E,21,E0,21,1F,0F,04,
1838956,000000A9,false,Rx,0,8,F7,0E,79,DF,1D,C7,E0,21,
1839181,000000BA,false,Rx,0,7,03,FF,0F,00,00,5B,8E,00,
1842042,000000C4,false,Rx,0,7,42,03,FC,00,00,FF,F1,00,
1848481,000000AA,false,Rx,0,8,5E,30,FE,00,00,00,84,00,
1848716,000000A8,false,Rx,0,8,FD,00,21,E0,21,1F,0F,04,
1848949,000000A9,false,Rx,0,8,E9,00,79,DF,1D,C7,E0,21,
1849173,000000BA,false,Rx,0,7,03,FF,0F,00,00,4D,80,00,
1851855,000000B6,false,Rx,0,5,07,07,80,00,C8,00,00,00,
1852080,000000C4,false,Rx,0,7,42,03,FC,00,00,FF,F1,00,
1852305,000000CE,false,Rx,0,8,00,00,00,00,00,00,00,00,
1852530,0000019E,false,Rx,0,8,00,EA,CF,FC,FE,61,00,B7,
1852765,000001A0,false,Rx,0,8,00,80,00,00,80,00,78,1B,
1852995,000002B2,false,Rx,0,8,00,00,00,00,0F,80,00,04,
1855288,000001FB,false,Rx,0,2,F3,FF,00,00,00,00,00,00,
1858415,000000AA,false,Rx,0,8,60,32,FE,00,00,00,84,00,
1858640,000000A8,false,Rx,0,8,FE,01,21,E0,21,1F,0F,04,
1858881,000000A9,false,Rx,0,8,EA,01,79,DF,1D,C7,E0,21,
1859106,000000BA,false,Rx,0,7,03,FF,0F,00,00,4E,81,00,
1861969,000000C4,false,Rx,0,7,42,03,FC,00,00,FF,F1,00,
1868418,000000AA,false,Rx,0,8,62,34,FE,00,00,00,84,00,
1868644,000000A8,false,Rx,0,8,FF,02,21,E0,21,1F,0F,04,
1868881,000000A9,false,Rx,0,8,EB,02,79,DF,1D,C7,E0,21,
1869106,000000BA,false,Rx,0,7,03,FF,0F,00,00,4F,82,00,
1871776,000000B6,false,Rx,0,5,08,08,80,00,C8,00,00,00,
1872008,000000C4,false,Rx,0,7,42,03,FC,00,00,FF,F1,00,
1872419,000000CE,false,Rx,0,8,00,00,00,00,00,00,00,00,
1872644,0000019E,false,Rx,0,8,00,EA,CF,FC,FE,61,00,B7,
1872881,000001A0,false,Rx,0,8,00,80,00,00,80,00,88,2B,
1873106,000002B2,false,Rx,0,8,00,00,00,00,0F,80,00,04,
1878394,000000AA,false,Rx,0,8,64,36,FE,00,00,00,84,00,
1878635,000000A8,false,Rx,0,8,00,03,21,E0,21,1F,0F,04,
1878872,000000A9,false,Rx,0,8,EC,03,79,DF,1D,C7,E0,21,
1879106,000000BA,false,Rx,0,7,03,FF,0F,00,00,50,83,00,
1882009,000000C4,false,Rx,0,7,42,03,FC,00,00,FF,F1,00,
1883922,00000130,false,Rx,0,5,00,0E,D0,0F,65,00,00,00,
1884518,000004B0,false,Rx,0,8,00,52,FE,01,FF,FF,FF,FF,
1888508,000000AA,false,Rx,0,8,66,38,FE,00,00,00,84,00,
1888740,000000A8,false,Rx,0,8,02,04,21,E0,21,1F,0F,04,
1888972,000000A9,false,Rx,0,8,ED,04,79,DF,1D,C7,E0,21,
1889197,000000BA,false,Rx,0,7,03,FF,0F,00,00,51,84,00,
1891873,000000B6,false,Rx,0,5,09,09,80,00,C8,00,00,00,
1892098,000000C4,false,Rx,0,7,42,03,FC,00,00,FF,F1,00,
1892322,000000CE,false,Rx,0,8,00,00,00,00,00,00,00,00,
1892547,0000019E,false,Rx,0,8,00,EA,DF,FC,FE,61,00,C7,
1892972,000001A0,false,Rx,0,8,00,80,00,00,80,00,98,3B,
1893197,000002B2,false,Rx,0,8,00,00,00,00,0F,80,00,04,
1898509,000000AA,false,Rx,0,8,68,3A,FE,00,00,00,84,00,
1898746,000000A8,false,Rx,0,8,03,05,21,E0,21,1F,0F,04,
1898977,000000A9,false,Rx,0,8,EE,05,79,DF,1D,C7,E0,21,
1899203,000000BA,false,Rx,0,7,03,FF,0F,00,00,52,85,00,
1901867,000000C4,false,Rx,0,7,42,03,FC,00,00,FF,F1,00,
1908490,000000AA,false,Rx,0,8,6A,3C,FE,00,00,00,84,00,
1908720,000000A8,false,Rx,0,8,04,06,21,E0,21,1F,0F,04,
1908950,000000A9,false,Rx,0,8,EF,06,79,DF,1D,C7,E0,21,
1909175,000000BA,false,Rx,0,7,03,FF,0F,00,00,53,86,00,
1911858,000000B6,false,Rx,0,5,0A,0A,80,00,C8,00,00,00,
1912083,000000C4,false,Rx,0,7,42,03,FC,00,00,FF,F1,00,
1912308,000000CE,false,Rx,0,8,00,00,00,00,00,00,00,00,
1912533,0000019E,false,Rx,0,8,00,EA,DF,FC,FE,61,00,C7,
1912761,000001A0,false,Rx,0,8,00,80,00,00,80,00,A8,4B,
1912993,000002B2,false,Rx,0,8,00,00,00,00,0F,80,00,04,
1913438,000001A6,false,Rx,0,8,00,00,00,00,00,00,90,F4,
1913443,000000C8,false,Rx,0,6,3E,03,7C,00,00,1C,00,00,
1917637,00000332,false,Rx,0,2,61,82,00,00,00,00,00,00,
1917644,00000332,false,Rx,0,2,61,82,00,00,00,00,00,00,
1917877,000001D0,false,Rx,0,8,3C,76,08,C3,00,00,CD,82,
1918101,00000332,false,Rx,0,2,61,82,00,00,00,00,00,00,
1918511,000000AA,false,Rx,0,8,6C,3E,FE,00,00,00,84,00,
1918743,000000A8,false,Rx,0,8,05,07,21,E0,21,1F,0F,04,
1918974,000000A9,false,Rx,0,8,F0,07,79,DF,1D,C7,E0,21,
1919198,000000BA,false,Rx,0,7,03,FF,0F,00,00,54,87,00,
1922092,000000C4,false,Rx,0,7,42,03,FC,00,00,FF,F1,00,
1922097,000001D6,false,Rx,0,2,FF,F3,00,00,00,00,00,00,
1928426,000000AA,false,Rx,0,8,5E,30,FE,00,00,00,84,00,
1928651,000000A8,false,Rx,0,8,06,08,21,E0,21,1F,0F,04,
1928893,000000A9,false,Rx,0,8,F1,08,79,DF,1D,C7,E0,21,
1929118,000000BA,false,Rx,0,7,03,FF,0F,00,00,55,88,00,
1931793,000000B6,false,Rx,0,5,0B,0B,80,00,C8,00,00,00,
1932025,000000C4,false,Rx,0,7,42,03,FC,00,00,FF,F1,00,
1932248,000000CE,false,Rx,0,8,00,00,00,00,00,00,00,00,
1932473,0000019E,false,Rx,0,8,00,EA,DF,FC,FE,61,00,C7,
1932899,000001A0,false,Rx,0,8,00,80,00,00,80,00,B8,5B,
1933124,000002B2,false,Rx,0,8,00,00,00,00,0F,80,00,04,
1938377,000000AA,false,Rx,0,8,60,32,FE,00,00,00,84,00,
1938631,000000A8,false,Rx,0,8,07,09,21,E0,21,1F,0F,04,
1938867,000000A9,false,Rx,0,8,F2,09,79,DF,1D,C7,E0,21,
1939093,000000BA,false,Rx,0,7,03,FF,0F,00,00,56,89,00,
1941955,000000C4,false,Rx,0,7,42,03,FC,00,00,FF,F1,00,
1948380,000000AA,false,Rx,0,8,62,34,FE,00,00,00,84,00,
1948605,000000A8,false,Rx,0,8,08,0A,21,E0,21,1F,0F,04,
1948844,000000A9,false,Rx,0,8,F3,0A,79,DF,1D,C7,E0,21,
1949069,000000BA,false,Rx,0,7,03,FF,0F,00,00,57,8A,00,
1949480,00000310,false,Rx,0,7,75,2D,BC,2C,01,3F,23,00,
1951972,000000B6,false,Rx,0,5,0C,0C,80,00,C8,00,00,00,
1952196,000000C4,false,Rx,0,7,42,03,FC,00,00,FF,F1,00,
1952422,000000CE,false,Rx,0,8,00,00,00,00,00,00,00,00,
1952647,0000019E,false,Rx,0,8,00,EA,DF,FC,FE,61,00,C7,
1952881,000001A0,false,Rx,0,8,00,80,00,00,80,00,C8,6B,
1953106,000002B2,false,Rx,0,8,00,00,00,00,0F,80,00,04,
1958410,000000AA,false,Rx,0,8,64,36,FE,00,00,00,84,00,
1958649,000000A8,false,Rx,0,8,09,0B,21,E0,21,1F,0F,04,
1958897,000000A9,false,Rx,0,8,F4,0B,79,DF,1D,C7,E0,21,
1959123,000000BA,false,Rx,0,7,03,FF,0F,00,00,58,8B,00,
1961984,000000C4,false,Rx,0,7,42,03,FC,00,00,FF,F1,00,
1962208,000001D2,false,Rx,0,5,E1,0C,8F,50,F0,00,00,00,
1967516,00000480,false,Rx,0,8,17,42,FD,FF,FF,FF,FF,FF,
1968381,000000AA,false,Rx,0,8,66,38,FE,00,00,00,84,00,
1968632,000000A8,false,Rx,0,8,0A,0C,21,E0,21,1F,0F,04,
1968896,000000A9,false,Rx,0,8,F5,0C,79,DF,1D,C7,E0,21,
1969129,000000BA,false,Rx,0,7,03,FF,0F,00,00,59,8C,00,
1971841,000000B6,false,Rx,0,5,0D,0D,80,00,C8,00,00,00,
1972066,000000C4,false,Rx,0,7,42,03,FC,00,00,FF,F1,00,
1972291,000000CE,false,Rx,0,8,00,00,00,00,00,00,00,00,
1972516,0000019E,false,Rx,0,8,00,EA,DF,FC,FE,61,00,C7,
1972743,000001A0,false,Rx,0,8,00,80,00,00,80,00,D8,7B,
1972975,000002B2,false,Rx,0,8,00,00,00,00,0F,80,00,04,
1978433,000000AA,false,Rx,0,8,68,3A,FE,00,00,00,84,00,
1978675,000000A8,false,Rx,0,8,0B,0D,21,E0,21,1F,0F,04,
1978953,000000A9,false,Rx,0,8,F6,0D,79,DF,1D,C7,E0,21,
1979187,000000BA,false,Rx,0,7,03,FF,0F,00,00,5A,8D,00,
1981847,000000C4,false,Rx,0,7,42,03,FC,00,00,FF,F1,00,
1983983,00000130,false,Rx,0,5,00,0E,D0,0F,76,00,00,00,
1988356,000000AA,false,Rx,0,8,6A,3C,FE,00,00,00,84,00,
1988769,000000A8,false,Rx,0,8,0C,0E,21,E0,21,1F,0F,04,
1989034,000000A9,false,Rx,0,8,F7,0E,79,DF,1D,C7,E0,21,
1989040,000000BA,false,Rx,0,7,03,FF,0F,00,00,5B,8E,00,
1991911,000000B6,false,Rx,0,5,0E,0E,80,00,C8,00,00,00,
1992136,000000C4,false,Rx,0,7,42,03,FC,00,00,FF,F1,00,
1992360,000000CE,false,Rx,0,8,00,00,00,00,00,00,00,00,
1992586,0000019E,false,Rx,0,8,00,EA,DF,FC,FE,61,00,C7,
1992816,000001A0,false,Rx,0,8,00,80,00,00,80,00,E8,8B,
1993048,000002B2,false,Rx,0,8,00,00,00,00,0F,80,00,04,
1998520,000000AA,false,Rx,0,8,5E,30,FE,00,00,00,84,00,
1998756,000000A8,false,Rx,0,8,FD,00,21,E0,21,1F,0F,04,
1998987,000000A9,false,Rx,0,8,E9,00,79,DF,1D,C7,E0,21,
1999212,000000BA,false,Rx,0,7,03,FF,0F,00,00,4D,80,00,
2001890,000000C4,false,Rx,0,7,42,03,FC,00,00,FF,F1,00,
2008501,000000AA,false,Rx,0,8,60,32,FE,00,00,00,84,00,
2008729,000000A8,false,Rx,0,8,FE,01,21,E0,21,1F,0F,04,
2008962,000000A9,false,Rx,0,8,EA,01,79,DF,1D,C7,E0,21,
2009186,000000BA,false,Rx,0,7,03,FF,0F,00,00,4E,81,00,
2011867,000000B6,false,Rx,0,5,FF,00,80,00,C8,00,00,00,
2012092,000000C4,false,Rx,0,7,42,03,FC,00,00,FF,F1,00,
2012317,000000CE,false,Rx,0,8,00,00,00,00,00,00,00,00,
2012544,0000019E,false,Rx,0,8,00,EA,DF,FC,FE,61,00,C7,
2012788,000001A0,false,Rx,0,8,00,80,00,00,80,00,08,AA,
2013050,000002B2,false,Rx,0,8,00,00,00,00,0F,80,00,04,
2013312,000001A6,false,Rx,0,8,00,00,00,00,00,00,20,F6,
2017516,00000332,false,Rx,0,2,61,82,00,00,00,00,00,00,
2017753,00000332,false,Rx,0,2,61,82,00,00,00,00,00,00,
2018012,000001D0,false,Rx,0,8,3C,76,08,C3,00,00,CD,82,
2018018,00000332,false,Rx,0,2,61,82,00,00,00,00,00,00,
2018428,000000AA,false,Rx,0,8,62,34,FE,00,00,00,84,00,
2018653,000000A8,false,Rx,0,8,FF,02,21,E0,21,1F,0F,04,
2018893,000000A9,false,Rx,0,8,EB,02,79,DF,1D,C7,E0,21,
2019119,000000BA,false,Rx,0,7,03,FF,0F,00,00,4F,82,00,
2022018,000000C4,false,Rx,0,7,42,03,FC,00,00,FF,F1,00,
2022024,000001D6,false,Rx,0,2,FF,F3,00,00,00,00,00,00,
2028447,000000AA,false,Rx,0,8,64,36,FE,00,00,00,84,00,
2028672,000000A8,false,Rx,0,8,00,03,21,E0,21,1F,0F,04,
2028911,000000A9,false,Rx,0,8,EC,03,79,DF,1D,C7,E0,21,
2029135,000000BA,false,Rx,0,7,03,FF,0F,00,00,50,83,00,
2031811,000000B6,false,Rx,0,5,00,01,80,00,C8,00,00,00,
2032043,000000C4,false,Rx,0,7,42,03,FC,00,00,FF,F1,00,
2032267,000000CE,false,Rx,0,8,00,00,00,00,00,00,00,00,
2032678,0000019E,false,Rx,0,8,00,EA,DF,FC,FE,61,00,C7,
2032919,000001A0,false,Rx,0,8,00,80,00,00,80,00,18,BA,
2033144,000002B2,false,Rx,0,8,00,00,00,00,0F,80,00,04,
2038459,000000AA,false,Rx,0,8,66,38,FE,00,00,00,84,00,
2038688,000000A8,false,Rx,0,8,02,04,21,E0,21,1F,0F,04,
2038925,000000A9,false,Rx,0,8,ED,04,79,DF,1D,C7,E0,21,
2039150,000000BA,false,Rx,0,7,03,FF,0F,00,00,51,84,00,
2042013,000000C4,false,Rx,0,7,42,03,FC,00,00,FF,F1,00,
2045256,000001FB,false,Rx,0,2,F4,FF,00,00,00,00,00,00,
2048488,000000AA,false,Rx,0,8,68,3A,FE,00,00,00,84,00,
2048720,000000A8,false,Rx,0,8,03,05,21,E0,21,1F,0F,04,
2048952,000000A9,false,Rx,0,8,EE,05,79,DF,1D,C7,E0,21,
2049177,000000BA,false,Rx,0,7,03,FF,0F,00,00,52,85,00,
2049400,00000497,false,Rx,0,8,29,52,FF,FF,FF,FF,FF,FF,
2051903,000000B6,false,Rx,0,5,02,02,80,00,C8,00,00,00,
2052127,000000C4,false,Rx,0,7,42,03,FC,00,00,FF,F1,00,
2052352,000000CE,false,Rx,0,8,00,00,00,00,00,00,00,00,
2052578,0000019E,false,Rx,0,8,00,EA,DF,FC,FE,61,00,C7,
2052804,000001A0,false,Rx,0,8,00,80,00,00,80,00,28,CA,
2053037,000002B2,false,Rx,0,8,00,00,00,00,0F,80,00,04,
2058510,000000AA,false,Rx,0,8,6A,3C,FE,00,00,00,84,00,
2058746,000000A8,false,Rx,0,8,04,06,21,E0,21,1F,0F,04,
2058978,000000A9,false,Rx,0,8,EF,06,79,DF,1D,C7,E0,21,
2059204,000000BA,false,Rx,0,7,03,FF,0F,00,00,53,86,00,
2061988,000000C4,false,Rx,0,7,42,03,FC,00,00,FF,F1,00,
2061994,000002A6,false,Rx,0,2,00,FC,00,00,00,00,00,00,
2068492,000000AA,false,Rx,0,8,6C,3E,FE,00,00,00,84,00,
2068720,000000A8,false,Rx,0,8,05,07,21,E0,21,1F,0F,04,
2068951,000000A9,false,Rx,0,8,F0,07,79,DF,1D,C7,E0,21,
2069177,000000BA,false,Rx,0,7,03,FF,0F,00,00,54,87,00,
2071858,000000B6,false,Rx,0,5,03,03,80,00,C8,00,00,00,
2072083,000000C4,false,Rx,0,7,42,03,FC,00,00,FF,F1,00,
2072307,000000CE,false,Rx,0,8,00,00,00,00,00,00,00,00,
2072533,0000019E,false,Rx,0,8,00,EA,DF,FC,FE,61,00,C7,
2072765,000001A0,false,Rx,0,8,00,80,00,00,80,00,38,DA,
2072996,000002B2,false,Rx,0,8,00,00,00,00,0F,80,00,04,
2078517,000000AA,false,Rx,0,8,5E,30,FE,00,00,00,84,00,
2078765,000000A8,false,Rx,0,8,06,08,21,E0,21,1F,0F,04,
2078997,000000A9,false,Rx,0,8,F1,08,79,DF,1D,C7,E0,21,
2079222,000000BA,false,Rx,0,7,03,FF,0F,00,00,55,88,00,
2081900,000000C4,false,Rx,0,7,42,03,FC,00,00,FF,F1,00,
2084008,00000130,false,Rx,0,5,00,0E,D0,0F,87,00,00,00,
2088360,000000AA,false,Rx,0,8,60,32,FE,00,00,00,84,00,
2088585,000000A8,false,Rx,0,8,07,09,21,E0,21,1F,0F,04,
2089040,000000A9,false,Rx,0,8,F2,09,79,DF,1D,C7,E0,21,
2089045,000000BA,false,Rx,0,7,03,FF,0F,00,00,56,89,00,
2091911,000000B6,false,Rx,0,5,04,04,80,00,C8,00,00,00,
2092136,000000C4,false,Rx,0,7,42,03,FC,00,00,FF,F1,00,
2092361,000000CE,false,Rx,0,8,00,00,00,00,00,00,00,00,
2092586,0000019E,false,Rx,0,8,00,EA,EF,FC,FE,61,00,D7,
2092816,000001A0,false,Rx,0,8,00,80,00,00,80,00,48,EA,
2093049,000002B2,false,Rx,0,8,00,00,00,00,0F,80,00,04,
2098535,000000AA,false,Rx,0,8,62,34,FE,00,00,00,84,00,
2098852,000000A8,false,Rx,0,8,08,0A,21,E0,21,1F,0F,04,
2098857,000000A9,false,Rx,0,8,F3,0A,79,DF,1D,C7,E0,21,
2099126,000000BA,false,Rx,0,7,03,FF,0F,00,00,57,8A,00,
2101985,000000C4,false,Rx,0,7,42,03,FC,00,00,FF,F1,00,
2108422,000000AA,false,Rx,0,8,64,36,FE,00,00,00,84,00,
2108647,000000A8,false,Rx,0,8,09,0B,21,E0,21,1F,0F,04,
2108883,000000A9,false,Rx,0,8,F4,0B,79,DF,1D,C7,E0,21,
2109108,000000BA,false,Rx,0,7,03,FF,0F,00,00,58,8B,00,
2111779,000000B6,false,Rx,0,5,05,05,80,00,C8,00,00,00,
2112010,000000C4,false,Rx,0,7,42,03,FC,00,00,FF,F1,00,
2112234,000000CE,false,Rx,0,8,00,00,00,00,00,00,00,00,
2112644,0000019E,false,Rx,0,8,00,EA,EF,FC,FE,61,00,D7,
2112880,000001A0,false,Rx,0,8,00,80,00,00,80,00,58,FA,
2113105,000002B2,false,Rx,0,8,00,00,00,00,0F,80,00,04,
2113330,000001A6,false,Rx,0,8,00,00,00,00,00,00,B0,F7,
2113555,000000C8,false,Rx,0,6,3E,03,CC,00,00,2C,00,00,
2117548,00000332,false,Rx,0,2,61,82,00,00,00,00,00,00,
2117802,00000332,false,Rx,0,2,61,82,00,00,00,00,00,00,
2118061,000001D0,false,Rx,0,8,3C,76,09,C3,00,00,CD,82,
2118067,00000332,false,Rx,0,2,61,82,00,00,00,00,00,00,
2118476,000000AA,false,Rx,0,8,66,38,FE,00,00,00,84,00,
2118702,000000A8,false,Rx,0,8,0A,0C,21,E0,21,1F,0F,04,
2118935,000000A9,false,Rx,0,8,F5,0C,79,DF,1D,C7,E0,21,
2119159,000000BA,false,Rx,0,7,03,FF,0F,00,00,59,8C,00,
2122060,000000C4,false,Rx,0,7,42,03,FC,00,00,FF,F1,00,
2122065,000001D6,false,Rx,0,2,FF,F3,00,00,00,00,00,00,
2128487,000000AA,false,Rx,0,8,68,3A,FE,00,00,00,84,00,
2128720,000000A8,false,Rx,0,8,0B,0D,21,E0,21,1F,0F,04,
2128952,000000A9,false,Rx,0,8,F6,0D,79,DF,1D,C7,E0,21,
2129177,000000BA,false,Rx,0,7,03,FF,0F,00,00,5A,8D,00,
2131858,000000B6,false,Rx,0,5,06,06,80,00,C8,00,00,00,
2132083,000000C4,false,Rx,0,7,42,03,FC,00,00,FF,F1,00,
2132308,000000CE,false,Rx,0,8,00,00,00,00,00,00,00,00,
2132532,0000019E,false,Rx,0,8,00,EA,EF,FC,FE,61,00,D7,
2132955,000001A0,false,Rx,0,8,00,80,00,00,80,00,68,0B,
2133180,000002B2,false,Rx,0,8,00,00,00,00,0F,80,00,04,
2133405,000004A9,false,Rx,0,8,30,52,FF,FF,FF,FF,FF,FF,
2138500,000000AA,false,Rx,0,8,6A,3C,FE,00,00,00,84,00,
2138732,000000A8,false,Rx,0,8,0C,0E,21,E0,21,1F,0F,04,
2138964,000000A9,false,Rx,0,8,F7,0E,79,DF,1D,C7,E0,21,
2139189,000000BA,false,Rx,0,7,03,FF,0F,00,00,5B,8E,00,
2141924,000000C4,false,Rx,0,7,42,03,FC,00,00,FF,F1,00,
2148356,000000AA,false,Rx,0,8,5E,30,FE,00,00,00,84,00,
2148769,000000A8,false,Rx,0,8,FD,00,21,E0,21,1F,0F,04,
2149002,000000A9,false,Rx,0,8,E9,00,79,DF,1D,C7,E0,21,
2149227,000000BA,false,Rx,0,7,03,FF,0F,00,00,4D,80,00,
2151911,000000B6,false,Rx,0,5,07,07,80,00,C8,00,00,00,
2152136,000000C4,false,Rx,0,7,42,03,FC,00,00,FF,F1,00,
2152361,000000CE,false,Rx,0,8,00,00,00,00,00,00,00,00,
2152586,0000019E,false,Rx,0,8,00,EA,EF,FC,FE,61,00,D7,
2152816,000001A0,false,Rx,0,8,00,80,00,00,80,00,78,1B,
2153049,000002B2,false,Rx,0,8,00,00,00,00,0F,80,00,04,
2158409,000000AA,false,Rx,0,8,60,32,FE,00,00,00,84,00,
2158638,000000A8,false,Rx,0,8,FE,01,21,E0,21,1F,0F,04,
2158877,000000A9,false,Rx,0,8,EA,01,79,DF,1D,C7,E0,21,
2159101,000000BA,false,Rx,0,7,03,FF,0F,00,00,4E,81,00,
2161977,000000C4,false,Rx,0,7,42,03,FC,00,00,FF,F1,00,
2162210,000001D2,false,Rx,0,5,E1,0C,8F,60,F0,00,00,00,
2168476,000000AA,false,Rx,0,8,62,34,FE,00,00,00,84,00,
2168703,000000A8,false,Rx,0,8,FF,02,21,E0,21,1F,0F,04,
2168935,000000A9,false,Rx,0,8,EB,02,79,DF,1D,C7,E0,21,
2169160,000000BA,false,Rx,0,7,03,FF,0F,00,00,4F,82,00,
2171840,000000B6,false,Rx,0,5,08,08,80,00,C8,00,00,00,
2172065,000000C4,false,Rx,0,7,42,03,FC,00,00,FF,F1,00,
2172290,000000CE,false,Rx,0,8,00,00,00,00,00,00,00,00,
2172514,0000019E,false,Rx,0,8,00,EA,EF,FC,FE,61,00,D7,
2172934,000001A0,false,Rx,0,8,00,80,00,00,80,00,88,2B,
2173159,000002B2,false,Rx,0,8,00,00,00,00,0F,80,00,04,
2178500,000000AA,false,Rx,0,8,64,36,FE,00,00,00,84,00,
2178733,000000A8,false,Rx,0,8,00,03,21,E0,21,1F,0F,04,
2178965,000000A9,false,Rx,0,8,EC,03,79,DF,1D,C7,E0,21,
2179189,000000BA,false,Rx,0,7,03,FF,0F,00,00,50,83,00,
2181862,000000C4,false,Rx,0,7,42,03,FC,00,00,FF,F1,00,
2183973,00000130,false,Rx,0,5,00,0E,D0,0F,98,00,00,00,
2188523,000000AA,false,Rx,0,8,66,38,FE,00,00,00,84,00,
2188755,000000A8,false,Rx,0,8,02,04,21,E0,21,1F,0F,04,
2188988,000000A9,false,Rx,0,8,ED,04,79,DF,1D,C7,E0,21,
2189213,000000BA,false,Rx,0,7,03,FF,0F,00,00,51,84,00,
2191889,000000B6,false,Rx,0,5,09,09,80,00,C8,00,00,00,
2192114,000000C4,false,Rx,0,7,42,03,FC,00,00,FF,F1,00,
2192339,000000CE,false,Rx,0,8,00,00,00,00,00,00,00,00,
2192564,0000019E,false,Rx,0,8,00,EA,EF,FC,FE,61,00,D7,
2192792,000001A0,false,Rx,0,8,00,80,00,00,80,00,98,3B,
2193209,000002B2,false,Rx,0,8,00,00,00,00,0F,80,00,04,
2198498,000000AA,false,Rx,0,8,68,3A,FE,00,00,00,84,00,
2198740,000000A8,false,Rx,0,8,03,05,21,E0,21,1F,0F,04,
2199039,000000A9,false,Rx,0,8,EE,05,79,DF,1D,C7,E0,21,
2199044,000000BA,false,Rx,0,7,03,FF,0F,00,00,52,85,00,
2201946,000000C4,false,Rx,0,7,42,03,FC,00,00,FF,F1,00,
2208367,000000AA,false,Rx,0,8,6A,3C,FE,00,00,00,84,00,
2208592,000000A8,false,Rx,0,8,04,06,21,E0,21,1F,0F,04,
2208825,000000A9,false,Rx,0,8,EF,06,79,DF,1D,C7,E0,21,
2209056,000000BA,false,Rx,0,7,03,FF,0F,00,00,53,86,00,
2211952,000000B6,false,Rx,0,5,0A,0A,80,00,C8,00,00,00,
2211957,000000C4,false,Rx,0,7,42,03,FC,00,00,FF,F1,00,
2212368,000000CE,false,Rx,0,8,00,00,00,00,00,00,00,00,
2212592,0000019E,false,Rx,0,8,00,EA,EF,FC,FE,61,00,D7,
2212826,000001A0,false,Rx,0,8,00,80,00,00,80,00,A8,4B,
2213058,000002B2,false,Rx,0,8,00,00,00,00,0F,80,00,04,
2213282,000001A6,false,Rx,0,8,00,00,00,00,00,00,40,F9,
2217646,00000332,false,Rx,0,2,61,82,00,00,00,00,00,00,
2217653,00000332,false,Rx,0,2,61,82,00,00,00,00,00,00,
2217900,000001D0,false,Rx,0,8,3C,76,09,C3,00,00,CD,82,
2218165,00000332,false,Rx,0,2,61,82,00,00,00,00,00,00,
2218400,000000AA,false,Rx,0,8,6C,3E,FE,00,00,00,84,00,
2218630,000000A8,false,Rx,0,8,05,07,21,E0,21,1F,0F,04,
2218870,000000A9,false,Rx,0,8,F0,07,79,DF,1D,C7,E0,21,
2219095,000000BA,false,Rx,0,7,03,FF,0F,00,00,54,87,00,
2221959,000000C4,false,Rx,0,7,42,03,FC,00,00,FF,F1,00,
2222183,000001D6,false,Rx,0,2,FF,F3,00,00,00,00,00,00,
2224292,000004B0,false,Rx,0,8,00,52,FE,01,FF,FF,FF,FF,
2228468,000000AA,false,Rx,0,8,5E,30,FE,00,00,00,84,00,
2228694,000000A8,false,Rx,0,8,06,08,21,E0,21,1F,0F,04,
2228930,000000A9,false,Rx,0,8,F1,08,79,DF,1D,C7,E0,21,
2229156,000000BA,false,Rx,0,7,03,FF,0F,00,00,55,88,00,
2231839,000000B6,false,Rx,0,5,0B,0B,80,00,C8,00,00,00,
2232064,000000C4,false,Rx,0,7,42,03,FC,00,00,FF,F1,00,
2232287,000000CE,false,Rx,0,8,00,00,00,00,00,00,00,00,
2232512,0000019E,false,Rx,0,8,00,EA,EF,FC,FE,61,00,D7,
2232934,000001A0,false,Rx,0,8,00,80,00,00,80,00,B8,5B,
2233158,000002B2,false,Rx,0,8,00,00,00,00,0F,80,00,04,
2236517,000001FB,false,Rx,0,2,F5,FF,00,00,00,00,00,00,
2238451,000000AA,false,Rx,0,8,60,32,FE,00,00,00,84,00,
2238677,000000A8,false,Rx,0,8,07,09,21,E0,21,1F,0F,04,
2238918,000000A9,false,Rx,0,8,F2,09,79,DF,1D,C7,E0,21,
2239143,000000BA,false,Rx,0,7,03,FF,0F,00,00,56,89,00,
2241999,000000C4,false,Rx,0,7,42,03,FC,00,00,FF,F1,00,
2248430,000000AA,false,Rx,0,8,62,34,FE,00,00,00,84,00,
2248655,000000A8,false,Rx,0,8,08,0A,21,E0,21,1F,0F,04,
2248896,000000A9,false,Rx,0,8,F3,0A,79,DF,1D,C7,E0,21,
2249121,000000BA,false,Rx,0,7,03,FF,0F,00,00,57,8A,00,
2251792,000000B6,false,Rx,0,5,0C,0C,80,00,C8,00,00,00,
2252024,000000C4,false,Rx,0,7,42,03,FC,00,00,FF,F1,00,
2252450,000000CE,false,Rx,0,8,00,00,00,00,00,00,00,00,
2252676,0000019E,false,Rx,0,8,00,EA,EF,FC,FE,61,00,D7,
2252913,000001A0,false,Rx,0,8,00,80,00,00,80,00,C8,6B,
2253139,000002B2,false,Rx,0,8,00,00,00,00,0F,80,00,04,
2258516,000000AA,false,Rx,0,8,64,36,FE,00,00,00,84,00,
2258763,000000A8,false,Rx,0,8,09,0B,21,E0,21,1F,0F,04,
2258996,000000A9,false,Rx,0,8,F4,0B,79,DF,1D,C7,E0,21,
2259221,000000BA,false,Rx,0,7,03,FF,0F,00,00,58,8B,00,
2261900,000000C4,false,Rx,0,7,42,03,FC,00,00,FF,F1,00,
2268493,000000AA,false,Rx,0,8,66,38,FE,00,00,00,84,00,
2268725,000000A8,false,Rx,0,8,0A,0C,21,E0,21,1F,0F,04,
2268958,000000A9,false,Rx,0,8,F5,0C,79,DF,1D,C7,E0,21,
2269183,000000BA,false,Rx,0,7,03,FF,0F,00,00,59,8C,00,
2271858,000000B6,false,Rx,0,5,0D,0D,80,00,C8,00,00,00,
2272083,000000C4,false,Rx,0,7,42,03,FC,00,00,FF,F1,00,
2272308,000000CE,false,Rx,0,8,00,00,00,00,00,00,00,00,
2272534,0000019E,false,Rx,0,8,00,EA,EF,FC,FE,61,00,D7,
2272760,000001A0,false,Rx,0,8,00,80,00,00,80,00,D8,7B,
2272992,000002B2,false,Rx,0,8,00,00,00,00,0F,80,00,04,
2278376,000000AA,false,Rx,0,8,68,3A,FE,00,00,00,84,00,
2278605,000000A8,false,Rx,0,8,0B,0D,21,E0,21,1F,0F,04,
2278844,000000A9,false,Rx,0,8,F6,0D,79,DF,1D,C7,E0,21,
2279069,000000BA,false,Rx,0,7,03,FF,0F,00,00,5A,8D,00,
2281940,000000C4,false,Rx,0,7,42,03,FC,00,00,FF,F1,00,
2284046,00000130,false,Rx,0,5,00,0E,D0,0F,A9,00,00,00,
2288412,000000AA,false,Rx,0,8,6A,3C,FE,00,00,00,84,00,
2288637,000000A8,false,Rx,0,8,0C,0E,21,E0,21,1F,0F,04,
2288876,000000A9,false,Rx,0,8,F7,0E,79,DF,1D,C7,E0,21,
2289102,000000BA,false,Rx,0,7,03,FF,0F,00,00,5B,8E,00,
2291969,000000B6,false,Rx,0,5,0E,0E,80,00,C8,00,00,00,
2292194,000000C4,false,Rx,0,7,42,03,FC,00,00,FF,F1,00,
2292419,000000CE,false,Rx,0,8,00,00,00,00,00,00,00,00,
2292644,0000019E,false,Rx,0,8,00,EA,EF,FC,FE,61,00,D7,
2292882,000001A0,false,Rx,0,8,00,80,00,00,80,00,E8,8B,
2293107,000002B2,false,Rx,0,8,00,00,00,00,0F,80,00,04,
2298445,000000AA,false,Rx,0,8,5E,30,FE,00,00,00,84,00,
2298681,000000A8,false,Rx,0,8,FD,00,21,E0,21,1F,0F,04,
2298924,000000A9,false,Rx,0,8,E9,00,79,DF,1D,C7,E0,21,
2299149,000000BA,false,Rx,0,7,03,FF,0F,00,00,4D,80,00,
2301873,000000C4,false,Rx,0,7,42,03,FC,00,00,FF,F1,00,
2307546,00000480,false,Rx,0,8,17,42,FD,FF,FF,FF,FF,FF,
2308527,000000AA,false,Rx,0,8,60,32,FE,00,00,00,84,00,
2308758,000000A8,false,Rx,0,8,FE,01,21,E0,21,1F,0F,04,
2308991,000000A9,false,Rx,0,8,EA,01,79,DF,1D,C7,E0,21,
2309216,000000BA,false,Rx,0,7,03,FF,0F,00,00,4E,81,00,
2311893,000000B6,false,Rx,0,5,FF,00,80,00,C8,00,00,00,
2312118,000000C4,false,Rx,0,7,42,03,FC,00,00,FF,F1,00,
2312343,000000CE,false,Rx,0,8,00,00,00,00,00,00,00,00,
2312569,0000019E,false,Rx,0,8,00,EA,0F,FC,FE,61,00,F6,
2312796,000001A0,false,Rx,0,8,00,80,00,00,80,00,08,AA,
2313027,000002B2,false,Rx,0,8,00,00,00,00,0F,80,00,04,
2313251,000001A6,false,Rx,0,8,00,00,00,00,00,00,D0,FA,
2313476,000000C8,false,Rx,0,6,3E,03,2C,00,00,6C,00,00,
2317499,00000332,false,Rx,0,2,61,82,00,00,00,00,00,00,
2317732,00000332,false,Rx,0,2,61,82,00,00,00,00,00,00,
2318001,000001D0,false,Rx,0,8,3C,76,0A,C3,00,00,CD,82,
2318006,00000332,false,Rx,0,2,61,82,00,00,00,00,00,00,
2318435,000000AA,false,Rx,0,8,62,34,FE,00,00,00,84,00,
2318691,000000A8,false,Rx,0,8,FF,02,21,E0,21,1F,0F,04,
2318926,000000A9,false,Rx,0,8,EB,02,79,DF,1D,C7,E0,21,
2319151,000000BA,false,Rx,0,7,03,FF,0F,00,00,4F,82,00,
2322052,000000C4,false,Rx,0,7,42,03,FC,00,00,FF,F1,00,
2322057,000001D6,false,Rx,0,2,FF,F3,00,00,00,00,00,00,
2328491,000000AA,false,Rx,0,8,64,36,FE,00,00,00,84,00,
2328720,000000A8,false,Rx,0,8,00,03,21,E0,21,1F,0F,04,
2328952,000000A9,false,Rx,0,8,EC,03,79,DF,1D,C7,E0,21,
2329177,000000BA,false,Rx,0,7,03,FF,0F,00,00,50,83,00,
2331858,000000B6,false,Rx,0,5,00,01,80,00,C8,00,00,00,
2332084,000000C4,false,Rx,0,7,42,03,FC,00,00,FF,F1,00,
2332307,000000CE,false,Rx,0,8,00,00,00,00,00,00,00,00,
2332532,0000019E,false,Rx,0,8,00,EA,0F,FC,FE,61,00,F6,
2332762,000001A0,false,Rx,0,8,00,80,00,00,80,00,18,BA,
2332992,000002B2,false,Rx,0,8,00,00,00,00,0F,80,00,04,
2338447,000000AA,false,Rx,0,8,66,38,FE,00,00,00,84,00,
2338675,000000A8,false,Rx,0,8,02,04,21,E0,21,1F,0F,04,
2338917,000000A9,false,Rx,0,8,ED,04,79,DF,1D,C7,E0,21,
2339142,000000BA,false,Rx,0,7,03,FF,0F,00,00,51,84,00,
2342075,000000C4,false,Rx,0,7,42,03,FC,00,00,FF,F1,00,
2348490,000000AA,false,Rx,0,8,68,3A,FE,00,00,00,84,00,
2348721,000000A8,false,Rx,0,8,03,05,21,E0,21,1F,0F,04,
2348952,000000A9,false,Rx,0,8,EE,05,79,DF,1D,C7,E0,21,
2349176,000000BA,false,Rx,0,7,03,FF,0F,00,00,52,85,00,
2351856,000000B6,false,Rx,0,5,02,02,80,00,C8,00,00,00,
2352082,000000C4,false,Rx,0,7,42,03,FC,00,00,FF,F1,00,
2352307,000000CE,false,Rx,0,8,00,00,00,00,00,00,00,00,
2352532,0000019E,false,Rx,0,8,00,EA,0F,FC,FE,61,00,F6,
2352954,000001A0,false,Rx,0,8,00,80,00,00,80,00,28,CA,
2353179,000002B2,false,Rx,0,8,00,00,00,00,0F,80,00,04,
2358481,000000AA,false,Rx,0,8,6A,3C,FE,00,00,00,84,00,
2358715,000000A8,false,Rx,0,8,04,06,21,E0,21,1F,0F,04,
2358972,000000A9,false,Rx,0,8,EF,06,79,DF,1D,C7,E0,21,
2359198,000000BA,false,Rx,0,7,03,FF,0F,00,00,53,86,00,
2361934,000000C4,false,Rx,0,7,42,03,FC,00,00,FF,F1,00,
2362344,000001D2,false,Rx,0,5,E1,0C,8F,70,F0,00,00,00,
2368459,000000AA,false,Rx,0,8,6C,3E,FE,00,00,00,84,00,
2368684,000000A8,false,Rx,0,8,05,07,21,E0,21,1F,0F,04,
2368922,000000A9,false,Rx,0,8,F0,07,79,DF,1D,C7,E0,21,
2369146,000000BA,false,Rx,0,7,03,FF,0F,00,00,54,87,00,
2371819,000000B6,false,Rx,0,5,03,03,80,00,C8,00,00,00,
2372051,000000C4,false,Rx,0,7,42,03,FC,00,00,FF,F1,00,
2372276,000000CE,false,Rx,0,8,00,00,00,00,00,00,00,00,
2372501,0000019E,false,Rx,0,8,00,EA,0F,FC,FE,61,00,F6,
2372729,000001A0,false,Rx,0,8,00,80,00,00,80,00,38,DA,
2372960,000002B2,false,Rx,0,8,00,00,00,00,0F,80,00,04,
2378473,000000AA,false,Rx,0,8,5E,30,FE,00,00,00,84,00,
2378738,000000A8,false,Rx,0,8,06,08,21,E0,21,1F,0F,04,
2378992,000000A9,false,Rx,0,8,F1,08,79,DF,1D,C7,E0,21,
2379227,000000BA,false,Rx,0,7,03,FF,0F,00,00,55,88,00,
2381911,000000C4,false,Rx,0,7,42,03,FC,00,00,FF,F1,00,
2384021,00000130,false,Rx,0,5,00,0E,D0,0F,BA,00,00,00,
2388380,000000AA,false,Rx,0,8,60,32,FE,00,00,00,84,00,
2388605,000000A8,false,Rx,0,8,07,09,21,E0,21,1F,0F,04,
2388844,000000A9,false,Rx,0,8,F2,09,79,DF,1D,C7,E0,21,
2389070,000000BA,false,Rx,0,7,03,FF,0F,00,00,56,89,00,
2389480,00000497,false,Rx,0,8,29,52,FF,FF,FF,FF,FF,FF,
2391937,000000B6,false,Rx,0,5,04,04,80,00,C8,00,00,00,
2392178,000000C4,false,Rx,0,7,42,03,FC,00,00,FF,F1,00,
2392425,000000CE,false,Rx,0,8,00,00,00,00,00,00,00,00,
2392660,0000019E,false,Rx,0,8,00,EA,0F,FC,FE,61,00,F6,
2392912,000001A0,false,Rx,0,8,00,80,00,00,80,00,48,EA,
2393150,000002B2,false,Rx,0,8,00,00,00,00,0F,80,00,04,
2398366,000000AA,false,Rx,0,8,62,34,FE,00,00,00,84,00,
2398614,000000A8,false,Rx,0,8,08,0A,21,E0,21,1F,0F,04,
2398885,000000A9,false,Rx,0,8,F3,0A,79,DF,1D,C7,E0,21,
2399110,000000BA,false,Rx,0,7,03,FF,0F,00,00,57,8A,00,
2399335,000003BE,false,Rx,0,2,B1,F0,00,00,00,00,00,00,
2402019,000000C4,false,Rx,0,7,42,03,FC,00,00,FF,F1,00,
2408433,000000AA,false,Rx,0,8,64,36,FE,00,00,00,84,00,
2408658,000000A8,false,Rx,0,8,09,0B,21,E0,21,1F,0F,04,
2408900,000000A9,false,Rx,0,8,F4,0B,79,DF,1D,C7,E0,21,
2409125,000000BA,false,Rx,0,7,03,FF,0F,00,00,58,8B,00,
2411983,000000B6,false,Rx,0,5,05,05,80,00,C8,00,00,00,
2412208,000000C4,false,Rx,0,7,42,03,FC,00,00,FF,F1,00,
2412433,000000CE,false,Rx,0,8,00,00,00,00,00,00,00,00,
2412658,0000019E,false,Rx,0,8,00,EA,0F,FC,FE,61,00,F6,
2412900,000001A0,false,Rx,0,8,00,80,00,00,80,00,58,FA,
2413126,000002B2,false,Rx,0,8,00,00,00,00,0F,80,00,04,
2413351,000001A6,false,Rx,0,8,00,00,00,00,00,00,60,FC,
2417694,00000332,false,Rx,0,2,61,82,00,00,00,00,00,00,
2417703,00000332,false,Rx,0,2,61,82,00,00,00,00,00,00,
2417937,000001D0,false,Rx,0,8,3C,76,0A,C3,00,00,CD,82,
2418170,00000332,false,Rx,0,2,61,82,00,00,00,00,00,00,
2418395,000000AA,false,Rx,0,8,66,38,FE,00,00,00,84,00,
2418620,000000A8,false,Rx,0,8,0A,0C,21,E0,21,1F,0F,04,
2418874,000000A9,false,Rx,0,8,F5,0C,79,DF,1D,C7,E0,21,
2419113,000000BA,false,Rx,0,7,03,FF,0F,00,00,59,8C,00,
2422043,000000C4,false,Rx,0,7,42,03,FC,00,00,FF,F1,00,
2422267,000001D6,false,Rx,0,2,FF,F3,00,00,00,00,00,00,
2424554,000001FB,false,Rx,0,2,F6,FF,00,00,00,00,00,00,
2428356,000000AA,false,Rx,0,8,68,3A,FE,00,00,00,84,00,
2428770,000000A8,false,Rx,0,8,0B,0D,21,E0,21,1F,0F,04,
2429002,000000A9,false,Rx,0,8,F6,0D,79,DF,1D,C7,E0,21,
2429227,000000BA,false,Rx,0,7,03,FF,0F,00,00,5A,8D,00,
2431910,000000B6,false,Rx,0,5,06,06,80,00,C8,00,00,00,
2432135,000000C4,false,Rx,0,7,42,03,FC,00,00,FF,F1,00,
2432360,000000CE,false,Rx,0,8,00,00,00,00,00,00,00,00,
2432586,0000019E,false,Rx,0,8,00,EA,0F,FC,FE,61,00,F6,
2432815,000001A0,false,Rx,0,8,00,80,00,00,80,00,68,0B,
2433048,000002B2,false,Rx,0,8,00,00,00,00,0F,80,00,04,
2438526,000000AA,false,Rx,0,8,6A,3C,FE,00,00,00,84,00,
2438772,000000A8,false,Rx,0,8,0C,0E,21,E0,21,1F,0F,04,
2439059,000000A9,false,Rx,0,8,F7,0E,79,DF,1D,C7,E0,21,
2439064,000000BA,false,Rx,0,7,03,FF,0F,00,00,5B,8E,00,
2442113,000000C4,false,Rx,0,7,42,03,FC,00,00,FF,F1,00,
2448370,000000AA,false,Rx,0,8,5E,30,FE,00,00,00,84,00,
2448595,000000A8,false,Rx,0,8,FD,00,21,E0,21,1F,0F,04,
2448829,000000A9,false,Rx,0,8,E9,00,79,DF,1D,C7,E0,21,
2449060,000000BA,false,Rx,0,7,03,FF,0F,00,00,4D,80,00,
2451927,000000B6,false,Rx,0,5,07,07,80,00,C8,00,00,00,
2452152,000000C4,false,Rx,0,7,42,03,FC,00,00,FF,F1,00,
2452377,000000CE,false,Rx,0,8,00,00,00,00,00,00,00,00,
2452602,0000019E,false,Rx,0,8,00,EA,0F,FC,FE,61,00,F6,
2452841,000001A0,false,Rx,0,8,00,80,00,00,80,00,78,1B,
2453067,000002B2,false,Rx,0,8,00,00,00,00,0F,80,00,04,
2458515,000000AA,false,Rx,0,8,60,32,FE,00,00,00,84,00,
2458757,000000A8,false,Rx,0,8,FE,01,21,E0,21,1F,0F,04,
2458995,000000A9,false,Rx,0,8,EA,01,79,DF,1D,C7,E0,21,
2459232,000000BA,false,Rx,0,7,03,FF,0F,00,00,4E,81,00,
2461974,000000C4,false,Rx,0,7,42,03,FC,00,00,FF,F1,00,
2468459,000000AA,false,Rx,0,8,62,34,FE,00,00,00,84,00,
2468685,000000A8,false,Rx,0,8,FF,02,21,E0,21,1F,0F,04,
2468922,000000A9,false,Rx,0,8,EB,02,79,DF,1D,C7,E0,21,
2469146,000000BA,false,Rx,0,7,03,FF,0F,00,00,4F,82,00,
2471841,000000B6,false,Rx,0,5,08,08,80,00,C8,00,00,00,
2472066,000000C4,false,Rx,0,7,42,03,FC,00,00,FF,F1,00,
2472291,000000CE,false,Rx,0,8,00,00,00,00,00,00,00,00,
2472517,0000019E,false,Rx,0,8,00,EA,0F,FC,FE,61,00,F6,
2472751,000001A0,false,Rx,0,8,00,80,00,00,80,00,88,2B,
2472984,000002B2,false,Rx,0,8,00,00,00,00,0F,80,00,04,
2473209,000004A9,false,Rx,0,8,30,52,FF,FF,FF,FF,FF,FF,
2478497,000000AA,false,Rx,0,8,64,36,FE,00,00,00,84,00,
2478739,000000A8,false,Rx,0,8,00,03,21,E0,21,1F,0F,04,
2478998,000000A9,false,Rx,0,8,EC,03,79,DF,1D,C7,E0,21,
2479246,000000BA,false,Rx,0,7,03,FF,0F,00,00,50,83,00,
2481928,000000C4,false,Rx,0,7,42,03,FC,00,00,FF,F1,00,
2484057,00000130,false,Rx,0,5,00,0E,D0,0F,CB,00,00,00,
2488423,000000AA,false,Rx,0,8,66,38,FE,00,00,00,84,00,
2488648,000000A8,false,Rx,0,8,02,04,21,E0,21,1F,0F,04,
2488883,000000A9,false,Rx,0,8,ED,04,79,DF,1D,C7,E0,21,
2489108,000000BA,false,Rx,0,7,03,FF,0F,00,00,51,84,00,
2491974,000000B6,false,Rx,0,5,09,09,80,00,C8,00,00,00,
2492199,000000C4,false,Rx,0,7,42,03,FC,00,00,FF,F1,00,
2492422,000000CE,false,Rx,0,8,00,00,00,00,00,00,00,00,
2492646,0000019E,false,Rx,0,8,00,EA,0F,FC,FE,61,00,F6,
2492881,000001A0,false,Rx,0,8,00,80,00,00,80,00,98,3B,
2493106,000002B2,false,Rx,0,8,00,00,00,00,0F,80,00,04,
2498415,000000AA,false,Rx,0,8,68,3A,FE,00,00,00,84,00,
2498644,000000A8,false,Rx,0,8,03,05,21,E0,21,1F,0F,04,
2498882,000000A9,false,Rx,0,8,EE,05,79,DF,1D,C7,E0,21,
2499108,000000BA,false,Rx,0,7,03,FF,0F,00,00,52,85,00,
2502023,000000C4,false,Rx,0,7,42,03,FC,00,00,FF,F1,00,
2508458,000000AA,false,Rx,0,8,6A,3C,FE,00,00,00,84,00,
2508683,000000A8,false,Rx,0,8,04,06,21,E0,21,1F,0F,04,
2508919,000000A9,false,Rx,0,8,EF,06,79,DF,1D,C7,E0,21,
2509143,000000BA,false,Rx,0,7,03,FF,0F,00,00,53,86,00,
2511804,000000B6,false,Rx,0,5,0A,0A,80,00,C8,00,00,00,
2512037,000000C4,false,Rx,0,7,42,03,FC,00,00,FF,F1,00,
2512447,000000CE,false,Rx,0,8,00,00,00,00,00,00,00,00,
2512672,0000019E,false,Rx,0,8,00,EA,1F,FC,FE,61,00,07,
2512908,000001A0,false,Rx,0,8,00,80,00,00,80,00,A8,4B,
2513133,000002B2,false,Rx,0,8,00,00,00,00,0F,80,00,04,
2513358,000001A6,false,Rx,0,8,00,00,00,00,00,00,F0,FD,
2513583,000000C8,false,Rx,0,6,3E,03,7C,00,00,8C,00,00,
2513817,00000374,false,Rx,0,5,00,00,00,00,FC,00,00,00,
2518036,00000332,false,Rx,0,2,61,82,00,00,00,00,00,00,
2518042,00000332,false,Rx,0,2,61,82,00,00,00,00,00,00,
2518047,000001D0,false,Rx,0,8,3C,76,0B,C3,00,00,CD,82,
2518052,00000332,false,Rx,0,2,61,82,00,00,00,00,00,00,
2518495,000000AA,false,Rx,0,8,6C,3E,FE,00,00,00,84,00,
2518731,000000A8,false,Rx,0,8,05,07,21,E0,21,1F,0F,04,
2518963,000000A9,false,Rx,0,8,F0,07,79,DF,1D,C7,E0,21,
2519188,000000BA,false,Rx,0,7,03,FF,0F,00,00,54,87,00,
2521948,000000C4,false,Rx,0,7,42,03,FC,00,00,FF,F1,00,
2522172,000001D6,false,Rx,0,2,FF,F3,00,00,00,00,00,00,
2528417,000000AA,false,Rx,0,8,5E,30,FE,00,00,00,84,00,
2528642,000000A8,false,Rx,0,8,06,08,21,E0,21,1F,0F,04,
2528883,000000A9,false,Rx,0,8,F1,08,79,DF,1D,C7,E0,21,
2529108,000000BA,false,Rx,0,7,03,FF,0F,00,00,55,88,00,
2532033,000000B6,false,Rx,0,5,0B,0B,80,00,C8,00,00,00,
2532038,000000C4,false,Rx,0,7,42,03,FC,00,00,FF,F1,00,
2532448,000000CE,false,Rx,0,8,00,00,00,00,00,00,00,00,
2532673,0000019E,false,Rx,0,8,00,EA,1F,FC,FE,61,00,07,
2532912,000001A0,false,Rx,0,8,00,80,00,00,80,00,B8,5B,
2533136,000002B2,false,Rx,0,8,00,00,00,00,0F,80,00,04,
2538470,000000AA,false,Rx,0,8,60,32,FE,00,00,00,84,00,
2538702,000000A8,false,Rx,0,8,07,09,21,E0,21,1F,0F,04,
2538935,000000A9,false,Rx,0,8,F2,09,79,DF,1D,C7,E0,21,
2539160,000000BA,false,Rx,0,7,03,FF,0F,00,00,56,89,00,
2542027,000000C4,false,Rx,0,7,42,03,FC,00,00,FF,F1,00,
2548354,000000AA,false,Rx,0,8,62,34,FE,00,00,00,84,00,
2548768,000000A8,false,Rx,0,8,08,0A,21,E0,21,1F,0F,04,
2549000,000000A9,false,Rx,0,8,F3,0A,79,DF,1D,C7,E0,21,
2549225,000000BA,false,Rx,0,7,03,FF,0F,00,00,57,8A,00,
2551898,000000B6,false,Rx,0,5,0C,0C,80,00,C8,00,00,00,
2552123,000000C4,false,Rx,0,7,42,03,FC,00,00,FF,F1,00,
2552349,000000CE,false,Rx,0,8,00,00,00,00,00,00,00,00,
2552574,0000019E,false,Rx,0,8,00,EA,1F,FC,FE,61,00,07,
2552802,000001A0,false,Rx,0,8,00,80,00,00,80,00,C8,6B,
2553033,000002B2,false,Rx,0,8,00,00,00,00,0F,80,00,04,
2558491,000000AA,false,Rx,0,8,64,36,FE,00,00,00,84,00,
2558724,000000A8,false,Rx,0,8,09,0B,21,E0,21,1F,0F,04,
2558956,000000A9,false,Rx,0,8,F4,0B,79,DF,1D,C7,E0,21,
2559181,000000BA,false,Rx,0,7,03,FF,0F,00,00,58,8B,00,
2561947,000000C4,false,Rx,0,7,42,03,FC,00,00,FF,F1,00,
2562182,000001D2,false,Rx,0,5,E1,0C,8F,80,F0,00,00,00,
2564530,000004B0,false,Rx,0,8,00,52,FE,01,FF,FF,FF,FF,
2568533,000000AA,false,Rx,0,8,66,38,FE,00,00,00,84,00,
2568761,000000A8,false,Rx,0,8,0A,0C,21,E0,21,1F,0F,04,
2568994,000000A9,false,Rx,0,8,F5,0C,79,DF,1D,C7,E0,21,
2569219,000000BA,false,Rx,0,7,03,FF,0F,00,00,59,8C,00,
2571919,000000B6,false,Rx,0,5,0D,0D,80,00,C8,00,00,00,
2572158,000000C4,false,Rx,0,7,42,03,FC,00,00,FF,F1,00,
2572382,000000CE,false,Rx,0,8,00,00,00,00,00,00,00,00,
2572608,0000019E,false,Rx,0,8,00,EA,1F,FC,FE,61,00,07,
2572849,000001A0,false,Rx,0,8,00,80,00,00,80,00,D8,7B,
2573074,000002B2,false,Rx,0,8,00,00,00,00,0F,80,00,04,
2578369,000000AA,false,Rx,0,8,68,3A,FE,00,00,00,84,00,
2578606,000000A8,false,Rx,0,8,0B,0D,21,E0,21,1F,0F,04,
2578844,000000A9,false,Rx,0,8,F6,0D,79,DF,1D,C7,E0,21,
2579069,000000BA,false,Rx,0,7,03,FF,0F,00,00,5A,8D,00,
2581982,000000C4,false,Rx,0,7,42,03,FC,00,00,FF,F1,00,
2583703,000001B5,false,Rx,0,7,C8,FF,04,00,88,FF,FF,00,
2585062,00000130,false,Rx,0,5,00,0E,D0,0F,DC,00,00,00,
2588484,000000AA,false,Rx,0,8,6A,3C,FE,00,00,00,84,00,
2588717,000000A8,false,Rx,0,8,0C,0E,21,E0,21,1F,0F,04,
2588949,000000A9,false,Rx,0,8,F7,0E,79,DF,1D,C7,E0,21,
2589173,000000BA,false,Rx,0,7,03,FF,0F,00,00,5B,8E,00,
2591854,000000B6,false,Rx,0,5,0E,0E,80,00,C8,00,00,00,
2592078,000000C4,false,Rx,0,7,42,03,FC,00,00,FF,F1,00,
2592489,000000CE,false,Rx,0,8,00,00,00,00,00,00,00,00,
2592720,0000019E,false,Rx,0,8,00,EA,1F,FC,FE,61,00,07,
2592952,000001A0,false,Rx,0,8,00,80,00,00,80,00,E8,8B,
2593177,000002B2,false,Rx,0,8,00,00,00,00,0F,80,00,04,
2598443,000000AA,false,Rx,0,8,5E,30,FE,00,00,00,84,00,
2598679,000000A8,false,Rx,0,8,FD,00,21,E0,21,1F,0F,04,
2598919,000000A9,false,Rx,0,8,E9,00,79,DF,1D,C7,E0,21,
2599144,000000BA,false,Rx,0,7,03,FF,0F,00,00,4D,80,00,
2601895,000000C4,false,Rx,0,7,42,03,FC,00,00,FF,F1,00,
2608507,000000AA,false,Rx,0,8,60,32,FE,00,00,00,84,00,
2608740,000000A8,false,Rx,0,8,FE,01,21,E0,21,1F,0F,04,
2608972,000000A9,false,Rx,0,8,EA,01,79,DF,1D,C7,E0,21,
2609197,000000BA,false,Rx,0,7,03,FF,0F,00,00,4E,81,00,
2611873,000000B6,false,Rx,0,5,FF,00,80,00,C8,00,00,00,
2612098,000000C4,false,Rx,0,7,42,03,FC,00,00,FF,F1,00,
2612323,000000CE,false,Rx,0,8,00,00,00,00,00,00,00,00,
2612548,0000019E,false,Rx,0,8,00,EA,1F,FC,FE,61,00,07,
2612780,000001A0,false,Rx,0,8,00,80,00,00,80,00,08,AA,
2613012,000002B2,false,Rx,0,8,00,00,00,00,0F,80,00,04,
2613236,000001A6,false,Rx,0,8,00,00,00,00,00,00,80,FF,
2615344,000001FB,false,Rx,0,2,F7,FF,00,00,00,00,00,00,
2618363,00000332,false,Rx,0,2,61,82,00,00,00,00,00,00,
2618369,00000332,false,Rx,0,2,61,82,00,00,00,00,00,00,
2618374,000001D0,false,Rx,0,8,3C,76,0B,C3,00,00,CD,82,
2618380,00000332,false,Rx,0,2,61,82,00,00,00,00,00,00,
2618385,000000AA,false,Rx,0,8,62,34,FE,00,00,00,84,00,
2618626,000000A8,false,Rx,0,8,FF,02,21,E0,21,1F,0F,04,
2618870,000000A9,false,Rx,0,8,EB,02,79,DF,1D,C7,E0,21,
2619095,000000BA,false,Rx,0,7,03,FF,0F,00,00,4F,82,00,
2622064,000000C4,false,Rx,0,7,42,03,FC,00,00,FF,F1,00,
2622069,000001D6,false,Rx,0,2,FF,F3,00,00,00,00,00,00,
2628488,000000AA,false,Rx,0,8,64,36,FE,00,00,00,84,00,
2628720,000000A8,false,Rx,0,8,00,03,21,E0,21,1F,0F,04,
2628952,000000A9,false,Rx,0,8,EC,03,79,DF,1D,C7,E0,21,
2629177,000000BA,false,Rx,0,7,03,FF,0F,00,00,50,83,00,
2631858,000000B6,false,Rx,0,5,00,01,80,00,C8,00,00,00,
2632083,000000C4,false,Rx,0,7,42,03,FC,00,00,FF,F1,00,
2632308,000000CE,false,Rx,0,8,00,00,00,00,00,00,00,00,
2632533,0000019E,false,Rx,0,8,00,EA,1F,FC,FE,61,00,07,
2632956,000001A0,false,Rx,0,8,00,80,00,00,80,00,18,BA,
2633181,000002B2,false,Rx,0,8,00,00,00,00,0F,80,00,04,
2638394,000000AA,false,Rx,0,8,66,38,FE,00,00,00,84,00,
2638633,000000A8,false,Rx,0,8,02,04,21,E0,21,1F,0F,04,
2638877,000000A9,false,Rx,0,8,ED,04,79,DF,1D,C7,E0,21,
2639106,000000BA,false,Rx,0,7,03,FF,0F,00,00,51,84,00,
2642009,000000C4,false,Rx,0,7,42,03,FC,00,00,FF,F1,00,
2647690,00000480,false,Rx,0,8,17,42,FD,FF,FF,FF,FF,FF,
2648484,000000AA,false,Rx,0,8,68,3A,FE,00,00,00,84,00,
2648717,000000A8,false,Rx,0,8,03,05,21,E0,21,1F,0F,04,
2648948,000000A9,false,Rx,0,8,EE,05,79,DF,1D,C7,E0,21,
2649174,000000BA,false,Rx,0,7,03,FF,0F,00,00,52,85,00,
2651853,000000B6,false,Rx,0,5,02,02,80,00,C8,00,00,00,
2652077,000000C4,false,Rx,0,7,42,03,FC,00,00,FF,F1,00,
2652487,000000CE,false,Rx,0,8,00,00,00,00,00,00,00,00,
2652720,0000019E,false,Rx,0,8,00,EA,1F,FC,FE,61,00,07,
2652952,000001A0,false,Rx,0,8,00,80,00,00,80,00,28,CA,
2653177,000002B2,false,Rx,0,8,00,00,00,00,0F,80,00,04,
2658612,000000AA,false,Rx,0,8,6A,3C,FE,00,00,00,84,00,
2658619,000000A8,false,Rx,0,8,04,06,21,E0,21,1F,0F,04,
2658875,000000A9,false,Rx,0,8,EF,06,79,DF,1D,C7,E0,21,
2659113,000000BA,false,Rx,0,7,03,FF,0F,00,00,53,86,00,
2661854,000000C4,false,Rx,0,7,42,03,FC,00,00,FF,F1,00,
2668485,000000AA,false,Rx,0,8,6C,3E,FE,00,00,00,84,00,
2668721,000000A8,false,Rx,0,8,05,07,21,E0,21,1F,0F,04,
2668952,000000A9,false,Rx,0,8,F0,07,79,DF,1D,C7,E0,21,
2669177,000000BA,false,Rx,0,7,03,FF,0F,00,00,54,87,00,
2671858,000000B6,false,Rx,0,5,03,03,80,00,C8,00,00,00,
2672087,000000C4,false,Rx,0,7,42,03,FC,00,00,FF,F1,00,
2672324,000000CE,false,Rx,0,8,00,00,00,00,00,00,00,00,
2672559,0000019E,false,Rx,0,8,00,EA,1F,FC,FE,61,00,07,
2672791,000001A0,false,Rx,0,8,00,80,00,00,80,00,38,DA,
2673022,000002B2,false,Rx,0,8,00,00,00,00,0F,80,00,04,
2678661,000000AA,false,Rx,0,8,5E,30,FE,00,00,00,84,00,
2678668,000000A8,false,Rx,0,8,06,08,21,E0,21,1F,0F,04,
2678925,000000A9,false,Rx,0,8,F1,08,79,DF,1D,C7,E0,21,
2679157,000000BA,false,Rx,0,7,03,FF,0F,00,00,55,88,00,
2680378,000002FC,false,Rx,0,7,31,00,00,FF,FF,FF,FF,00,
2681931,000000C4,false,Rx,0,7,42,03,FC,00,00,FF,F1,00,
2684040,00000130,false,Rx,0,5,00,0E,D0,0F,ED,00,00,00,
2688412,000000AA,false,Rx,0,8,60,32,FE,00,00,00,84,00,
2688636,000000A8,false,Rx,0,8,07,09,21,E0,21,1F,0F,04,
2688876,000000A9,false,Rx,0,8,F2,09,79,DF,1D,C7,E0,21,
2689101,000000BA,false,Rx,0,7,03,FF,0F,00,00,56,89,00,
2691963,000000B6,false,Rx,0,5,04,04,80,00,C8,00,00,00,
2692188,000000C4,false,Rx,0,7,42,03,FC,00,00,FF,F1,00,
2692414,000000CE,false,Rx,0,8,00,00,00,00,00,00,00,00,
2692639,0000019E,false,Rx,0,8,00,EA,1F,FC,FE,61,00,07,
2692876,000001A0,false,Rx,0,8,00,80,00,00,80,00,48,EA,
2693101,000002B2,false,Rx,0,8,00,00,00,00,0F,80,00,04,
2698672,000000AA,false,Rx,0,8,62,34,FE,00,00,00,84,00,
2698679,000000A8,false,Rx,0,8,08,0A,21,E0,21,1F,0F,04,
2698936,000000A9,false,Rx,0,8,F3,0A,79,DF,1D,C7,E0,21,
2699170,000000BA,false,Rx,0,7,03,FF,0F,00,00,57,8A,00,
2699580,000003BE,false,Rx,0,2,B3,F0,00,00,00,00,00,00,
2701959,000000C4,false,Rx,0,7,42,03,FC,00,00,FF,F1,00,
2708390,000000AA,false,Rx,0,8,64,36,FE,00,00,00,84,00,
2708615,000000A8,false,Rx,0,8,09,0B,21,E0,21,1F,0F,04,
2708854,000000A9,false,Rx,0,8,F4,0B,79,DF,1D,C7,E0,21,
2709089,000000BA,false,Rx,0,7,03,FF,0F,00,00,58,8B,00,
2709334,000002F6,false,Rx,0,2,54,F5,00,00,00,00,00,00,
2711860,000000B6,false,Rx,0,5,05,05,80,00,C8,00,00,00,
2712111,000000C4,false,Rx,0,7,42,03,FC,00,00,FF,F1,00,
2712347,000000CE,false,Rx,0,8,00,00,00,00,00,00,00,00,
2712581,0000019E,false,Rx,0,8,00,EA,1F,FC,FE,61,00,07,
2712825,000001A0,false,Rx,0,8,00,80,00,00,80,00,58,FA,
2713069,000002B2,false,Rx,0,8,00,00,00,00,0F,80,00,04,
2713319,000001A6,false,Rx,0,8,00,00,00,00,00,00,10,F1,
2713554,000000C8,false,Rx,0,6,3E,03,CC,00,00,9C,00,00,
2718880,00000332,false,Rx,0,2,61,82,00,00,00,00,00,00,
2718886,00000332,false,Rx,0,2,61,82,00,00,00,00,00,00,
2718891,000001D0,false,Rx,0,8,3C,76,0C,C3,00,00,CD,82,
2718896,00000332,false,Rx,0,2,61,82,00,00,00,00,00,00,
2718901,000000AA,false,Rx,0,8,66,38,FE,00,00,00,84,00,
2718907,000000A8,false,Rx,0,8,0A,0C,21,E0,21,1F,0F,04,
2718912,000000A9,false,Rx,0,8,F5,0C,79,DF,1D,C7,E0,21,
2719161,000000BA,false,Rx,0,7,03,FF,0F,00,00,59,8C,00,
2722160,000000C4,false,Rx,0,7,42,03,FC,00,00,FF,F1,00,
2722166,000001D6,false,Rx,0,2,FF,F3,00,00,00,00,00,00,
2728412,000000AA,false,Rx,0,8,68,3A,FE,00,00,00,84,00,
2728637,000000A8,false,Rx,0,8,0B,0D,21,E0,21,1F,0F,04,
2728876,000000A9,false,Rx,0,8,F6,0D,79,DF,1D,C7,E0,21,
2729101,000000BA,false,Rx,0,7,03,FF,0F,00,00,5A,8D,00,
2729512,00000497,false,Rx,0,8,29,52,FF,FF,FF,FF,FF,FF,
2731999,000000B6,false,Rx,0,5,06,06,80,00,C8,00,00,00,
2732224,000000C4,false,Rx,0,7,42,03,FC,00,00,FF,F1,00,
2732449,000000CE,false,Rx,0,8,00,00,00,00,00,00,00,00,
2732674,0000019E,false,Rx,0,8,00,EA,2F,FC,FE,61,00,17,
2732914,000001A0,false,Rx,0,8,00,80,00,00,80,00,68,0B,
2733139,000002B2,false,Rx,0,8,00,00,00,00,0F,80,00,04,
2738946,000000AA,false,Rx,0,8,6A,3C,FE,00,00,00,84,00,
2738953,000000A8,false,Rx,0,8,0C,0E,21,E0,21,1F,0F,04,
2738958,000000A9,false,Rx,0,8,F7,0E,79,DF,1D,C7,E0,21,
2739195,000000BA,false,Rx,0,7,03,FF,0F,00,00,5B,8E,00,
2741934,000000C4,false,Rx,0,7,42,03,FC,00,00,FF,F1,00,
2748363,000000AA,false,Rx,0,8,5E,30,FE,00,00,00,84,00,
2748778,000000A8,false,Rx,0,8,FD,00,21,E0,21,1F,0F,04,
2749009,000000A9,false,Rx,0,8,E9,00,79,DF,1D,C7,E0,21,
2749235,000000BA,false,Rx,0,7,03,FF,0F,00,00,4D,80,00,
2751917,000000B6,false,Rx,0,5,07,07,80,00,C8,00,00,00,
2752141,000000C4,false,Rx,0,7,42,03,FC,00,00,FF,F1,00,
2752367,000000CE,false,Rx,0,8,00,00,00,00,00,00,00,00,
2752592,0000019E,false,Rx,0,8,00,EA,2F,FC,FE,61,00,17,
2752826,000001A0,false,Rx,0,8,00,80,00,00,80,00,78,1B,
2753058,000002B2,false,Rx,0,8,00,00,00,00,0F,80,00,04,
2759087,000000AA,false,Rx,0,8,60,32,FE,00,00,00,84,00,
2759094,000000A8,false,Rx,0,8,FE,01,21,E0,21,1F,0F,04,
2759099,000000A9,false,Rx,0,8,EA,01,79,DF,1D,C7,E0,21,
2759104,000000BA,false,Rx,0,7,03,FF,0F,00,00,4E,81,00,
2761887,000000C4,false,Rx,0,7,42,03,FC,00,00,FF,F1,00,
2762305,000001D2,false,Rx,0,5,E1,0C,8F,90,F0,00,00,00,
2768504,000000AA,false,Rx,0,8,62,34,FE,00,00,00,84,00,
2768733,000000A8,false,Rx,0,8,FF,02,21,E0,21,1F,0F,04,
2768966,000000A9,false,Rx,0,8,EB,02,79,DF,1D,C7,E0,21,
2769191,000000BA,false,Rx,0,7,03,FF,0F,00,00,4F,82,00,
2771867,000000B6,false,Rx,0,5,08,08,80,00,C8,00,00,00,
2772092,000000C4,false,Rx,0,7,42,03,FC,00,00,FF,F1,00,
2772317,000000CE,false,Rx,0,8,00,00,00,00,00,00,00,00,
2772542,0000019E,false,Rx,0,8,00,EA,2F,FC,FE,61,00,17,
2772771,000001A0,false,Rx,0,8,00,80,00,00,80,00,88,2B,
2773002,000002B2,false,Rx,0,8,00,00,00,00,0F,80,00,04,
2779260,000000AA,false,Rx,0,8,64,36,FE,00,00,00,84,00,
2779267,000000A8,false,Rx,0,8,00,03,21,E0,21,1F,0F,04,
2779272,000000A9,false,Rx,0,8,EC,03,79,DF,1D,C7,E0,21,
2779278,000000BA,false,Rx,0,7,03,FF,0F,00,00,50,83,00,
2781899,000000C4,false,Rx,0,7,42,03,FC,00,00,FF,F1,00,
2783885,00000130,false,Rx,0,5,00,0E,D0,0F,FE,00,00,00,
2785133,000002FC,false,Rx,0,7,35,00,00,FF,FF,FF,FF,00,
2788364,000000AA,false,Rx,0,8,66,38,FE,00,00,00,84,00,
2788778,000000A8,false,Rx,0,8,02,04,21,E0,21,1F,0F,04,
2789009,000000A9,false,Rx,0,8,ED,04,79,DF,1D,C7,E0,21,
2789048,000000BA,false,Rx,0,7,03,FF,0F,00,00,51,84,00,
2791917,000000B6,false,Rx,0,5,09,09,80,00,C8,00,00,00,
2792141,000000C4,false,Rx,0,7,42,03,FC,00,00,FF,F1,00,
2792367,000000CE,false,Rx,0,8,00,00,00,00,00,00,00,00,
2792592,0000019E,false,Rx,0,8,00,EA,2F,FC,FE,61,00,17,
2792826,000001A0,false,Rx,0,8,00,80,00,00,80,00,98,3B,
2793058,000002B2,false,Rx,0,8,00,00,00,00,0F,80,00,04,
2799206,000000AA,false,Rx,0,8,68,3A,FE,00,00,00,84,00,
2799213,000000A8,false,Rx,0,8,03,05,21,E0,21,1F,0F,04,
2799218,000000A9,false,Rx,0,8,EE,05,79,DF,1D,C7,E0,21,
2799223,000000BA,false,Rx,0,7,03,FF,0F,00,00,52,85,00,
2801988,000000C4,false,Rx,0,7,42,03,FC,00,00,FF,F1,00,
2805411,000001FB,false,Rx,0,2,F8,FF,00,00,00,00,00,00,
2808455,000000AA,false,Rx,0,8,6A,3C,FE,00,00,00,84,00,
2808681,000000A8,false,Rx,0,8,04,06,21,E0,21,1F,0F,04,
2808921,000000A9,false,Rx,0,8,EF,06,79,DF,1D,C7,E0,21,
2809146,000000BA,false,Rx,0,7,03,FF,0F,00,00,53,86,00,
2811816,000000B6,false,Rx,0,5,0A,0A,80,00,C8,00,00,00,
2812048,000000C4,false,Rx,0,7,42,03,FC,00,00,FF,F1,00,
2812272,000000CE,false,Rx,0,8,00,00,00,00,00,00,00,00,
2812497,0000019E,false,Rx,0,8,00,EA,2F,FC,FE,61,00,17,
2812726,000001A0,false,Rx,0,8,00,80,00,00,80,00,A8,4B,
2812958,000002B2,false,Rx,0,8,00,00,00,00,0F,80,00,04,
2813369,000001A6,false,Rx,0,8,00,00,00,00,00,00,A0,F2,
2813594,000004A9,false,Rx,0,8,30,52,FF,FF,FF,FF,FF,FF,
2817674,00000332,false,Rx,0,2,61,82,00,00,00,00,00,00,
2817679,00000332,false,Rx,0,2,61,82,00,00,00,00,00,00,
2819445,000001D0,false,Rx,0,8,3C,76,0C,C3,00,00,CD,82,
2819452,00000332,false,Rx,0,2,61,82,00,00,00,00,00,00,
2819457,000000AA,false,Rx,0,8,6C,3E,FE,00,00,00,84,00,
2819462,000000A8,false,Rx,0,8,05,07,21,E0,21,1F,0F,04,
2819467,000000A9,false,Rx,0,8,F0,07,79,DF,1D,C7,E0,21,
2819473,000000BA,false,Rx,0,7,03,FF,0F,00,00,54,87,00,
2822105,000000C4,false,Rx,0,7,42,03,FC,00,00,FF,F1,00,
2822112,000001D6,false,Rx,0,2,FF,F3,00,00,00,00,00,00,
2825724,000005C1,false,Rx,0,8,01,03,B9,FF,FF,FF,FF,FF,
2828398,000000AA,false,Rx,0,8,5E,30,FE,00,00,00,84,00,
2828623,000000A8,false,Rx,0,8,06,08,21,E0,21,1F,0F,04,
2828860,000000A9,false,Rx,0,8,F1,08,79,DF,1D,C7,E0,21,
2829085,000000BA,false,Rx,0,7,03,FF,0F,00,00,55,88,00,
2831946,000000B6,false,Rx,0,5,0B,0B,80,00,C8,00,00,00,
2832171,000000C4,false,Rx,0,7,42,03,FC,00,00,FF,F1,00,
2832396,000000CE,false,Rx,0,8,00,00,00,00,00,00,00,00,
2832621,0000019E,false,Rx,0,8,00,EA,2F,FC,FE,61,00,17,
2832861,000001A0,false,Rx,0,8,00,80,00,00,80,00,B8,5B,
2833086,000002B2,false,Rx,0,8,00,00,00,00,0F,80,00,04,
2835760,000005C1,false,Rx,0,8,01,03,B8,FF,FF,FF,FF,FF,
2836362,00000202,false,Rx,0,2,FE,FF,00,00,00,00,00,00,
2839585,000000AA,false,Rx,0,8,60,32,FE,00,00,00,84,00,
2839592,000000A8,false,Rx,0,8,07,09,21,E0,21,1F,0F,04,
2839597,000000A9,false,Rx,0,8,F2,09,79,DF,1D,C7,E0,21,
2839602,000000BA,false,Rx,0,7,03,FF,0F,00,00,56,89,00,
2841991,000000C4,false,Rx,0,7,42,03,FC,00,00,FF,F1,00,
2847491,000005C1,false,Rx,0,8,01,03,B7,FF,FF,FF,FF,FF,
2848472,000000AA,false,Rx,0,8,62,34,FE,00,00,00,84,00,
2848699,000000A8,false,Rx,0,8,08,0A,21,E0,21,1F,0F,04,
2848934,000000A9,false,Rx,0,8,F3,0A,79,DF,1D,C7,E0,21,
2849159,000000BA,false,Rx,0,7,03,FF,0F,00,00,57,8A,00,
2852018,000000B6,false,Rx,0,5,0C,0C,80,00,C8,00,00,00,
2852251,000000C4,false,Rx,0,7,42,03,FC,00,00,FF,F1,00,
2852476,000000CE,false,Rx,0,8,00,00,00,00,00,00,00,00,
2852703,0000019E,false,Rx,0,8,00,EA,2F,FC,FE,61,00,17,
2852936,000001A0,false,Rx,0,8,00,80,00,00,80,00,C8,6B,
2853161,000002B2,false,Rx,0,8,00,00,00,00,0F,80,00,04,
2855842,000005C1,false,Rx,0,8,01,03,B6,FF,FF,FF,FF,FF,
2859615,000000AA,false,Rx,0,8,64,36,FE,00,00,00,84,00,
2859622,000000A8,false,Rx,0,8,09,0B,21,E0,21,1F,0F,04,
2859627,000000A9,false,Rx,0,8,F4,0B,79,DF,1D,C7,E0,21,
2859633,000000BA,false,Rx,0,7,03,FF,0F,00,00,58,8B,00,
2861946,000000C4,false,Rx,0,7,42,03,FC,00,00,FF,F1,00,
2868475,000000AA,false,Rx,0,8,66,38,FE,00,00,00,84,00,
2868702,000000A8,false,Rx,0,8,0A,0C,21,E0,21,1F,0F,04,
2868935,000000A9,false,Rx,0,8,F5,0C,79,DF,1D,C7,E0,21,
2869160,000000BA,false,Rx,0,7,03,FF,0F,00,00,59,8C,00,
2871841,000000B6,false,Rx,0,5,0D,0D,80,00,C8,00,00,00,
2872066,000000C4,false,Rx,0,7,42,03,FC,00,00,FF,F1,00,
2872291,000000CE,false,Rx,0,8,00,00,00,00,00,00,00,00,
2872516,0000019E,false,Rx,0,8,00,EA,2F,FC,FE,61,00,17,
2872743,000001A0,false,Rx,0,8,00,80,00,00,80,00,D8,7B,
2872975,000002B2,false,Rx,0,8,00,00,00,00,0F,80,00,04,
2880011,000000AA,false,Rx,0,8,68,3A,FE,00,00,00,84,00,
2880018,000000A8,false,Rx,0,8,0B,0D,21,E0,21,1F,0F,04,
2880024,000000A9,false,Rx,0,8,F6,0D,79,DF,1D,C7,E0,21,
2880029,000000BA,false,Rx,0,7,03,FF,0F,00,00,5A,8D,00,
2881973,000000C4,false,Rx,0,7,42,03,FC,00,00,FF,F1,00,
2883934,00000130,false,Rx,0,5,00,0E,D0,0F,00,00,00,00,
2885101,000002FC,false,Rx,0,7,35,00,00,FF,FF,FF,FF,00,
2888526,000000AA,false,Rx,0,8,6A,3C,FE,00,00,00,84,00,
2888759,000000A8,false,Rx,0,8,0C,0E,21,E0,21,1F,0F,04,
2888990,000000A9,false,Rx,0,8,F7,0E,79,DF,1D,C7,E0,21,
2889216,000000BA,false,Rx,0,7,03,FF,0F,00,00,5B,8E,00,
2891881,000000B6,false,Rx,0,5,0E,0E,80,00,C8,00,00,00,
2892114,000000C4,false,Rx,0,7,42,03,FC,00,00,FF,F1,00,
2892339,000000CE,false,Rx,0,8,00,00,00,00,00,00,00,00,
2892572,0000019E,false,Rx,0,8,00,EA,2F,FC,FE,61,00,17,
2892821,000001A0,false,Rx,0,8,00,80,00,00,80,00,E8,8B,
2893064,000002B2,false,Rx,0,8,00,00,00,00,0F,80,00,04,
2899900,000000AA,false,Rx,0,8,5E,30,FE,00,00,00,84,00,
2899907,000000A8,false,Rx,0,8,FD,00,21,E0,21,1F,0F,04,
2899912,000000A9,false,Rx,0,8,E9,00,79,DF,1D,C7,E0,21,
2899917,000000BA,false,Rx,0,7,03,FF,0F,00,00,4D,80,00,
2899923,000003BE,false,Rx,0,2,B3,F0,00,00,00,00,00,00,
2901960,000000C4,false,Rx,0,7,42,03,FC,00,00,FF,F1,00,
2904439,000004B0,false,Rx,0,8,00,52,FE,01,FF,FF,FF,FF,
2908423,000000AA,false,Rx,0,8,60,32,FE,00,00,00,84,00,
2908648,000000A8,false,Rx,0,8,FE,01,21,E0,21,1F,0F,04,
2908883,000000A9,false,Rx,0,8,EA,01,79,DF,1D,C7,E0,21,
2909108,000000BA,false,Rx,0,7,03,FF,0F,00,00,4E,81,00,
2911216,000005F2,false,Rx,0,8,08,04,00,FD,FF,FF,FF,FF,
2912008,000000B6,false,Rx,0,5,FF,00,80,00,C8,00,00,00,
2912233,000000C4,false,Rx,0,7,42,03,FC,00,00,FF,F1,00,
2912458,000000CE,false,Rx,0,8,00,00,00,00,00,00,00,00,
2912683,0000019E,false,Rx,0,8,00,EA,2F,FC,FE,61,00,17,
2912920,000001A0,false,Rx,0,8,00,80,00,00,80,00,08,AA,
2913146,000002B2,false,Rx,0,8,00,00,00,00,0F,80,00,04,
2913370,000001A6,false,Rx,0,8,00,00,00,00,00,00,30,F4,
2913595,000000C8,false,Rx,0,6,3E,03,2C,00,00,AC,00,00,
2917518,00000332,false,Rx,0,2,61,82,00,00,00,00,00,00,
2917750,00000332,false,Rx,0,2,61,82,00,00,00,00,00,00,
2918014,000001D0,false,Rx,0,8,3C,76,0D,C3,00,00,CD,82,
2918020,00000332,false,Rx,0,2,61,82,00,00,00,00,00,00,
2919984,000000AA,false,Rx,0,8,62,34,FE,00,00,00,84,00,
2919991,000000A8,false,Rx,0,8,FF,02,21,E0,21,1F,0F,04,
2919996,000000A9,false,Rx,0,8,EB,02,79,DF,1D,C7,E0,21,
2920002,000000BA,false,Rx,0,7,03,FF,0F,00,00,4F,82,00,
2921984,000000C4,false,Rx,0,7,42,03,FC,00,00,FF,F1,00,
2922282,000001D6,false,Rx,0,2,FF,F3,00,00,00,00,00,00,
2922287,000002F6,false,Rx,0,2,00,F5,00,00,00,00,00,00,
2928539,000000AA,false,Rx,0,8,64,36,FE,00,00,00,84,00,
2928767,000000A8,false,Rx,0,8,00,03,21,E0,21,1F,0F,04,
2928999,000000A9,false,Rx,0,8,EC,03,79,DF,1D,C7,E0,21,
2929224,000000BA,false,Rx,0,7,03,FF,0F,00,00,50,83,00,
2931893,000000B6,false,Rx,0,5,00,01,80,00,C8,00,00,00,
2932119,000000C4,false,Rx,0,7,42,03,FC,00,00,FF,F1,00,
2932356,000000CE,false,Rx,0,8,00,00,00,00,00,00,00,00,
2932589,0000019E,false,Rx,0,8,00,EA,3F,FC,FE,61,00,27,
2932838,000001A0,false,Rx,0,8,00,80,00,00,80,00,18,BA,
2933063,000002B2,false,Rx,0,8,00,00,00,00,0F,80,00,04,
2938404,000000AA,false,Rx,0,8,66,38,FE,00,00,00,84,00,
2940205,000000A8,false,Rx,0,8,02,04,21,E0,21,1F,0F,04,
2940212,000000A9,false,Rx,0,8,ED,04,79,DF,1D,C7,E0,21,
2940218,000000BA,false,Rx,0,7,03,FF,0F,00,00,51,84,00,
2942152,000000C4,false,Rx,0,7,42,03,FC,00,00,FF,F1,00,
2948397,000000AA,false,Rx,0,8,68,3A,FE,00,00,00,84,00,
2948623,000000A8,false,Rx,0,8,03,05,21,E0,21,1F,0F,04,
2948861,000000A9,false,Rx,0,8,EE,05,79,DF,1D,C7,E0,21,
2949086,000000BA,false,Rx,0,7,03,FF,0F,00,00,52,85,00,
2949682,00000310,false,Rx,0,7,75,2E,BC,2C,01,3F,23,00,
2951984,000000B6,false,Rx,0,5,02,02,80,00,C8,00,00,00,
2952209,000000C4,false,Rx,0,7,42,03,FC,00,00,FF,F1,00,
2952434,000000CE,false,Rx,0,8,00,00,00,00,00,00,00,00,
2952659,0000019E,false,Rx,0,8,00,EA,3F,FC,FE,61,00,27,
2952898,000001A0,false,Rx,0,8,00,80,00,00,80,00,28,CA,
2953123,000002B2,false,Rx,0,8,00,00,00,00,0F,80,00,04,
2958423,000000AA,false,Rx,0,8,6A,3C,FE,00,00,00,84,00,
2959958,000000A8,false,Rx,0,8,04,06,21,E0,21,1F,0F,04,
2959964,000000A9,false,Rx,0,8,EF,06,79,DF,1D,C7,E0,21,
2959970,000000BA,false,Rx,0,7,03,FF,0F,00,00,53,86,00,
2961960,000000C4,false,Rx,0,7,42,03,FC,00,00,FF,F1,00,
2962209,000001D2,false,Rx,0,5,E1,0C,8F,A0,F0,00,00,00,
2968526,000000AA,false,Rx,0,8,6C,3E,FE,00,00,00,84,00,
2968759,000000A8,false,Rx,0,8,05,07,21,E0,21,1F,0F,04,
2968991,000000A9,false,Rx,0,8,F0,07,79,DF,1D,C7,E0,21,
2969216,000000BA,false,Rx,0,7,03,FF,0F,00,00,54,87,00,
2971894,000000B6,false,Rx,0,5,03,03,80,00,C8,00,00,00,
2972119,000000C4,false,Rx,0,7,42,03,FC,00,00,FF,F1,00,
2972344,000000CE,false,Rx,0,8,00,00,00,00,00,00,00,00,
2972568,0000019E,false,Rx,0,8,00,EA,3F,FC,FE,61,00,27,
2972795,000001A0,false,Rx,0,8,00,80,00,00,80,00,38,DA,
2973213,000002B2,false,Rx,0,8,00,00,00,00,0F,80,00,04,
2978513,000000AA,false,Rx,0,8,5E,30,FE,00,00,00,84,00,
2980300,000000A8,false,Rx,0,8,06,08,21,E0,21,1F,0F,04,
2980307,000000A9,false,Rx,0,8,F1,08,79,DF,1D,C7,E0,21,
2980312,000000BA,false,Rx,0,7,03,FF,0F,00,00,55,88,00,
2981897,000000C4,false,Rx,0,7,42,03,FC,00,00,FF,F1,00,
2984056,00000130,false,Rx,0,5,00,0E,D0,0F,21,00,00,00,
2987673,00000480,false,Rx,0,8,17,42,FD,FF,FF,FF,FF,FF,
2988467,000000AA,false,Rx,0,8,60,32,FE,00,00,00,84,00,
2988693,000000A8,false,Rx,0,8,07,09,21,E0,21,1F,0F,04,
2988930,000000A9,false,Rx,0,8,F2,09,79,DF,1D,C7,E0,21,
2989155,000000BA,false,Rx,0,7,03,FF,0F,00,00,56,89,00,
2992025,000000B6,false,Rx,0,5,04,04,80,00,C8,00,00,00,
2992249,000000C4,false,Rx,0,7,42,03,FC,00,00,FF,F1,00,
2992475,000000CE,false,Rx,0,8,00,00,00,00,00,00,00,00,
2992702,0000019E,false,Rx,0,8,00,EA,3F,FC,FE,61,00,27,
2992935,000001A0,false,Rx,0,8,00,80,00,00,80,00,48,EA,
2993160,000002B2,false,Rx,0,8,00,00,00,00,0F,80,00,04,
2995283,000001FB,false,Rx,0,2,F9,FF,00,00,00,00,00,00,
2998523,000000AA,false,Rx,0,8,62,34,FE,00,00,00,84,00,
3000320,000000A8,false,Rx,0,8,08,0A,21,E0,21,1F,0F,04,
3000327,000000A9,false,Rx,0,8,F3,0A,79,DF,1D,C7,E0,21,
3000332,000000BA,false,Rx,0,7,03,FF,0F,00,00,57,8A,00,
3001952,000000C4,false,Rx,0,7,42,03,FC,00,00,FF,F1,00,
3008423,000000AA,false,Rx,0,8,64,36,FE,00,00,00,84,00,
3008649,000000A8,false,Rx,0,8,09,0B,21,E0,21,1F,0F,04,
3008890,000000A9,false,Rx,0,8,F4,0B,79,DF,1D,C7,E0,21,
3009116,000000BA,false,Rx,0,7,03,FF,0F,00,00,58,8B,00,
3011788,000000B6,false,Rx,0,5,05,05,80,00,C8,00,00,00,
3012020,000000C4,false,Rx,0,7,42,03,FC,00,00,FF,F1,00,
3012246,000000CE,false,Rx,0,8,00,00,00,00,00,00,00,00,
3012746,0000019E,false,Rx,0,8,00,EA,3F,FC,FE,61,00,27,
3012751,000001A0,false,Rx,0,8,00,80,00,00,80,00,58,FA,
3012983,000002B2,false,Rx,0,8,00,00,00,00,0F,80,00,04,
3013443,000001A6,false,Rx,0,8,00,00,00,00,00,00,C0,F5,
3017655,00000332,false,Rx,0,2,61,82,00,00,00,00,00,00,
3017660,00000332,false,Rx,0,2,61,82,00,00,00,00,00,00,
3017900,000001D0,false,Rx,0,8,3C,76,0D,C3,00,00,CD,82,
3018123,00000332,false,Rx,0,2,61,82,00,00,00,00,00,00,
3018533,000000AA,false,Rx,0,8,66,38,FE,00,00,00,84,00,
3020313,000000A8,false,Rx,0,8,0A,0C,21,E0,21,1F,0F,04,
3020320,000000A9,false,Rx,0,8,F5,0C,79,DF,1D,C7,E0,21,
3020325,000000BA,false,Rx,0,7,03,FF,0F,00,00,59,8C,00,
3022163,000000C4,false,Rx,0,7,42,03,FC,00,00,FF,F1,00,
3022169,000001D6,false,Rx,0,2,FF,F3,00,00,00,00,00,00,
3028423,000000AA,false,Rx,0,8,68,3A,FE,00,00,00,84,00,
3028648,000000A8,false,Rx,0,8,0B,0D,21,E0,21,1F,0F,04,
3028883,000000A9,false,Rx,0,8,F6,0D,79,DF,1D,C7,E0,21,
3029108,000000BA,false,Rx,0,7,03,FF,0F,00,00,5A,8D,00,
3031975,000000B6,false,Rx,0,5,06,06,80,00,C8,00,00,00,
3032207,000000C4,false,Rx,0,7,42,03,FC,00,00,FF,F1,00,
3032432,000000CE,false,Rx,0,8,00,00,00,00,00,00,00,00,
3032657,0000019E,false,Rx,0,8,00,EA,3F,FC,FE,61,00,27,
3032897,000001A0,false,Rx,0,8,00,80,00,00,80,00,68,0B,
3033122,000002B2,false,Rx,0,8,00,00,00,00,0F,80,00,04,
3035601,00000202,false,Rx,0,2,FE,FF,00,00,00,00,00,00,
3038468,000000AA,false,Rx,0,8,6A,3C,FE,00,00,00,84,00,
3038694,000000A8,false,Rx,0,8,0C,0E,21,E0,21,1F,0F,04,
3040407,000000A9,false,Rx,0,8,F7,0E,79,DF,1D,C7,E0,21,
3040414,000000BA,false,Rx,0,7,03,FF,0F,00,00,5B,8E,00,
3041998,000000C4,false,Rx,0,7,42,03,FC,00,00,FF,F1,00,
3048360,000000AA,false,Rx,0,8,5E,30,FE,00,00,00,84,00,
3048774,000000A8,false,Rx,0,8,FD,00,21,E0,21,1F,0F,04,
3049007,000000A9,false,Rx,0,8,E9,00,79,DF,1D,C7,E0,21,
3049231,000000BA,false,Rx,0,7,03,FF,0F,00,00,4D,80,00,
3051910,000000B6,false,Rx,0,5,07,07,80,00,C8,00,00,00,
3052135,000000C4,false,Rx,0,7,42,03,FC,00,00,FF,F1,00,
3052360,000000CE,false,Rx,0,8,00,00,00,00,00,00,00,00,
3052585,0000019E,false,Rx,0,8,00,EA,3F,FC,FE,61,00,27,
3052816,000001A0,false,Rx,0,8,00,80,00,00,80,00,78,1B,
3053048,000002B2,false,Rx,0,8,00,00,00,00,0F,80,00,04,
3058542,000000AA,false,Rx,0,8,60,32,FE,00,00,00,84,00,
3058770,000000A8,false,Rx,0,8,FE,01,21,E0,21,1F,0F,04,
3060498,000000A9,false,Rx,0,8,EA,01,79,DF,1D,C7,E0,21,
3060505,000000BA,false,Rx,0,7,03,FF,0F,00,00,4E,81,00,
3061890,000000C4,false,Rx,0,7,42,03,FC,00,00,FF,F1,00,
3062134,000002A6,false,Rx,0,2,00,FC,00,00,00,00,00,00,
3068533,000000AA,false,Rx,0,8,62,34,FE,00,00,00,84,00,
3068761,000000A8,false,Rx,0,8,FF,02,21,E0,21,1F,0F,04,
3068994,000000A9,false,Rx,0,8,EB,02,79,DF,1D,C7,E0,21,
3069218,000000BA,false,Rx,0,7,03,FF,0F,00,00,4F,82,00,
3069443,00000497,false,Rx,0,8,29,52,FF,FF,FF,FF,FF,FF,
3071930,000000B6,false,Rx,0,5,08,08,80,00,C8,00,00,00,
3072155,000000C4,false,Rx,0,7,42,03,FC,00,00,FF,F1,00,
3072380,000000CE,false,Rx,0,8,00,00,00,00,00,00,00,00,
3072606,0000019E,false,Rx,0,8,00,EA,3F,FC,FE,61,00,27,
3072844,000001A0,false,Rx,0,8,00,80,00,00,80,00,88,2B,
3073070,000002B2,false,Rx,0,8,00,00,00,00,0F,80,00,04,
3073293,000005F2,false,Rx,0,8,08,04,00,FD,FF,FF,FF,FF,
3078417,000000AA,false,Rx,0,8,64,36,FE,00,00,00,84,00,
3078643,000000A8,false,Rx,0,8,00,03,21,E0,21,1F,0F,04,
3078881,000000A9,false,Rx,0,8,EC,03,79,DF,1D,C7,E0,21,
3080571,000000BA,false,Rx,0,7,03,FF,0F,00,00,50,83,00,
3082031,000000C4,false,Rx,0,7,42,03,FC,00,00,FF,F1,00,
3083987,00000130,false,Rx,0,5,00,0E,D0,0F,32,00,00,00,
3088356,000000AA,false,Rx,0,8,66,38,FE,00,00,00,84,00,
3088769,000000A8,false,Rx,0,8,02,04,21,E0,21,1F,0F,04,
3089002,000000A9,false,Rx,0,8,ED,04,79,DF,1D,C7,E0,21,
3089226,000000BA,false,Rx,0,7,03,FF,0F,00,00,51,84,00,
3091910,000000B6,false,Rx,0,5,09,09,80,00,C8,00,00,00,
3092136,000000C4,false,Rx,0,7,42,03,FC,00,00,FF,F1,00,
3092361,000000CE,false,Rx,0,8,00,00,00,00,00,00,00,00,
3092584,0000019E,false,Rx,0,8,00,EA,3F,FC,FE,61,00,27,
3092811,000001A0,false,Rx,0,8,00,80,00,00,80,00,98,3B,
3093228,000002B2,false,Rx,0,8,00,00,00,00,0F,80,00,04,
3098538,000000AA,false,Rx,0,8,68,3A,FE,00,00,00,84,00,
3098766,000000A8,false,Rx,0,8,03,05,21,E0,21,1F,0F,04,
3098998,000000A9,false,Rx,0,8,EE,05,79,DF,1D,C7,E0,21,
3100713,000000BA,false,Rx,0,7,03,FF,0F,00,00,52,85,00,
3100720,000003BE,false,Rx,0,2,B3,F0,00,00,00,00,00,00,
3101915,000000C4,false,Rx,0,7,42,03,FC,00,00,FF,F1,00,
3108423,000000AA,false,Rx,0,8,6A,3C,FE,00,00,00,84,00,
3108648,000000A8,false,Rx,0,8,04,06,21,E0,21,1F,0F,04,
3108883,000000A9,false,Rx,0,8,EF,06,79,DF,1D,C7,E0,21,
3109108,000000BA,false,Rx,0,7,03,FF,0F,00,00,53,86,00,
3111973,000000B6,false,Rx,0,5,0A,0A,80,00,C8,00,00,00,
3112197,000000C4,false,Rx,0,7,42,03,FC,00,00,FF,F1,00,
3112422,000000CE,false,Rx,0,8,00,00,00,00,00,00,00,00,
3112648,0000019E,false,Rx,0,8,00,EA,3F,FC,FE,61,00,27,
3112881,000001A0,false,Rx,0,8,00,80,00,00,80,00,A8,4B,
3113107,000002B2,false,Rx,0,8,00,00,00,00,0F,80,00,04,
3113332,000001A6,false,Rx,0,8,00,00,00,00,00,00,50,F7,
3113557,000000C8,false,Rx,0,6,3E,03,7C,00,00,CC,00,00,
3117545,00000332,false,Rx,0,2,61,82,00,00,00,00,00,00,
3117772,00000332,false,Rx,0,2,61,82,00,00,00,00,00,00,
3118037,000001D0,false,Rx,0,8,3C,76,0E,C3,00,00,CD,82,
3118042,00000332,false,Rx,0,2,61,82,00,00,00,00,00,00,
3118452,000000AA,false,Rx,0,8,6C,3E,FE,00,00,00,84,00,
3118677,000000A8,false,Rx,0,8,05,07,21,E0,21,1F,0F,04,
3118918,000000A9,false,Rx,0,8,F0,07,79,DF,1D,C7,E0,21,
3119143,000000BA,false,Rx,0,7,03,FF,0F,00,00,54,87,00,
3121994,000000C4,false,Rx,0,7,42,03,FC,00,00,FF,F1,00,
3122275,000001D6,false,Rx,0,2,FF,F3,00,00,00,00,00,00,
3122898,000002F6,false,Rx,0,2,00,F5,00,00,00,00,00,00,
3128390,000000AA,false,Rx,0,8,5E,30,FE,00,00,00,84,00,
3128615,000000A8,false,Rx,0,8,06,08,21,E0,21,1F,0F,04,
3128855,000000A9,false,Rx,0,8,F1,08,79,DF,1D,C7,E0,21,
3129079,000000BA,false,Rx,0,7,03,FF,0F,00,00,55,88,00,
3131933,000000B6,false,Rx,0,5,0B,0B,80,00,C8,00,00,00,
3132158,000000C4,false,Rx,0,7,42,03,FC,00,00,FF,F1,00,
3132383,000000CE,false,Rx,0,8,00,00,00,00,00,00,00,00,
3132608,0000019E,false,Rx,0,8,00,EA,3F,FC,FE,61,00,27,
3132848,000001A0,false,Rx,0,8,00,80,00,00,80,00,B8,5B,
3133073,000002B2,false,Rx,0,8,00,00,00,00,0F,80,00,04,
3138370,000000AA,false,Rx,0,8,60,32,FE,00,00,00,84,00,
3138785,000000A8,false,Rx,0,8,07,09,21,E0,21,1F,0F,04,
3139051,000000A9,false,Rx,0,8,F2,09,79,DF,1D,C7,E0,21,
3139057,000000BA,false,Rx,0,7,03,FF,0F,00,00,56,89,00,
3142081,000000C4,false,Rx,0,7,42,03,FC,00,00,FF,F1,00,
3148432,000000AA,false,Rx,0,8,62,34,FE,00,00,00,84,00,
3148658,000000A8,false,Rx,0,8,08,0A,21,E0,21,1F,0F,04,
3148900,000000A9,false,Rx,0,8,F3,0A,79,DF,1D,C7,E0,21,
3149124,000000BA,false,Rx,0,7,03,FF,0F,00,00,57,8A,00,
3151978,000000B6,false,Rx,0,5,0C,0C,80,00,C8,00,00,00,
3152203,000000C4,false,Rx,0,7,42,03,FC,00,00,FF,F1,00,
3152428,000000CE,false,Rx,0,8,00,00,00,00,00,00,00,00,
3152653,0000019E,false,Rx,0,8,00,EA,4F,FC,FE,61,00,37,
3152894,000001A0,false,Rx,0,8,00,80,00,00,80,00,C8,6B,
3153119,000002B2,false,Rx,0,8,00,00,00,00,0F,80,00,04,
3153344,000004A9,false,Rx,0,8,30,52,FF,FF,FF,FF,FF,FF,
3158468,000000AA,false,Rx,0,8,64,36,FE,00,00,00,84,00,
3158694,000000A8,false,Rx,0,8,09,0B,21,E0,21,1F,0F,04,
3158931,000000A9,false,Rx,0,8,F4,0B,79,DF,1D,C7,E0,21,
3159156,000000BA,false,Rx,0,7,03,FF,0F,00,00,58,8B,00,
3161975,000000C4,false,Rx,0,7,42,03,FC,00,00,FF,F1,00,
3162204,000001D2,false,Rx,0,5,E1,0C,8F,B0,F0,00,00,00,
3168516,000000AA,false,Rx,0,8,66,38,FE,00,00,00,84,00,
3168749,000000A8,false,Rx,0,8,0A,0C,21,E0,21,1F,0F,04,
3168981,000000A9,false,Rx,0,8,F5,0C,79,DF,1D,C7,E0,21,
3169206,000000BA,false,Rx,0,7,03,FF,0F,00,00,59,8C,00,
3171876,000000B6,false,Rx,0,5,0D,0D,80,00,C8,00,00,00,
3172101,000000C4,false,Rx,0,7,42,03,FC,00,00,FF,F1,00,
3172326,000000CE,false,Rx,0,8,00,00,00,00,00,00,00,00,
3172551,0000019E,false,Rx,0,8,00,EA,4F,FC,FE,61,00,37,
3172781,000001A0,false,Rx,0,8,00,80,00,00,80,00,D8,7B,
3173013,000002B2,false,Rx,0,8,00,00,00,00,0F,80,00,04,
3178490,000000AA,false,Rx,0,8,68,3A,FE,00,00,00,84,00,
3178720,000000A8,false,Rx,0,8,0B,0D,21,E0,21,1F,0F,04,
3178952,000000A9,false,Rx,0,8,F6,0D,79,DF,1D,C7,E0,21,
3179177,000000BA,false,Rx,0,7,03,FF,0F,00,00,5A,8D,00,
3182005,000000C4,false,Rx,0,7,42,03,FC,00,00,FF,F1,00,
3183976,00000130,false,Rx,0,5,00,0E,D0,0F,43,00,00,00,
3184610,000001FB,false,Rx,0,2,FA,FF,00,00,00,00,00,00,
3188430,000000AA,false,Rx,0,8,6A,3C,FE,00,00,00,84,00,
3188655,000000A8,false,Rx,0,8,0C,0E,21,E0,21,1F,0F,04,
3188896,000000A9,false,Rx,0,8,F7,0E,79,DF,1D,C7,E0,21,
3189121,000000BA,false,Rx,0,7,03,FF,0F,00,00,5B,8E,00,
3191978,000000B6,false,Rx,0,5,0E,0E,80,00,C8,00,00,00,
3192203,000000C4,false,Rx,0,7,42,03,FC,00,00,FF,F1,00,
3192428,000000CE,false,Rx,0,8,00,00,00,00,00,00,00,00,
3192653,0000019E,false,Rx,0,8,00,EA,4F,FC,FE,61,00,37,
3192894,000001A0,false,Rx,0,8,00,80,00,00,80,00,E8,8B,
3193119,000002B2,false,Rx,0,8,00,00,00,00,0F,80,00,04,
3198426,000000AA,false,Rx,0,8,5E,30,FE,00,00,00,84,00,
3198651,000000A8,false,Rx,0,8,FD,00,21,E0,21,1F,0F,04,
3198889,000000A9,false,Rx,0,8,E9,00,79,DF,1D,C7,E0,21,
3199114,000000BA,false,Rx,0,7,03,FF,0F,00,00,4D,80,00,
3201996,000000C4,false,Rx,0,7,42,03,FC,00,00,FF,F1,00,
3208477,000000AA,false,Rx,0,8,60,32,FE,00,00,00,84,00,
3208703,000000A8,false,Rx,0,8,FE,01,21,E0,21,1F,0F,04,
3208936,000000A9,false,Rx,0,8,EA,01,79,DF,1D,C7,E0,21,
3209161,000000BA,false,Rx,0,7,03,FF,0F,00,00,4E,81,00,
3212025,000000B6,false,Rx,0,5,FF,00,80,00,C8,00,00,00,
3212250,000000C4,false,Rx,0,7,42,03,FC,00,00,FF,F1,00,
3212475,000000CE,false,Rx,0,8,00,00,00,00,00,00,00,00,
3212702,0000019E,false,Rx,0,8,00,EA,4F,FC,FE,61,00,37,
3212935,000001A0,false,Rx,0,8,00,80,00,00,80,00,08,AA,
3213160,000002B2,false,Rx,0,8,00,00,00,00,0F,80,00,04,
3213385,000001A6,false,Rx,0,8,00,00,00,00,00,00,E0,F8,
3217556,00000332,false,Rx,0,2,61,82,00,00,00,00,00,00,
3217785,00000332,false,Rx,0,2,61,82,00,00,00,00,00,00,
3218049,000001D0,false,Rx,0,8,3C,76,0E,C3,00,00,CD,82,
3218054,00000332,false,Rx,0,2,61,82,00,00,00,00,00,00,
3218464,000000AA,false,Rx,0,8,62,34,FE,00,00,00,84,00,
3218689,000000A8,false,Rx,0,8,FF,02,21,E0,21,1F,0F,04,
3218928,000000A9,false,Rx,0,8,EB,02,79,DF,1D,C7,E0,21,
3219153,000000BA,false,Rx,0,7,03,FF,0F,00,00,4F,82,00,
3222276,000000C4,false,Rx,0,7,42,03,FC,00,00,FF,F1,00,
3222285,000001D6,false,Rx,0,2,FF,F3,00,00,00,00,00,00,
3228390,000000AA,false,Rx,0,8,64,36,FE,00,00,00,84,00,
3228615,000000A8,false,Rx,0,8,00,03,21,E0,21,1F,0F,04,
3228854,000000A9,false,Rx,0,8,EC,03,79,DF,1D,C7,E0,21,
3229079,000000BA,false,Rx,0,7,03,FF,0F,00,00,50,83,00,
3231934,000000B6,false,Rx,0,5,00,01,80,00,C8,00,00,00,
3232158,000000C4,false,Rx,0,7,42,03,FC,00,00,FF,F1,00,
3232383,000000CE,false,Rx,0,8,00,00,00,00,00,00,00,00,
3232608,0000019E,false,Rx,0,8,00,EA,4F,FC,FE,61,00,37,
3233024,000001A0,false,Rx,0,8,00,80,00,00,80,00,18,BA,
3233258,000002B2,false,Rx,0,8,00,00,00,00,0F,80,00,04,
3234609,000005F2,false,Rx,0,8,08,04,00,FD,FF,FF,FF,FF,
3237291,00000202,false,Rx,0,2,FE,FF,00,00,00,00,00,00,
3238456,000000AA,false,Rx,0,8,66,38,FE,00,00,00,84,00,
3238681,000000A8,false,Rx,0,8,02,04,21,E0,21,1F,0F,04,
3238919,000000A9,false,Rx,0,8,ED,04,79,DF,1D,C7,E0,21,
3239144,000000BA,false,Rx,0,7,03,FF,0F,00,00,51,84,00,
3242148,000000C4,false,Rx,0,7,42,03,FC,00,00,FF,F1,00,
3244632,000004B0,false,Rx,0,8,00,52,FE,01,FF,FF,FF,FF,
3248364,000000AA,false,Rx,0,8,68,3A,FE,00,00,00,84,00,
3248778,000000A8,false,Rx,0,8,03,05,21,E0,21,1F,0F,04,
3249010,000000A9,false,Rx,0,8,EE,05,79,DF,1D,C7,E0,21,
3249235,000000BA,false,Rx,0,7,03,FF,0F,00,00,52,85,00,
3251915,000000B6,false,Rx,0,5,02,02,80,00,C8,00,00,00,
3252139,000000C4,false,Rx,0,7,42,03,FC,00,00,FF,F1,00,
3252550,000000CE,false,Rx,0,8,00,00,00,00,00,00,00,00,
3252778,0000019E,false,Rx,0,8,00,EA,4F,FC,FE,61,00,37,
3253010,000001A0,false,Rx,0,8,00,80,00,00,80,00,28,CA,
3253235,000002B2,false,Rx,0,8,00,00,00,00,0F,80,00,04,
3258542,000000AA,false,Rx,0,8,6A,3C,FE,00,00,00,84,00,
3258770,000000A8,false,Rx,0,8,04,06,21,E0,21,1F,0F,04,
3259002,000000A9,false,Rx,0,8,EF,06,79,DF,1D,C7,E0,21,
3259227,000000BA,false,Rx,0,7,03,FF,0F,00,00,53,86,00,
3262051,000000C4,false,Rx,0,7,42,03,FC,00,00,FF,F1,00,
3268394,000000AA,false,Rx,0,8,6C,3E,FE,00,00,00,84,00,
3268622,000000A8,false,Rx,0,8,05,07,21,E0,21,1F,0F,04,
3268861,000000A9,false,Rx,0,8,F0,07,79,DF,1D,C7,E0,21,
3269086,000000BA,false,Rx,0,7,03,FF,0F,00,00,54,87,00,
3271942,000000B6,false,Rx,0,5,03,03,80,00,C8,00,00,00,
3272174,000000C4,false,Rx,0,7,42,03,FC,00,00,FF,F1,00,
3272399,000000CE,false,Rx,0,8,00,00,00,00,00,00,00,00,
3272624,0000019E,false,Rx,0,8,00,EA,4F,FC,FE,61,00,37,
3272861,000001A0,false,Rx,0,8,00,80,00,00,80,00,38,DA,
3273086,000002B2,false,Rx,0,8,00,00,00,00,0F,80,00,04,
3278393,000000AA,false,Rx,0,8,5E,30,FE,00,00,00,84,00,
3278617,000000A8,false,Rx,0,8,06,08,21,E0,21,1F,0F,04,
3278858,000000A9,false,Rx,0,8,F1,08,79,DF,1D,C7,E0,21,
3279083,000000BA,false,Rx,0,7,03,FF,0F,00,00,55,88,00,
3281942,000000C4,false,Rx,0,7,42,03,FC,00,00,FF,F1,00,
3283952,00000130,false,Rx,0,5,00,0E,D0,0F,54,00,00,00,
3288523,000000AA,false,Rx,0,8,60,32,FE,00,00,00,84,00,
3288756,000000A8,false,Rx,0,8,07,09,21,E0,21,1F,0F,04,
3288988,000000A9,false,Rx,0,8,F2,09,79,DF,1D,C7,E0,21,
3289214,000000BA,false,Rx,0,7,03,FF,0F,00,00,56,89,00,
3291889,000000B6,false,Rx,0,5,04,04,80,00,C8,00,00,00,
3292114,000000C4,false,Rx,0,7,42,03,FC,00,00,FF,F1,00,
3292525,000000CE,false,Rx,0,8,00,00,00,00,00,00,00,00,
3292756,0000019E,false,Rx,0,8,00,EA,4F,FC,FE,61,00,37,
3292988,000001A0,false,Rx,0,8,00,80,00,00,80,00,48,EA,
3293213,000002B2,false,Rx,0,8,00,00,00,00,0F,80,00,04,
3298512,000000AA,false,Rx,0,8,62,34,FE,00,00,00,84,00,
3298742,000000A8,false,Rx,0,8,08,0A,21,E0,21,1F,0F,04,
3298974,000000A9,false,Rx,0,8,F3,0A,79,DF,1D,C7,E0,21,
3299199,000000BA,false,Rx,0,7,03,FF,0F,00,00,57,8A,00,
3302060,000000C4,false,Rx,0,7,42,03,FC,00,00,FF,F1,00,
3308396,000000AA,false,Rx,0,8,64,36,FE,00,00,00,84,00,
3308621,000000A8,false,Rx,0,8,09,0B,21,E0,21,1F,0F,04,
3308859,000000A9,false,Rx,0,8,F4,0B,79,DF,1D,C7,E0,21,
3309083,000000BA,false,Rx,0,7,03,FF,0F,00,00,58,8B,00,
3311946,000000B6,false,Rx,0,5,05,05,80,00,C8,00,00,00,
3312171,000000C4,false,Rx,0,7,42,03,FC,00,00,FF,F1,00,
3312396,000000CE,false,Rx,0,8,00,00,00,00,00,00,00,00,
3312621,0000019E,false,Rx,0,8,00,EA,4F,FC,FE,61,00,37,
3312859,000001A0,false,Rx,0,8,00,80,00,00,80,00,58,FA,
3313084,000002B2,false,Rx,0,8,00,00,00,00,0F,80,00,04,
3313309,000001A6,false,Rx,0,8,00,00,00,00,00,00,70,FA,
3313535,000000C8,false,Rx,0,6,3E,03,CC,00,00,EC,00,00,
3317525,00000332,false,Rx,0,2,61,82,00,00,00,00,00,00,
3317755,00000332,false,Rx,0,2,61,82,00,00,00,00,00,00,
3318020,000001D0,false,Rx,0,8,3C,76,00,C3,00,00,CD,82,
3318025,00000332,false,Rx,0,2,61,82,00,00,00,00,00,00,
3318436,000000AA,false,Rx,0,8,66,38,FE,00,00,00,84,00,
3318661,000000A8,false,Rx,0,8,0A,0C,21,E0,21,1F,0F,04,
3318899,000000A9,false,Rx,0,8,F5,0C,79,DF,1D,C7,E0,21,
3319124,000000BA,false,Rx,0,7,03,FF,0F,00,00,59,8C,00,
3322164,000000C4,false,Rx,0,7,42,03,FC,00,00,FF,F1,00,
3322172,000001D6,false,Rx,0,2,FF,F3,00,00,00,00,00,00,
3327924,00000480,false,Rx,0,8,17,42,FD,FF,FF,FF,FF,FF,
3328520,000000AA,false,Rx,0,8,68,3A,FE,00,00,00,84,00,
3328748,000000A8,false,Rx,0,8,0B,0D,21,E0,21,1F,0F,04,
3328981,000000A9,false,Rx,0,8,F6,0D,79,DF,1D,C7,E0,21,
3329206,000000BA,false,Rx,0,7,03,FF,0F,00,00,5A,8D,00,
3332061,000000B6,false,Rx,0,5,06,06,80,00,C8,00,00,00,
3332286,000000C4,false,Rx,0,7,42,03,FC,00,00,FF,F1,00,
3332510,000000CE,false,Rx,0,8,00,00,00,00,00,00,00,00,
3332742,0000019E,false,Rx,0,8,00,EA,4F,FC,FE,61,00,37,
3332974,000001A0,false,Rx,0,8,00,80,00,00,80,00,68,0B,
3333199,000002B2,false,Rx,0,8,00,00,00,00,0F,80,00,04,
3338501,000000AA,false,Rx,0,8,6A,3C,FE,00,00,00,84,00,
3338729,000000A8,false,Rx,0,8,0C,0E,21,E0,21,1F,0F,04,
3338962,000000A9,false,Rx,0,8,F7,0E,79,DF,1D,C7,E0,21,
3339186,000000BA,false,Rx,0,7,03,FF,0F,00,00,5B,8E,00,
3342015,000000C4,false,Rx,0,7,42,03,FC,00,00,FF,F1,00,
3348541,000000AA,false,Rx,0,8,5E,30,FE,00,00,00,84,00,
3348769,000000A8,false,Rx,0,8,FD,00,21,E0,21,1F,0F,04,
3349000,000000A9,false,Rx,0,8,E9,00,79,DF,1D,C7,E0,21,
3349225,000000BA,false,Rx,0,7,03,FF,0F,00,00,4D,80,00,
3351904,000000B6,false,Rx,0,5,07,07,80,00,C8,00,00,00,
3352128,000000C4,false,Rx,0,7,42,03,FC,00,00,FF,F1,00,
3352354,000000CE,false,Rx,0,8,00,00,00,00,00,00,00,00,
3352578,0000019E,false,Rx,0,8,00,EA,5F,FC,FE,61,00,47,
3352999,000001A0,false,Rx,0,8,00,80,00,00,80,00,78,1B,
3353224,000002B2,false,Rx,0,8,00,00,00,00,0F,80,00,04,
3358526,000000AA,false,Rx,0,8,60,32,FE,00,00,00,84,00,
3358759,000000A8,false,Rx,0,8,FE,01,21,E0,21,1F,0F,04,
3358991,000000A9,false,Rx,0,8,EA,01,79,DF,1D,C7,E0,21,
3359216,000000BA,false,Rx,0,7,03,FF,0F,00,00,4E,81,00,
3362050,000000C4,false,Rx,0,7,42,03,FC,00,00,FF,F1,00,
3362292,000001D2,false,Rx,0,5,E1,0C,8F,C0,F0,00,00,00,
3368408,000000AA,false,Rx,0,8,62,34,FE,00,00,00,84,00,
3368634,000000A8,false,Rx,0,8,FF,02,21,E0,21,1F,0F,04,
3368873,000000A9,false,Rx,0,8,EB,02,79,DF,1D,C7,E0,21,
3369097,000000BA,false,Rx,0,7,03,FF,0F,00,00,4F,82,00,
3371966,000000B6,false,Rx,0,5,08,08,80,00,C8,00,00,00,
3372005,000000C4,false,Rx,0,7,42,03,FC,00,00,FF,F1,00,
3372415,000000CE,false,Rx,0,8,00,00,00,00,00,00,00,00,
3372640,0000019E,false,Rx,0,8,00,EA,5F,FC,FE,61,00,47,
3372879,000001A0,false,Rx,0,8,00,80,00,00,80,00,88,2B,
3373104,000002B2,false,Rx,0,8,00,00,00,00,0F,80,00,04,
3375398,000001FB,false,Rx,0,2,FB,FF,00,00,00,00,00,00,
3378447,000000AA,false,Rx,0,8,64,36,FE,00,00,00,84,00,
3378672,000000A8,false,Rx,0,8,00,03,21,E0,21,1F,0F,04,
3378911,000000A9,false,Rx,0,8,EC,03,79,DF,1D,C7,E0,21,
3379137,000000BA,false,Rx,0,7,03,FF,0F,00,00,50,83,00,
3381939,000000C4,false,Rx,0,7,42,03,FC,00,00,FF,F1,00,
3384313,000002FC,false,Rx,0,7,35,00,00,FF,FF,FF,FF,00,
3385294,00000130,false,Rx,0,5,00,0E,D0,0F,65,00,00,00,
3388533,000000AA,false,Rx,0,8,66,38,FE,00,00,00,84,00,
3388761,000000A8,false,Rx,0,8,02,04,21,E0,21,1F,0F,04,
3389006,000000A9,false,Rx,0,8,ED,04,79,DF,1D,C7,E0,21,
3389244,000000BA,false,Rx,0,7,03,FF,0F,00,00,51,84,00,
3391925,000000B6,false,Rx,0,5,09,09,80,00,C8,00,00,00,
3392150,000000C4,false,Rx,0,7,42,03,FC,00,00,FF,F1,00,
3392375,000000CE,false,Rx,0,8,00,00,00,00,00,00,00,00,
3392600,0000019E,false,Rx,0,8,00,EA,5F,FC,FE,61,00,47,
3393025,000001A0,false,Rx,0,8,00,80,00,00,80,00,98,3B,
3393251,000002B2,false,Rx,0,8,00,00,00,00,0F,80,00,04,
3393859,00000330,false,Rx,0,8,A8,51,06,11,13,0C,6C,25,
3398423,000000AA,false,Rx,0,8,68,3A,FE,00,00,00,84,00,
3398648,000000A8,false,Rx,0,8,03,05,21,E0,21,1F,0F,04,
3398883,000000A9,false,Rx,0,8,EE,05,79,DF,1D,C7,E0,21,
3399108,000000BA,false,Rx,0,7,03,FF,0F,00,00,52,85,00,
3402112,000000C4,false,Rx,0,7,42,03,FC,00,00,FF,F1,00,
3408488,000000AA,false,Rx,0,8,6A,3C,FE,00,00,00,84,00,
3408720,000000A8,false,Rx,0,8,04,06,21,E0,21,1F,0F,04,
3408952,000000A9,false,Rx,0,8,EF,06,79,DF,1D,C7,E0,21,
3409177,000000BA,false,Rx,0,7,03,FF,0F,00,00,53,86,00,
3409402,000002F8,false,Rx,0,8,13,0A,34,0E,9F,E8,07,FD,
3409627,00000497,false,Rx,0,8,29,52,FF,FF,FF,FF,FF,FF,
3411931,000000B6,false,Rx,0,5,0A,0A,80,00,C8,00,00,00,
3412156,000000C4,false,Rx,0,7,42,03,FC,00,00,FF,F1,00,
3412381,000000CE,false,Rx,0,8,00,00,00,00,00,00,00,00,
3412800,0000019E,false,Rx,0,8,00,EA,5F,FC,FE,61,00,47,
3413031,000001A0,false,Rx,0,8,00,80,00,00,80,00,A8,4B,
3413256,000002B2,false,Rx,0,8,00,00,00,00,0F,80,00,04,
3413482,000001A6,false,Rx,0,8,00,00,00,00,00,00,00,FC,
3417696,00000332,false,Rx,0,2,61,82,00,00,00,00,00,00,
3417701,00000332,false,Rx,0,2,61,82,00,00,00,00,00,00,
3417933,000001D0,false,Rx,0,8,3C,76,00,C3,00,00,CD,82,
3418158,00000332,false,Rx,0,2,61,82,00,00,00,00,00,00,
3418383,000000AA,false,Rx,0,8,6C,3E,FE,00,00,00,84,00,
3418606,000000A8,false,Rx,0,8,05,07,21,E0,21,1F,0F,04,
3418843,000000A9,false,Rx,0,8,F0,07,79,DF,1D,C7,E0,21,
3419068,000000BA,false,Rx,0,7,03,FF,0F,00,00,54,87,00,
3422238,000000C4,false,Rx,0,7,42,03,FC,00,00,FF,F1,00,
3422245,000001D6,false,Rx,0,2,FF,F3,00,00,00,00,00,00,
3428369,000000AA,false,Rx,0,8,5E,30,FE,00,00,00,84,00,
3428784,000000A8,false,Rx,0,8,06,08,21,E0,21,1F,0F,04,
3429051,000000A9,false,Rx,0,8,F1,08,79,DF,1D,C7,E0,21,
3429056,000000BA,false,Rx,0,7,03,FF,0F,00,00,55,88,00,
3431924,000000B6,false,Rx,0,5,0B,0B,80,00,C8,00,00,00,
3432149,000000C4,false,Rx,0,7,42,03,FC,00,00,FF,F1,00,
3432374,000000CE,false,Rx,0,8,00,00,00,00,00,00,00,00,
3432599,0000019E,false,Rx,0,8,00,EA,5F,FC,FE,61,00,47,
3432831,000001A0,false,Rx,0,8,00,80,00,00,80,00,B8,5B,
3433249,000002B2,false,Rx,0,8,00,00,00,00,0F,80,00,04,
3438497,000000AA,false,Rx,0,8,60,32,FE,00,00,00,84,00,
3438731,000000A8,false,Rx,0,8,07,09,21,E0,21,1F,0F,04,
3438963,000000A9,false,Rx,0,8,F2,09,79,DF,1D,C7,E0,21,
3439187,000000BA,false,Rx,0,7,03,FF,0F,00,00,56,89,00,
3442316,000000C4,false,Rx,0,7,42,03,FC,00,00,FF,F1,00,
3448472,000000AA,false,Rx,0,8,62,34,FE,00,00,00,84,00,
3448702,000000A8,false,Rx,0,8,08,0A,21,E0,21,1F,0F,04,
3448934,000000A9,false,Rx,0,8,F3,0A,79,DF,1D,C7,E0,21,
3449159,000000BA,false,Rx,0,7,03,FF,0F,00,00,57,8A,00,
3452021,000000B6,false,Rx,0,5,0C,0C,80,00,C8,00,00,00,
3452246,000000C4,false,Rx,0,7,42,03,FC,00,00,FF,F1,00,
3452469,000000CE,false,Rx,0,8,00,00,00,00,00,00,00,00,
3452695,0000019E,false,Rx,0,8,00,EA,5F,FC,FE,61,00,47,
3452933,000001A0,false,Rx,0,8,00,80,00,00,80,00,C8,6B,
3453158,000002B2,false,Rx,0,8,00,00,00,00,0F,80,00,04,
3458468,000000AA,false,Rx,0,8,64,36,FE,00,00,00,84,00,
3458693,000000A8,false,Rx,0,8,09,0B,21,E0,21,1F,0F,04,
3458931,000000A9,false,Rx,0,8,F4,0B,79,DF,1D,C7,E0,21,
3459156,000000BA,false,Rx,0,7,03,FF,0F,00,00,58,8B,00,
3462499,000000C4,false,Rx,0,7,42,03,FC,00,00,FF,F1,00,
3468489,000000AA,false,Rx,0,8,66,38,FE,00,00,00,84,00,
3468720,000000A8,false,Rx,0,8,0A,0C,21,E0,21,1F,0F,04,
3468952,000000A9,false,Rx,0,8,F5,0C,79,DF,1D,C7,E0,21,
3469177,000000BA,false,Rx,0,7,03,FF,0F,00,00,59,8C,00,
3471857,000000B6,false,Rx,0,5,0D,0D,80,00,C8,00,00,00,
3472081,000000C4,false,Rx,0,7,42,03,FC,00,00,FF,F1,00,
3472491,000000CE,false,Rx,0,8,00,00,00,00,00,00,00,00,
3472724,0000019E,false,Rx,0,8,00,EA,5F,FC,FE,61,00,47,
3472956,000001A0,false,Rx,0,8,00,80,00,00,80,00,D8,7B,
3473182,000002B2,false,Rx,0,8,00,00,00,00,0F,80,00,04,
3478483,000000AA,false,Rx,0,8,68,3A,FE,00,00,00,84,00,
3478716,000000A8,false,Rx,0,8,0B,0D,21,E0,21,1F,0F,04,
3478949,000000A9,false,Rx,0,8,F6,0D,79,DF,1D,C7,E0,21,
3479174,000000BA,false,Rx,0,7,03,FF,0F,00,00,5A,8D,00,
3482536,000000C4,false,Rx,0,7,42,03,FC,00,00,FF,F1,00,
3483914,00000130,false,Rx,0,5,00,0E,D0,0F,76,00,00,00,
3488370,000000AA,false,Rx,0,8,6A,3C,FE,00,00,00,84,00,
3488784,000000A8,false,Rx,0,8,0C,0E,21,E0,21,1F,0F,04,
3489017,000000A9,false,Rx,0,8,F7,0E,79,DF,1D,C7,E0,21,
3489056,000000BA,false,Rx,0,7,03,FF,0F,00,00,5B,8E,00,
3491949,000000B6,false,Rx,0,5,0E,0E,80,00,C8,00,00,00,
3492173,000000C4,false,Rx,0,7,42,03,FC,00,00,FF,F1,00,
3492398,000000CE,false,Rx,0,8,00,00,00,00,00,00,00,00,
3492817,0000019E,false,Rx,0,8,00,EA,5F,FC,FE,61,00,47,
3493048,000001A0,false,Rx,0,8,00,80,00,00,80,00,E8,8B,
3493273,000002B2,false,Rx,0,8,00,00,00,00,0F,80,00,04,
3493498,000004A9,false,Rx,0,8,30,52,FF,FF,FF,FF,FF,FF,
3498433,000000AA,false,Rx,0,8,5E,30,FE,00,00,00,84,00,
3498658,000000A8,false,Rx,0,8,FD,00,21,E0,21,1F,0F,04,
3498899,000000A9,false,Rx,0,8,E9,00,79,DF,1D,C7,E0,21,
3499125,000000BA,false,Rx,0,7,03,FF,0F,00,00,4D,80,00,
3502663,000000C4,false,Rx,0,7,42,03,FC,00,00,FF,F1,00,
3508468,000000AA,false,Rx,0,8,60,32,FE,00,00,00,84,00,
3508695,000000A8,false,Rx,0,8,FE,01,21,E0,21,1F,0F,04,
3508934,000000A9,false,Rx,0,8,EA,01,79,DF,1D,C7,E0,21,
3509158,000000BA,false,Rx,0,7,03,FF,0F,00,00,4E,81,00,
3512024,000000B6,false,Rx,0,5,FF,00,80,00,C8,00,00,00,
3512247,000000C4,false,Rx,0,7,42,03,FC,00,00,FF,F1,00,
3512472,000000CE,false,Rx,0,8,00,00,00,00,00,00,00,00,
3512699,0000019E,false,Rx,0,8,00,EA,5F,FC,FE,61,00,47,
3512925,000001A0,false,Rx,0,8,00,80,00,00,80,00,08,AA,
3513158,000002B2,false,Rx,0,8,00,00,00,00,0F,80,00,04,
3513384,000001A6,false,Rx,0,8,00,00,00,00,00,00,90,FD,
3513609,000000C8,false,Rx,0,6,3E,03,2C,00,00,0C,00,00,
3513849,00000374,false,Rx,0,5,00,00,00,00,FC,00,00,00,
3517543,00000332,false,Rx,0,2,61,82,00,00,00,00,00,00,
3517772,00000332,false,Rx,0,2,61,82,00,00,00,00,00,00,
3518038,000001D0,false,Rx,0,8,3C,76,01,C3,00,00,CD,82,
3518043,00000332,false,Rx,0,2,61,82,00,00,00,00,00,00,
3518454,000000AA,false,Rx,0,8,62,34,FE,00,00,00,84,00,
3518679,000000A8,false,Rx,0,8,FF,02,21,E0,21,1F,0F,04,
3518921,000000A9,false,Rx,0,8,EB,02,79,DF,1D,C7,E0,21,
3519146,000000BA,false,Rx,0,7,03,FF,0F,00,00,4F,82,00,
3522689,000000C4,false,Rx,0,7,42,03,FC,00,00,FF,F1,00,
3522696,000001D6,false,Rx,0,2,FF,F3,00,00,00,00,00,00,
3528508,000000AA,false,Rx,0,8,64,36,FE,00,00,00,84,00,
3528742,000000A8,false,Rx,0,8,00,03,21,E0,21,1F,0F,04,
3528974,000000A9,false,Rx,0,8,EC,03,79,DF,1D,C7,E0,21,
3529199,000000BA,false,Rx,0,7,03,FF,0F,00,00,50,83,00,
3532089,000000B6,false,Rx,0,5,00,01,80,00,C8,00,00,00,
3532314,000000C4,false,Rx,0,7,42,03,FC,00,00,FF,F1,00,
3532539,000000CE,false,Rx,0,8,00,00,00,00,00,00,00,00,
3532767,0000019E,false,Rx,0,8,00,EA,5F,FC,FE,61,00,47,
3532994,000001A0,false,Rx,0,8,00,80,00,00,80,00,18,BA,
3533219,000002B2,false,Rx,0,8,00,00,00,00,0F,80,00,04,
3538523,000000AA,false,Rx,0,8,66,38,FE,00,00,00,84,00,
3538755,000000A8,false,Rx,0,8,02,04,21,E0,21,1F,0F,04,
3538986,000000A9,false,Rx,0,8,ED,04,79,DF,1D,C7,E0,21,
3539211,000000BA,false,Rx,0,7,03,FF,0F,00,00,51,84,00,
3542709,000000C4,false,Rx,0,7,42,03,FC,00,00,FF,F1,00,
3548482,000000AA,false,Rx,0,8,68,3A,FE,00,00,00,84,00,
3548716,000000A8,false,Rx,0,8,03,05,21,E0,21,1F,0F,04,
3548948,000000A9,false,Rx,0,8,EE,05,79,DF,1D,C7,E0,21,
3549173,000000BA,false,Rx,0,7,03,FF,0F,00,00,52,85,00,
3552034,000000B6,false,Rx,0,5,02,02,80,00,C8,00,00,00,
3552259,000000C4,false,Rx,0,7,42,03,FC,00,00,FF,F1,00,
3552484,000000CE,false,Rx,0,8,00,00,00,00,00,00,00,00,
3552716,0000019E,false,Rx,0,8,00,EA,5F,FC,FE,61,00,47,
3552949,000001A0,false,Rx,0,8,00,80,00,00,80,00,28,CA,
3553174,000002B2,false,Rx,0,8,00,00,00,00,0F,80,00,04,
3558482,000000AA,false,Rx,0,8,6A,3C,FE,00,00,00,84,00,
3558716,000000A8,false,Rx,0,8,04,06,21,E0,21,1F,0F,04,
3558948,000000A9,false,Rx,0,8,EF,06,79,DF,1D,C7,E0,21,
3559173,000000BA,false,Rx,0,7,03,FF,0F,00,00,53,86,00,
3562940,000000C4,false,Rx,0,7,42,03,FC,00,00,FF,F1,00,
3562947,000001D2,false,Rx,0,5,E1,0C,8F,D0,F0,00,00,00,
3565496,000001FB,false,Rx,0,2,FC,FF,00,00,00,00,00,00,
3568367,000000AA,false,Rx,0,8,6C,3E,FE,00,00,00,84,00,
3568781,000000A8,false,Rx,0,8,05,07,21,E0,21,1F,0F,04,
3569013,000000A9,false,Rx,0,8,F0,07,79,DF,1D,C7,E0,21,
3569238,000000BA,false,Rx,0,7,03,FF,0F,00,00,54,87,00,
3571920,000000B6,false,Rx,0,5,03,03,80,00,C8,00,00,00,
3572145,000000C4,false,Rx,0,7,42,03,FC,00,00,FF,F1,00,
3572370,000000CE,false,Rx,0,8,00,00,00,00,00,00,00,00,
3572595,0000019E,false,Rx,0,8,00,EA,6F,FC,FE,61,00,57,
3572829,000001A0,false,Rx,0,8,00,80,00,00,80,00,38,DA,
3573061,000002B2,false,Rx,0,8,00,00,00,00,0F,80,00,04,
3577992,000005F2,false,Rx,0,8,08,04,00,FE,FF,FF,FF,FF,
3578401,000000AA,false,Rx,0,8,5E,30,FE,00,00,00,84,00,
3578626,000000A8,false,Rx,0,8,06,08,21,E0,21,1F,0F,04,
3578867,000000A9,false,Rx,0,8,F1,08,79,DF,1D,C7,E0,21,
3579092,000000BA,false,Rx,0,7,03,FF,0F,00,00,55,88,00,
3580447,000002FC,false,Rx,0,7,84,00,00,FF,FF,FF,FF,00,
3583086,000000C4,false,Rx,0,7,42,03,FC,00,00,FF,F1,00,
3583893,000001B5,false,Rx,0,7,C8,FF,04,00,88,FF,FF,00,
3584491,000004B0,false,Rx,0,8,00,52,FE,01,FF,FF,FF,FF,
3585286,00000130,false,Rx,0,5,00,0E,D0,0F,87,00,00,00,
3588388,000000AA,false,Rx,0,8,60,32,FE,00,00,00,84,00,
3588612,000000A8,false,Rx,0,8,07,09,21,E0,21,1F,0F,04,
3588851,000000A9,false,Rx,0,8,F2,09,79,DF,1D,C7,E0,21,
3589076,000000BA,false,Rx,0,7,03,FF,0F,00,00,56,89,00,
3591934,000000B6,false,Rx,0,5,04,04,80,00,C8,00,00,00,
3592158,000000C4,false,Rx,0,7,42,03,FC,00,00,FF,F1,00,
3592382,000000CE,false,Rx,0,8,00,00,00,00,00,00,00,00,
3592800,0000019E,false,Rx,0,8,00,EA,6F,FC,FE,61,00,57,
3593031,000001A0,false,Rx,0,8,00,80,00,00,80,00,48,EA,
3593256,000002B2,false,Rx,0,8,00,00,00,00,0F,80,00,04,
3598405,000000AA,false,Rx,0,8,62,34,FE,00,00,00,84,00,
3598630,000000A8,false,Rx,0,8,08,0A,21,E0,21,1F,0F,04,
3598867,000000A9,false,Rx,0,8,F3,0A,79,DF,1D,C7,E0,21,
3599091,000000BA,false,Rx,0,7,03,FF,0F,00,00,57,8A,00,
3603245,000000C4,false,Rx,0,7,42,03,FC,00,00,FF,F1,00,
3608478,000000AA,false,Rx,0,8,64,36,FE,00,00,00,84,00,
3608707,000000A8,false,Rx,0,8,09,0B,21,E0,21,1F,0F,04,
3608939,000000A9,false,Rx,0,8,F4,0B,79,DF,1D,C7,E0,21,
3609164,000000BA,false,Rx,0,7,03,FF,0F,00,00,58,8B,00,
3611841,000000B6,false,Rx,0,5,05,05,80,00,C8,00,00,00,
3612066,000000C4,false,Rx,0,7,42,03,FC,00,00,FF,F1,00,
3612291,000000CE,false,Rx,0,8,00,00,00,00,00,00,00,00,
3612703,0000019E,false,Rx,0,8,00,EA,6F,FC,FE,61,00,57,
3612936,000001A0,false,Rx,0,8,00,80,00,00,80,00,58,FA,
3613162,000002B2,false,Rx,0,8,00,00,00,00,0F,80,00,04,
3613387,000001A6,false,Rx,0,8,00,00,00,00,00,00,20,FF,
3617554,00000332,false,Rx,0,2,61,82,00,00,00,00,00,00,
3617782,00000332,false,Rx,0,2,61,82,00,00,00,00,00,00,
3618047,000001D0,false,Rx,0,8,3C,76,01,C3,00,00,CD,82,
3618052,00000332,false,Rx,0,2,61,82,00,00,00,00,00,00,
3618463,000000AA,false,Rx,0,8,66,38,FE,00,00,00,84,00,
3618688,000000A8,false,Rx,0,8,0A,0C,21,E0,21,1F,0F,04,
3618925,000000A9,false,Rx,0,8,F5,0C,79,DF,1D,C7,E0,21,
3619150,000000BA,false,Rx,0,7,03,FF,0F,00,00,59,8C,00,
3623309,000000C4,false,Rx,0,7,42,03,FC,00,00,FF,F1,00,
3623316,000001D6,false,Rx,0,2,FF,F3,00,00,00,00,00,00,
3628529,000000AA,false,Rx,0,8,68,3A,FE,00,00,00,84,00,
3628758,000000A8,false,Rx,0,8,0B,0D,21,E0,21,1F,0F,04,
3628990,000000A9,false,Rx,0,8,F6,0D,79,DF,1D,C7,E0,21,
3629215,000000BA,false,Rx,0,7,03,FF,0F,00,00,5A,8D,00,
3631894,000000B6,false,Rx,0,5,06,06,80,00,C8,00,00,00,
3632119,000000C4,false,Rx,0,7,42,03,FC,00,00,FF,F1,00,
3632529,000000CE,false,Rx,0,8,00,00,00,00,00,00,00,00,
3632758,0000019E,false,Rx,0,8,00,EA,6F,FC,FE,61,00,57,
3632989,000001A0,false,Rx,0,8,00,80,00,00,80,00,68,0B,
3633214,000002B2,false,Rx,0,8,00,00,00,00,0F,80,00,04,
3638338,00000330,false,Rx,0,8,A8,51,06,12,16,0E,DC,25,
3638563,000000A8,false,Rx,0,8,0C,0E,21,E0,21,1F,0F,04,
3638792,000000A9,false,Rx,0,8,F7,0E,79,DF,1D,C7,E0,21,
3639024,000000AA,false,Rx,0,8,6A,3C,FE,00,00,00,84,00,
3639249,000000BA,false,Rx,0,7,03,FF,0F,00,00,5B,8E,00,
3643368,000000C4,false,Rx,0,7,42,03,FC,00,00,FF,F1,00,
3648503,000000AA,false,Rx,0,8,5E,30,FE,00,00,00,84,00,
3648732,000000A8,false,Rx,0,8,FD,00,21,E0,21,1F,0F,04,
3648964,000000A9,false,Rx,0,8,E9,00,79,DF,1D,C7,E0,21,
3649189,000000BA,false,Rx,0,7,03,FF,0F,00,00,4D,80,00,
3652049,000000B6,false,Rx,0,5,07,07,80,00,C8,00,00,00,
3652274,000000C4,false,Rx,0,7,42,03,FC,00,00,FF,F1,00,
3652499,000000CE,false,Rx,0,8,00,00,00,00,00,00,00,00,
3652728,0000019E,false,Rx,0,8,00,EA,6F,FC,FE,61,00,57,
3652960,000001A0,false,Rx,0,8,00,80,00,00,80,00,78,1B,
3653185,000002B2,false,Rx,0,8,00,00,00,00,0F,80,00,04,
3658482,000000AA,false,Rx,0,8,60,32,FE,00,00,00,84,00,
3658716,000000A8,false,Rx,0,8,FE,01,21,E0,21,1F,0F,04,
3658948,000000A9,false,Rx,0,8,EA,01,79,DF,1D,C7,E0,21,
3659173,000000BA,false,Rx,0,7,03,FF,0F,00,00,4E,81,00,
3663574,000000C4,false,Rx,0,7,42,03,FC,00,00,FF,F1,00,
3667869,00000480,false,Rx,0,8,17,42,FD,FF,FF,FF,FF,FF,
3668466,000000AA,false,Rx,0,8,62,34,FE,00,00,00,84,00,
3668692,000000A8,false,Rx,0,8,FF,02,21,E0,21,1F,0F,04,
3668930,000000A9,false,Rx,0,8,EB,02,79,DF,1D,C7,E0,21,
3669155,000000BA,false,Rx,0,7,03,FF,0F,00,00,4F,82,00,
3672025,000000B6,false,Rx,0,5,08,08,80,00,C8,00,00,00,
3672249,000000C4,false,Rx,0,7,42,03,FC,00,00,FF,F1,00,
3672474,000000CE,false,Rx,0,8,00,00,00,00,00,00,00,00,
3672702,0000019E,false,Rx,0,8,00,EA,6F,FC,FE,61,00,57,
3672935,000001A0,false,Rx,0,8,00,80,00,00,80,00,88,2B,
3673160,000002B2,false,Rx,0,8,00,00,00,00,0F,80,00,04,
3678468,000000AA,false,Rx,0,8,64,36,FE,00,00,00,84,00,
3678694,000000A8,false,Rx,0,8,00,03,21,E0,21,1F,0F,04,
3678930,000000A9,false,Rx,0,8,EC,03,79,DF,1D,C7,E0,21,
3679156,000000BA,false,Rx,0,7,03,FF,0F,00,00,50,83,00,
3682022,000000C4,false,Rx,0,7,42,03,FC,00,00,FF,F1,00,
3683875,00000130,false,Rx,0,5,00,0E,D0,0F,98,00,00,00,
3688501,000000AA,false,Rx,0,8,66,38,FE,00,00,00,84,00,
3688729,000000A8,false,Rx,0,8,02,04,21,E0,21,1F,0F,04,
3688961,000000A9,false,Rx,0,8,ED,04,79,DF,1D,C7,E0,21,
3689186,000000BA,false,Rx,0,7,03,FF,0F,00,00,51,84,00,
3692051,000000B6,false,Rx,0,5,09,09,80,00,C8,00,00,00,
3692276,000000C4,false,Rx,0,7,42,03,FC,00,00,FF,F1,00,
3692501,000000CE,false,Rx,0,8,00,00,00,00,00,00,00,00,
3692729,0000019E,false,Rx,0,8,00,EA,6F,FC,FE,61,00,57,
3692961,000001A0,false,Rx,0,8,00,80,00,00,80,00,98,3B,
3693186,000002B2,false,Rx,0,8,00,00,00,00,0F,80,00,04,
3698513,000000AA,false,Rx,0,8,68,3A,FE,00,00,00,84,00,
3698746,000000A8,false,Rx,0,8,03,05,21,E0,21,1F,0F,04,
3698993,000000A9,false,Rx,0,8,EE,05,79,DF,1D,C7,E0,21,
3699218,000000BA,false,Rx,0,7,03,FF,0F,00,00,52,85,00,
3702080,000000C4,false,Rx,0,7,42,03,FC,00,00,FF,F1,00,
3708548,000000AA,false,Rx,0,8,6A,3C,FE,00,00,00,84,00,
3708782,000000A8,false,Rx,0,8,04,06,21,E0,21,1F,0F,04,
3709013,000000A9,false,Rx,0,8,EF,06,79,DF,1D,C7,E0,21,
3709238,000000BA,false,Rx,0,7,03,FF,0F,00,00,53,86,00,
3711915,000000B6,false,Rx,0,5,0A,0A,80,00,C8,00,00,00,
3712139,000000C4,false,Rx,0,7,42,03,FC,00,00,FF,F1,00,
3712364,000000CE,false,Rx,0,8,00,00,00,00,00,00,00,00,
3712590,0000019E,false,Rx,0,8,00,EA,6F,FC,FE,61,00,57,
3712818,000001A0,false,Rx,0,8,00,80,00,00,80,00,A8,4B,
3713236,000002B2,false,Rx,0,8,00,00,00,00,0F,80,00,04,
3713461,000001A6,false,Rx,0,8,00,00,00,00,00,00,B0,F0,
3713686,000000C8,false,Rx,0,6,3E,03,7C,00,00,1C,00,00,
3717717,00000332,false,Rx,0,2,61,82,00,00,00,00,00,00,
3717722,00000332,false,Rx,0,2,61,82,00,00,00,00,00,00,
3717953,000001D0,false,Rx,0,8,3C,76,02,C3,00,00,CD,82,
3718177,00000332,false,Rx,0,2,61,82,00,00,00,00,00,00,
3718402,000000AA,false,Rx,0,8,6C,3E,FE,00,00,00,84,00,
3718627,000000A8,false,Rx,0,8,05,07,21,E0,21,1F,0F,04,
3718867,000000A9,false,Rx,0,8,F0,07,79,DF,1D,C7,E0,21,
3719092,000000BA,false,Rx,0,7,03,FF,0F,00,00,54,87,00,
3722175,000000C4,false,Rx,0,7,42,03,FC,00,00,FF,F1,00,
3722180,000001D6,false,Rx,0,2,FF,F3,00,00,00,00,00,00,
3728479,000000AA,false,Rx,0,8,5E,30,FE,00,00,00,84,00,
3728716,000000A8,false,Rx,0,8,06,08,21,E0,21,1F,0F,04,
3728948,000000A9,false,Rx,0,8,F1,08,79,DF,1D,C7,E0,21,
3729173,000000BA,false,Rx,0,7,03,FF,0F,00,00,55,88,00,
3732034,000000B6,false,Rx,0,5,0B,0B,80,00,C8,00,00,00,
3732259,000000C4,false,Rx,0,7,42,03,FC,00,00,FF,F1,00,
3732484,000000CE,false,Rx,0,8,00,00,00,00,00,00,00,00,
3732717,0000019E,false,Rx,0,8,00,EA,6F,FC,FE,61,00,57,
3732947,000001A0,false,Rx,0,8,00,80,00,00,80,00,B8,5B,
3733172,000002B2,false,Rx,0,8,00,00,00,00,0F,80,00,04,
3738482,000000AA,false,Rx,0,8,60,32,FE,00,00,00,84,00,
3738717,000000A8,false,Rx,0,8,07,09,21,E0,21,1F,0F,04,
