Time Stamp,ID,Extended,Dir,Bus,LEN,D1,D2,D3,D4,D5,D6,D7,D8
5070736,00000423,false,Rx,0,8,07,1D,00,02,B2,80,B2,D8,
5136280,00000377,false,Rx,0,8,00,00,00,00,28,28,28,20,
5146233,0000038A,false,Rx,0,8,45,41,00,00,04,00,00,00,
5156300,00000377,false,Rx,0,8,00,00,00,00,28,28,28,20,
5166242,00000389,false,Rx,0,8,BD,00,00,41,41,00,00,00,
5170628,00000423,false,Rx,0,8,07,1D,00,02,B2,80,B2,D8,
5176355,00000377,false,Rx,0,8,04,8F,00,00,43,45,41,20,
5186274,00000569,false,Rx,0,8,0A,00,00,00,00,00,00,00,
5196184,00000377,false,Rx,0,8,04,99,00,00,43,45,41,20,
5206334,00000568,false,Rx,0,8,00,02,80,00,00,00,08,80,
5216216,00000377,false,Rx,0,8,04,A1,00,00,43,45,41,20,
5226191,00000563,false,Rx,0,8,00,00,00,0A,02,08,00,00,
5236268,00000377,false,Rx,0,8,04,A5,00,00,43,45,41,20,
5246377,0000038A,false,Rx,0,8,45,41,00,00,04,00,00,00,
5256251,00000377,false,Rx,0,8,04,A7,00,00,43,45,41,20,
5266359,00000389,false,Rx,0,8,BD,00,00,41,41,00,00,00,
5270744,00000423,false,Rx,0,8,07,1D,00,02,B2,80,B2,D8,
5276271,00000377,false,Rx,0,8,04,A9,00,00,43,45,41,20,
5280612,00000445,false,Rx,0,7,80,DF,AA,65,04,82,00,00,
5286215,00000664,false,Rx,0,8,01,83,06,32,F3,00,00,00,
5296294,00000377,false,Rx,0,8,04,A9,00,00,43,45,41,20,
5306262,00000663,false,Rx,0,8,00,39,34,38,31,41,30,31,
5316323,00000377,false,Rx,0,8,04,A9,00,00,43,45,41,20,
5336352,00000377,false,Rx,0,8,04,A9,00,00,43,45,41,20,
5346292,0000038A,false,Rx,0,8,45,41,00,00,04,00,00,00,
5356357,00000377,false,Rx,0,8,04,AB,00,00,43,45,41,20,
5366251,00000389,false,Rx,0,8,BD,00,00,41,41,00,00,00,
5370641,00000423,false,Rx,0,8,07,1D,00,02,B2,80,B2,D8,
5376371,00000377,false,Rx,0,8,04,AB,00,00,43,45,41,20,
5380527,00000445,false,Rx,0,7,80,DF,AA,65,04,82,00,00,
5386346,00000569,false,Rx,0,8,0A,00,00,00,00,00,00,00,
5396241,00000377,false,Rx,0,8,04,AB,00,00,43,45,41,20,
5406305,00000568,false,Rx,0,8,00,02,80,00,00,00,08,80,
5416254,00000377,false,Rx,0,8,04,AB,00,00,43,45,41,20,
5426365,00000563,false,Rx,0,8,00,00,00,0A,02,08,00,00,
5436366,00000377,false,Rx,0,8,04,AB,00,00,43,45,41,20,
5446325,0000038A,false,Rx,0,8,45,41,00,00,04,00,00,00,
5456192,00000377,false,Rx,0,8,04,A7,00,00,43,45,41,20,
5466275,00000389,false,Rx,0,8,BD,00,00,41,41,00,00,00,
5470668,00000423,false,Rx,0,8,07,1D,00,02,5D,80,5D,D8,
5476193,00000377,false,Rx,0,8,04,A7,00,00,43,45,41,20,
5480508,00000445,false,Rx,0,7,80,DF,55,65,04,82,00,00,
5481132,00000155,false,Rx,0,8,FF,4F,FF,94,FF,F8,03,FF,
5481367,00000424,false,Rx,0,8,FF,FF,FF,FF,7F,7F,55,7F,
5481780,00000425,false,Rx,0,8,1D,FF,4C,FF,FF,FF,FD,FF,
5482039,000004AE,false,Rx,0,8,D2,B2,3C,A0,88,5A,78,FE,
5482044,00000659,false,Rx,0,4,FF,FF,FF,FF,00,00,00,00,
5482286,000004AF,false,Rx,0,5,FF,FF,FF,D0,00,00,00,00,
5492400,00000155,false,Rx,0,8,FF,4F,FF,94,FF,F8,03,FF,
5496226,00000377,false,Rx,0,8,04,A7,00,00,43,45,41,20,
5502286,00000155,false,Rx,0,8,FF,4F,FF,94,FF,F8,03,FF,
5512262,00000155,false,Rx,0,8,FF,4F,FF,94,FF,F8,03,FF,
5516271,00000377,false,Rx,0,8,04,A7,00,00,43,45,41,20,
5522430,00000155,false,Rx,0,8,FF,4F,FF,94,FF,F8,03,FF,
5532567,00000155,false,Rx,0,8,FF,4F,FF,94,FF,F8,03,FF,
5536220,00000377,false,Rx,0,8,04,A9,00,00,43,45,41,20,
5542734,00000155,false,Rx,0,8,FF,4F,FF,94,FF,F8,03,FF,
5546377,0000038A,false,Rx,0,8,45,41,00,00,04,00,00,00,
5553026,00000155,false,Rx,0,8,FF,4F,FF,94,FF,F8,03,FF,
5556377,00000377,false,Rx,0,8,04,A9,00,00,43,45,41,20,
5563185,00000155,false,Rx,0,8,FF,4F,FF,94,FF,F8,03,FF,
5566254,00000389,false,Rx,0,8,BD,00,00,41,41,00,00,00,
5570681,00000423,false,Rx,0,8,07,1D,00,02,5D,80,5D,D8,
5573557,00000155,false,Rx,0,8,FF,4F,FF,94,FF,F8,03,FF,
5576251,00000377,false,Rx,0,8,04,A9,00,00,43,45,41,20,
5580921,00000445,false,Rx,0,7,80,DF,55,65,04,82,00,00,
5581375,00000155,false,Rx,0,8,FF,4F,FF,94,FF,F8,03,FF,
5581602,00000424,false,Rx,0,8,FF,FF,FF,FF,7F,7F,55,7F,
5581828,00000425,false,Rx,0,8,1D,FF,4C,FF,FF,FF,FD,FF,
5586267,00000569,false,Rx,0,8,0A,00,00,00,00,00,00,00,
5591235,00000155,false,Rx,0,8,FF,4F,FF,94,FF,F8,03,FF,
5596377,00000377,false,Rx,0,8,04,A9,00,00,43,45,41,20,
5601256,00000155,false,Rx,0,8,FF,4F,FF,94,FF,F8,03,FF,
5606364,00000568,false,Rx,0,8,00,02,80,00,00,00,08,80,
5611352,00000155,false,Rx,0,8,FF,4F,FF,94,FF,F8,03,FF,
5616317,00000377,false,Rx,0,8,04,A9,00,00,43,45,41,20,
5621312,00000155,false,Rx,0,8,FF,4F,FF,94,FF,F8,03,FF,
5626224,00000563,false,Rx,0,8,00,20,00,0A,02,08,00,00,
5631370,00000155,false,Rx,0,8,FF,4F,FF,94,FF,F8,03,FF,
5636323,00000377,false,Rx,0,8,04,A9,00,00,43,45,41,20,
5641435,00000155,false,Rx,0,8,FF,4F,FF,94,FF,F8,03,FF,
5646308,0000038A,false,Rx,0,8,45,41,00,00,04,00,00,00,
5651267,00000155,false,Rx,0,8,FF,4F,FF,94,FF,F8,03,FF,
5656226,00000377,false,Rx,0,8,04,A9,00,00,43,45,41,22,
5661296,00000155,false,Rx,0,8,FF,4F,FF,94,FF,F8,03,FF,
5666228,00000389,false,Rx,0,8,BD,00,00,41,41,40,00,00,
5670621,00000423,false,Rx,0,8,07,1D,00,02,5D,80,5D,D8,
5671231,00000155,false,Rx,0,8,FF,4F,FF,94,FF,F8,03,FF,
5676382,00000377,false,Rx,0,8,04,A9,00,2D,43,45,41,22,
5681321,00000445,false,Rx,0,7,80,DF,55,65,04,82,00,00,
5681328,00000155,false,Rx,0,8,FF,4F,FF,94,FF,F8,03,FF,
5681564,00000424,false,Rx,0,8,11,40,FF,FF,7F,66,55,7F,
5681807,00000425,false,Rx,0,8,1D,FF,44,FF,FF,FF,FD,FF,
5691200,00000155,false,Rx,0,8,FF,4F,FF,94,FF,F8,03,FF,
5696352,00000377,false,Rx,0,8,04,D9,02,9B,43,45,41,22,
5701396,00000155,false,Rx,0,8,FF,4F,FF,94,FF,F8,03,FF,
5711314,00000155,false,Rx,0,8,FF,4F,FF,94,FF,F8,03,FF,
5716278,00000377,false,Rx,0,8,05,15,03,C8,43,45,41,22,
5721506,00000155,false,Rx,0,8,FF,4F,FF,94,FF,F8,03,FF,
5731389,00000155,false,Rx,0,8,FF,4F,FF,94,FF,F8,03,FF,
5736348,00000377,false,Rx,0,8,05,53,04,48,43,45,41,22,
5741639,00000155,false,Rx,0,8,FF,4F,FF,94,FF,F8,03,FF,
5746283,0000038A,false,Rx,0,8,45,41,00,00,04,00,00,00,
5751441,00000155,false,Rx,0,8,FF,4F,FF,94,FF,F8,03,FF,
5756214,00000377,false,Rx,0,8,05,81,03,B4,43,45,41,22,
5761625,00000155,false,Rx,0,8,FF,4F,FF,94,FF,F8,03,FF,
5766293,00000389,false,Rx,0,8,BD,00,00,41,41,40,00,00,
5770686,00000423,false,Rx,0,8,07,1D,00,02,5D,80,5D,D8,
5771299,00000155,false,Rx,0,8,FF,4F,FF,94,FF,F8,03,FF,
5776286,00000377,false,Rx,0,8,05,91,03,07,43,45,41,22,
5781743,00000445,false,Rx,0,7,80,DF,55,65,04,82,00,00,
5781750,00000155,false,Rx,0,8,FF,4F,FF,94,FF,F8,03,FF,
5781756,00000424,false,Rx,0,8,11,40,FF,FF,7F,66,55,7F,
5781761,00000425,false,Rx,0,8,1D,FF,44,FF,FF,FF,FD,FF,
5786352,00000569,false,Rx,0,8,AA,00,00,00,00,00,00,00,
5786587,00000664,false,Rx,0,8,01,83,06,32,F3,00,00,00,
5791369,00000155,false,Rx,0,8,FF,4F,FF,94,FF,F8,03,FF,
5796267,00000377,false,Rx,0,8,05,97,02,BD,43,45,41,22,
5801866,00000155,false,Rx,0,8,FF,4F,FF,94,FF,F8,03,FF,
5806359,00000568,false,Rx,0,8,00,02,80,00,00,00,08,80,
5806595,00000663,false,Rx,0,8,01,33,30,30,00,00,00,00,
5811368,00000155,false,Rx,0,8,FF,4F,FF,94,FF,F8,03,FF,
5816369,00000377,false,Rx,0,8,05,9B,02,96,43,45,41,22,
5822110,00000155,false,Rx,0,8,FF,4F,FF,94,FF,F8,03,FF,
5826433,00000563,false,Rx,0,8,00,20,00,AA,02,08,00,00,
5831378,00000155,false,Rx,0,8,FF,4F,FF,94,FF,F8,03,FF,
5836331,00000377,false,Rx,0,8,05,9D,02,6E,43,45,41,22,
5842192,00000155,false,Rx,0,8,FF,4F,FF,94,FF,F8,03,FF,
5846248,0000038A,false,Rx,0,8,45,41,00,00,04,00,00,00,
5851245,00000155,false,Rx,0,8,FF,4F,FF,94,FF,F8,03,FF,
5856387,00000377,false,Rx,0,8,05,9D,02,51,43,45,41,22,
5862232,00000155,false,Rx,0,8,FF,4F,FF,94,FF,F8,03,FF,
5866309,00000389,false,Rx,0,8,BD,00,00,41,41,40,00,00,
5870701,00000423,false,Rx,0,8,07,1D,00,02,5D,80,5D,D8,
5871304,00000155,false,Rx,0,8,FF,4F,FF,94,FF,F8,03,FF,
5876291,00000377,false,Rx,0,8,05,9D,02,33,43,45,41,22,
5880492,00000445,false,Rx,0,7,80,DF,55,65,04,82,00,00,
5882411,00000155,false,Rx,0,8,FF,4F,FF,94,FF,F8,03,FF,
5882418,00000424,false,Rx,0,8,11,40,FF,FF,7F,66,55,7F,
5882423,00000425,false,Rx,0,8,1D,FF,44,FF,FF,FF,FD,FF,
5891271,00000155,false,Rx,0,8,FF,4F,FF,94,FF,F8,03,FF,
5896226,00000377,false,Rx,0,8,05,9D,02,2E,43,45,41,22,
5902473,00000155,false,Rx,0,8,FF,4F,FF,94,FF,F8,03,FF,
5911344,00000155,false,Rx,0,8,FF,4F,FF,94,FF,F8,03,FF,
5916308,00000377,false,Rx,0,8,05,9D,02,24,43,45,41,22,
5922678,00000155,false,Rx,0,8,FF,4F,FF,94,FF,F8,03,FF,
5931229,00000155,false,Rx,0,8,FF,4F,FF,94,FF,F8,03,FF,
5936375,00000377,false,Rx,0,8,05,9F,02,15,43,45,41,22,
5942607,00000155,false,Rx,0,8,FF,4F,FF,94,FF,F8,03,FF,
5946304,0000038A,false,Rx,0,8,45,41,00,00,04,00,00,00,
5951268,00000155,false,Rx,0,8,FF,4F,FF,94,FF,F8,03,FF,
5956404,00000377,false,Rx,0,8,05,9F,02,02,43,45,41,22,
5962609,00000155,false,Rx,0,8,FF,4F,FF,94,FF,F8,03,FF,
5966325,00000389,false,Rx,0,8,BD,00,00,41,41,40,00,00,
5970716,00000423,false,Rx,0,8,07,1D,00,02,5D,80,5D,D8,
5971326,00000155,false,Rx,0,8,FF,4F,FF,94,FF,F8,03,FF,
5976285,00000377,false,Rx,0,8,05,9D,01,F8,43,45,41,22,
5980494,00000445,false,Rx,0,7,80,DF,55,65,04,82,00,00,
5982803,00000155,false,Rx,0,8,FF,4F,FF,94,FF,F8,03,FF,
5982810,00000424,false,Rx,0,8,11,40,FF,FF,7F,66,55,7F,
5982816,00000425,false,Rx,0,8,1D,FF,44,FF,FF,FF,FD,FF,
5986347,00000569,false,Rx,0,8,AA,00,00,00,00,00,00,00,
5991316,00000155,false,Rx,0,8,FF,4F,FF,94,FF,F8,03,FF,
5996264,00000377,false,Rx,0,8,05,9F,01,EE,43,45,41,22,
6001229,00000155,false,Rx,0,8,FF,4F,FF,94,FF,F8,03,FF,
6006410,00000568,false,Rx,0,8,00,02,80,00,00,00,08,80,
6011369,00000155,false,Rx,0,8,FF,4F,FF,94,FF,F8,03,FF,
6016334,00000377,false,Rx,0,8,05,9F,01,E4,43,45,41,22,
6021325,00000155,false,Rx,0,8,FF,4F,FF,94,FF,F8,03,FF,
6026253,00000563,false,Rx,0,8,00,20,00,AA,02,08,00,00,
6031397,00000155,false,Rx,0,8,FF,4F,FF,94,FF,F8,03,FF,
6036343,00000377,false,Rx,0,8,05,9D,01,DA,43,45,41,22,
6041312,00000155,false,Rx,0,8,FF,4F,FF,94,FF,F8,03,FF,
6046317,0000038A,false,Rx,0,8,45,41,00,00,04,00,00,00,
6051271,00000155,false,Rx,0,8,FF,4F,FF,94,FF,F8,03,FF,
6056243,00000377,false,Rx,0,8,05,9D,01,DA,43,45,41,22,
6061193,00000155,false,Rx,0,8,FF,4F,FF,94,FF,F8,03,FF,
6066386,00000389,false,Rx,0,8,BD,00,00,41,41,40,00,00,
6070774,00000423,false,Rx,0,8,07,1D,00,02,B2,80,B2,D8,
6071384,00000155,false,Rx,0,8,FF,4F,FF,94,FF,F8,03,FF,
6076334,00000377,false,Rx,0,8,05,9D,01,D5,43,45,41,22,
6080546,00000445,false,Rx,0,7,80,DF,AA,65,04,82,00,00,
6081345,00000155,false,Rx,0,8,FF,4F,FF,94,FF,F8,03,FF,
6081571,00000424,false,Rx,0,8,11,40,FF,FF,7F,66,AA,7F,
6083258,00000425,false,Rx,0,8,1D,FF,44,FF,FF,FF,FD,FF,
6091308,00000155,false,Rx,0,8,FF,4F,FF,94,FF,F8,03,FF,
6096259,00000377,false,Rx,0,8,05,9D,01,D0,43,45,41,22,
6101222,00000155,false,Rx,0,8,FF,4F,FF,94,FF,F8,03,FF,
6111273,00000155,false,Rx,0,8,FF,47,C7,94,FF,F8,02,F9,
6116250,00000377,false,Rx,0,8,05,9D,01,CB,43,45,41,22,
6121403,00000155,false,Rx,0,8,FF,47,C7,94,FF,F8,02,F9,
6131247,00000155,false,Rx,0,8,FF,47,C7,94,FF,F8,02,F8,
6136386,00000377,false,Rx,0,8,05,9D,01,CB,43,45,41,22,
6141354,00000155,false,Rx,0,8,FF,47,C8,94,FF,F8,02,F8,
6146319,0000038A,false,Rx,0,8,45,41,00,00,04,00,00,00,
6151279,00000155,false,Rx,0,8,FF,47,C7,94,FF,F8,02,F7,
6156248,00000377,false,Rx,0,8,05,9D,01,C7,43,45,41,22,
6161387,00000155,false,Rx,0,8,FF,47,C7,94,FF,F8,02,F7,
6166351,00000389,false,Rx,0,8,BD,00,00,41,41,40,00,00,
6170737,00000423,false,Rx,0,8,07,1D,00,02,B2,80,B2,D8,
6171351,00000155,false,Rx,0,8,FF,47,C7,94,FF,F8,02,F7,
6176397,00000377,false,Rx,0,8,05,9D,01,C2,43,45,41,22,
6180595,00000445,false,Rx,0,7,80,DF,AA,65,04,82,00,00,
6181396,00000155,false,Rx,0,8,29,47,C8,94,7C,90,02,F9,
6181622,00000424,false,Rx,0,8,11,40,56,8B,3D,66,AA,40,
6181848,00000425,false,Rx,0,8,1D,0A,44,FF,FE,4E,F1,25,
6186457,00000569,false,Rx,0,8,AA,00,80,02,00,00,00,00,
6191252,00000155,false,Rx,0,8,29,47,C8,94,7C,90,02,F9,
6196387,00000377,false,Rx,0,8,05,9D,01,BD,43,45,41,22,
6201342,00000155,false,Rx,0,8,29,47,C8,94,7C,90,02,F5,
6206260,00000568,false,Rx,0,8,00,02,80,02,00,00,08,80,
6211243,00000155,false,Rx,0,8,29,47,C8,94,7C,90,02,F8,
6216386,00000377,false,Rx,0,8,05,9D,01,BD,43,45,41,22,
6221357,00000155,false,Rx,0,8,29,47,C8,94,7C,90,02,F8,
6226318,00000563,false,Rx,0,8,0A,2A,00,AA,82,0A,00,00,
6231324,00000155,false,Rx,0,8,29,47,C8,94,7C,90,02,F7,
6236278,00000377,false,Rx,0,8,05,9D,01,B3,43,45,41,22,
6241428,00000155,false,Rx,0,8,29,47,C8,94,7C,90,02,F7,
6246317,0000038A,false,Rx,0,8,45,41,00,00,04,00,00,00,
6251271,00000155,false,Rx,0,8,29,47,C8,94,7C,90,02,F7,
6256424,00000377,false,Rx,0,8,05,9D,01,B3,43,45,41,22,
6261376,00000155,false,Rx,0,8,29,47,C8,94,7C,90,02,F7,
6266326,00000389,false,Rx,0,8,BD,00,00,41,41,40,00,00,
6270776,00000423,false,Rx,0,8,07,1D,00,02,B2,80,B2,D8,
6271386,00000155,false,Rx,0,8,29,47,C8,94,7C,90,02,F7,
6276337,00000377,false,Rx,0,8,05,9D,01,B3,43,45,41,22,
6280538,00000445,false,Rx,0,7,80,DF,AA,65,04,82,00,00,
6281333,00000155,false,Rx,0,8,29,47,C8,94,7C,90,02,F7,
6281560,00000424,false,Rx,0,8,11,40,56,8B,3D,66,AA,40,
6281785,00000425,false,Rx,0,8,1D,0A,44,FF,FE,4E,F1,25,
6286375,00000664,false,Rx,0,8,01,83,06,32,F3,00,00,00,
6291364,00000155,false,Rx,0,8,29,47,C8,94,7C,90,02,F7,
6296317,00000377,false,Rx,0,8,05,9D,01,AE,43,45,41,22,
6301271,00000155,false,Rx,0,8,29,47,C8,94,7C,90,02,F6,
6306383,00000663,false,Rx,0,8,02,00,00,00,00,00,00,00,
6311394,00000155,false,Rx,0,8,29,47,C8,94,7C,90,02,F7,
6316346,00000377,false,Rx,0,8,05,9D,01,B8,43,45,41,22,
6321310,00000155,false,Rx,0,8,29,47,C8,94,7C,90,02,F4,
6331367,00000155,false,Rx,0,8,29,47,C7,94,7C,90,02,F4,
6336363,00000377,false,Rx,0,8,05,9D,01,B8,43,45,41,22,
6341323,00000155,false,Rx,0,8,29,47,C8,94,7C,90,02,F5,
6346297,0000038A,false,Rx,0,8,45,41,00,00,04,00,00,00,
6351310,00000155,false,Rx,0,8,29,47,C8,94,7C,90,02,F5,
6356262,00000377,false,Rx,0,8,05,9D,01,B8,43,45,41,22,
6361394,00000155,false,Rx,0,8,29,47,C8,94,7C,90,02,F5,
6366319,00000389,false,Rx,0,8,BD,00,00,41,41,40,00,00,
6370602,00000423,false,Rx,0,8,07,1D,00,02,B2,80,B2,D8,
6371402,00000155,false,Rx,0,8,29,47,C8,94,7C,90,02,F6,
6376365,00000377,false,Rx,0,8,05,9D,01,B8,43,45,41,22,
6380564,00000445,false,Rx,0,7,80,DF,AA,65,04,82,00,00,
6381360,00000155,false,Rx,0,8,29,47,C8,94,7C,90,02,F4,
6381586,00000424,false,Rx,0,8,11,40,56,8B,3D,66,AA,40,
6381812,00000425,false,Rx,0,8,1D,0A,44,FF,FE,4E,F1,25,
6386397,00000569,false,Rx,0,8,AA,00,80,02,00,00,00,00,
6391374,00000155,false,Rx,0,8,29,47,C8,94,7C,90,02,F4,
6396327,00000377,false,Rx,0,8,05,9D,01,B8,43,45,41,22,
6401292,00000155,false,Rx,0,8,29,47,C8,94,7C,90,02,F6,
6406394,00000568,false,Rx,0,8,00,02,80,0A,00,00,08,80,
6411538,00000155,false,Rx,0,8,29,47,C8,94,7C,90,02,F5,
6416307,00000377,false,Rx,0,8,05,9D,01,B3,43,45,41,22,
6421358,00000155,false,Rx,0,8,29,47,C8,94,7C,90,02,F6,
6426290,00000563,false,Rx,0,8,0A,2A,00,AA,82,0A,00,00,
6431506,00000155,false,Rx,0,8,29,47,C8,94,7C,90,02,F6,
6436300,00000377,false,Rx,0,8,05,9D,01,A9,43,45,41,22,
6441372,00000155,false,Rx,0,8,29,47,C8,94,7C,90,02,F6,
6446354,0000038A,false,Rx,0,8,45,41,00,00,04,00,00,00,
6451376,00000155,false,Rx,0,8,29,47,C8,94,7C,90,02,F9,
6456332,00000377,false,Rx,0,8,05,9D,01,A9,43,45,41,22,
6461300,00000155,false,Rx,0,8,29,47,C8,94,7C,90,02,F6,
6466409,00000389,false,Rx,0,8,BD,00,00,41,41,40,00,00,
6470669,00000423,false,Rx,0,8,07,1D,00,02,B2,80,B2,D8,
6471282,00000155,false,Rx,0,8,29,47,C8,94,7C,90,02,F6,
6476428,00000377,false,Rx,0,8,05,9D,01,A9,43,45,41,22,
6480441,00000445,false,Rx,0,7,80,DF,AA,65,04,82,00,00,
6481241,00000155,false,Rx,0,8,29,47,C8,94,7C,90,02,F7,
6481467,00000424,false,Rx,0,8,11,40,56,8B,3D,66,AA,40,
6481693,00000425,false,Rx,0,8,1D,0A,44,FF,FE,4E,F1,25,
6491213,00000155,false,Rx,0,8,29,47,C8,94,7C,90,02,F7,
6496358,00000377,false,Rx,0,8,05,9D,01,9F,43,45,41,22,
6501318,00000155,false,Rx,0,8,29,47,C8,94,7C,90,02,F8,
6511395,00000155,false,Rx,0,8,29,47,C8,94,7C,90,02,F7,
6516350,00000377,false,Rx,0,8,05,9D,01,A4,43,45,41,22,
6521297,00000155,false,Rx,0,8,29,47,C8,94,7C,90,02,F9,
6531205,00000155,false,Rx,0,8,29,47,C8,94,7C,90,02,F9,
6536426,00000377,false,Rx,0,8,05,9D,01,9F,43,45,41,22,
6542925,00000155,false,Rx,0,8,29,47,C8,54,7C,90,02,F8,
6546383,0000038A,false,Rx,0,8,45,41,00,00,04,00,00,00,
6551249,00000155,false,Rx,0,8,29,47,C8,54,7C,90,02,F8,
6556264,00000377,false,Rx,0,8,05,9D,01,9F,43,45,41,22,
6561275,00000155,false,Rx,0,8,29,47,C8,54,7C,90,02,F7,
6566425,00000389,false,Rx,0,8,BD,00,00,41,41,40,00,00,
6570649,00000423,false,Rx,0,8,07,1D,00,02,5D,80,5D,D8,
6571257,00000155,false,Rx,0,8,29,47,C8,54,7C,90,02,F7,
6576327,00000377,false,Rx,0,8,05,9D,01,A4,43,45,41,22,
6580528,00000445,false,Rx,0,7,80,DF,55,65,04,82,00,00,
6581326,00000155,false,Rx,0,8,29,47,C8,54,7C,90,02,F9,
6581552,00000424,false,Rx,0,8,11,40,56,8B,3D,66,55,40,
6581592,00000425,false,Rx,0,8,25,0A,44,9C,42,4E,F1,25,
6586345,00000569,false,Rx,0,8,AA,00,80,02,00,00,00,00,
6591227,00000155,false,Rx,0,8,29,47,C8,54,7C,90,02,F9,
6596371,00000377,false,Rx,0,8,05,9D,01,9F,43,45,41,22,
6601130,00000155,false,Rx,0,8,29,47,C8,54,7C,90,02,F5,
6606430,00000568,false,Rx,0,8,00,02,80,0A,00,00,08,80,
6611235,00000155,false,Rx,0,8,29,47,C8,54,7C,90,02,F8,
6616444,00000377,false,Rx,0,8,05,9D,01,9F,43,45,41,22,
6621216,00000155,false,Rx,0,8,29,47,C8,54,7C,90,02,F8,
6626363,00000563,false,Rx,0,8,0A,2A,00,AA,82,0A,00,00,
6631364,00000155,false,Rx,0,8,29,47,C8,54,7C,90,02,F7,
6636358,00000377,false,Rx,0,8,05,9D,01,A4,43,45,41,22,
6641319,00000155,false,Rx,0,8,29,47,C8,54,7C,90,02,F7,
6646357,0000038A,false,Rx,0,8,45,41,00,00,04,00,00,00,
6651171,00000155,false,Rx,0,8,29,47,C8,54,7C,90,02,F7,
6656323,00000377,false,Rx,0,8,05,9D,01,9F,43,45,41,22,
6661279,00000155,false,Rx,0,8,29,47,C8,54,7C,90,02,F7,
6666385,00000389,false,Rx,0,8,BD,00,00,41,41,40,00,00,
6670613,00000423,false,Rx,0,8,07,1D,00,02,5D,80,5D,D8,
6671254,00000155,false,Rx,0,8,29,47,C8,54,7C,90,02,F7,
6676258,00000377,false,Rx,0,8,05,9D,01,9F,43,45,41,22,
6680512,00000445,false,Rx,0,7,80,DF,55,65,04,82,00,00,
6681310,00000155,false,Rx,0,8,29,47,C8,54,7C,90,02,F7,
6681536,00000424,false,Rx,0,8,11,40,56,8B,3D,66,55,40,
6681762,00000425,false,Rx,0,8,25,0A,44,9C,42,4E,F1,25,
6691296,00000155,false,Rx,0,8,29,47,C8,54,7C,90,02,F7,
6696445,00000377,false,Rx,0,8,05,9D,01,9F,43,45,41,22,
6701215,00000155,false,Rx,0,8,29,47,C8,54,7C,90,02,F6,
6711336,00000155,false,Rx,0,8,29,47,C8,54,7C,90,02,F7,
6716300,00000377,false,Rx,0,8,05,9D,01,9F,43,45,41,22,
6721259,00000155,false,Rx,0,8,29,47,C8,54,7C,90,02,F6,
6731220,00000155,false,Rx,0,8,29,47,C8,54,7C,90,02,F7,
6736387,00000377,false,Rx,0,8,05,9D,01,9A,43,45,41,22,
6741357,00000155,false,Rx,0,8,29,47,C8,54,7C,90,02,F5,
6746355,0000038A,false,Rx,0,8,45,41,00,00,04,00,00,00,
6751194,00000155,false,Rx,0,8,29,47,C8,54,7C,90,02,F5,
6756345,00000377,false,Rx,0,8,05,9D,01,9A,43,45,41,22,
6761309,00000155,false,Rx,0,8,29,47,C8,54,7C,90,02,F5,
6766377,00000389,false,Rx,0,8,BD,00,00,41,41,40,00,00,
6770684,00000423,false,Rx,0,8,07,1D,00,02,5D,80,5D,D8,
6771300,00000155,false,Rx,0,8,29,47,C8,54,7C,90,02,F5,
6776288,00000377,false,Rx,0,8,05,9D,01,95,43,45,41,22,
6780492,00000445,false,Rx,0,7,80,DF,55,65,04,82,00,00,
6781292,00000155,false,Rx,0,8,29,47,C8,54,7C,90,02,F4,
6781518,00000424,false,Rx,0,8,11,40,56,8B,3D,66,55,40,
6781744,00000425,false,Rx,0,8,25,0A,44,9C,42,4E,F1,25,
6786421,00000569,false,Rx,0,8,AA,00,80,02,00,00,00,00,
6786656,00000664,false,Rx,0,8,01,83,06,32,F3,00,00,00,
6791307,00000155,false,Rx,0,8,29,47,C8,54,7C,90,02,F4,
6796454,00000377,false,Rx,0,8,05,9D,01,A4,43,45,41,22,
6801226,00000155,false,Rx,0,8,29,47,C8,54,7C,90,02,F8,
6806487,00000568,false,Rx,0,8,00,02,80,0A,00,00,08,80,
6806726,00000663,false,Rx,0,8,00,39,34,38,31,41,30,31,
6811194,00000155,false,Rx,0,8,29,47,C8,54,7C,90,02,F5,
6816352,00000377,false,Rx,0,8,05,9D,01,A4,43,45,41,22,
6821308,00000155,false,Rx,0,8,29,47,C8,54,7C,90,02,F6,
6826630,00000563,false,Rx,0,8,0A,2A,00,AA,82,0A,00,00,
6831336,00000155,false,Rx,0,8,29,47,C7,54,7C,90,02,F6,
6836300,00000377,false,Rx,0,8,05,9D,01,A4,43,45,41,22,
6841280,00000155,false,Rx,0,8,29,47,C7,54,7C,90,02,F6,
6846845,0000038A,false,Rx,0,8,45,41,00,00,04,00,00,00,
6851157,00000155,false,Rx,0,8,29,47,C7,54,7C,90,02,F8,
6856308,00000377,false,Rx,0,8,05,9D,01,B8,43,45,41,22,
6861266,00000155,false,Rx,0,8,29,47,C7,54,7C,90,02,F6,
6866884,00000389,false,Rx,0,8,BD,00,00,41,41,40,00,00,
6870631,00000423,false,Rx,0,8,07,1D,00,02,5D,80,5D,D8,
6871244,00000155,false,Rx,0,8,29,47,C7,54,7C,90,02,F6,
6876394,00000377,false,Rx,0,8,05,9D,01,C2,43,45,41,22,
6880402,00000445,false,Rx,0,7,80,DF,55,65,04,82,00,00,
6881194,00000155,false,Rx,0,8,29,47,C7,54,7C,90,02,F6,
6881426,00000424,false,Rx,0,8,11,40,56,8B,3D,66,55,40,
6881653,00000425,false,Rx,0,8,25,0A,44,9C,42,4E,F1,25,
6891221,00000155,false,Rx,0,8,29,47,C8,54,7C,90,02,F7,
6896371,00000377,false,Rx,0,8,05,9D,01,C2,43,45,41,22,
6901134,00000155,false,Rx,0,8,29,47,C8,54,7C,90,02,F8,
6911392,00000155,false,Rx,0,8,29,47,C8,54,7C,90,02,F6,
6916360,00000377,false,Rx,0,8,05,9D,01,BD,43,45,41,22,
6921319,00000155,false,Rx,0,8,29,47,C8,54,7C,90,02,F7,
6931286,00000155,false,Rx,0,8,29,47,C8,54,7C,90,02,F9,
6936444,00000377,false,Rx,0,8,05,9D,01,B3,43,45,41,22,
6941233,00000155,false,Rx,0,8,29,47,C8,54,7C,90,02,F8,
6947183,0000038A,false,Rx,0,8,45,41,00,00,04,00,00,00,
6951326,00000155,false,Rx,0,8,29,47,C8,54,7C,90,02,F7,
6956290,00000377,false,Rx,0,8,05,9D,01,B8,43,45,41,22,
6961248,00000155,false,Rx,0,8,29,47,C8,54,7C,90,02,F6,
6967298,00000389,false,Rx,0,8,BD,00,00,41,41,40,00,00,
6970673,00000423,false,Rx,0,8,07,1D,00,02,5D,80,5D,D8,
6971287,00000155,false,Rx,0,8,29,47,C8,54,7C,90,02,F6,
6976434,00000377,false,Rx,0,8,05,9D,01,B8,43,45,41,22,
6980444,00000445,false,Rx,0,7,80,DF,55,65,04,82,00,00,
6981244,00000155,false,Rx,0,8,29,47,C8,54,7C,90,02,F8,
6981470,00000424,false,Rx,0,8,11,40,56,8B,3D,66,55,40,
6981696,00000425,false,Rx,0,8,25,0A,44,9C,42,4E,F1,25,
6987357,00000569,false,Rx,0,8,AA,00,80,02,00,00,00,00,
6991269,00000155,false,Rx,0,8,29,47,C8,54,7C,90,02,F8,
6996421,00000377,false,Rx,0,8,05,9D,01,B3,43,45,41,22,
7001188,00000155,false,Rx,0,8,29,47,C8,54,7C,90,02,F5,
7007410,00000568,false,Rx,0,8,00,02,80,0A,00,00,08,80,
7011153,00000155,false,Rx,0,8,29,47,C8,54,7C,90,02,F7,
7016304,00000377,false,Rx,0,8,05,9D,01,B3,43,45,41,22,
7021254,00000155,false,Rx,0,8,29,47,C7,54,7C,90,02,F5,
7027484,00000563,false,Rx,0,8,0A,2A,00,AA,82,0A,00,00,
7031226,00000155,false,Rx,0,8,29,47,C7,54,7C,90,02,F5,
7036397,00000377,false,Rx,0,8,05,9D,01,B8,43,45,41,22,
7041158,00000155,false,Rx,0,8,29,47,C7,54,7C,90,02,F6,
7047731,0000038A,false,Rx,0,8,45,41,00,00,04,00,00,00,
7051200,00000155,false,Rx,0,8,29,47,C8,54,7C,90,02,F5,
7056352,00000377,false,Rx,0,8,05,9D,01,BD,43,45,41,22,
7061117,00000155,false,Rx,0,8,29,47,C8,54,7C,90,02,F5,
7067792,00000389,false,Rx,0,8,BD,00,00,41,41,40,00,00,
7070778,00000423,false,Rx,0,8,07,1D,00,02,5D,80,5D,D8,
7071196,00000155,false,Rx,0,8,29,47,C8,54,7C,90,02,F5,
7076349,00000377,false,Rx,0,8,05,9D,01,BD,43,45,41,22,
7080545,00000445,false,Rx,0,7,80,DF,55,65,04,82,00,00,
7081152,00000155,false,Rx,0,8,29,47,C8,54,7C,90,02,F5,
7081384,00000424,false,Rx,0,8,11,40,56,8B,3D,66,55,40,
7081610,00000425,false,Rx,0,8,25,0A,44,9C,42,4E,F1,25,
7091280,00000155,false,Rx,0,8,29,47,C7,54,7C,90,02,F5,
7096324,00000377,false,Rx,0,8,05,9D,01,BD,43,45,41,22,
7101281,00000155,false,Rx,0,8,29,47,C7,54,7C,90,02,F4,
7111309,00000155,false,Rx,0,8,29,47,C7,54,7C,90,02,F5,
7116456,00000377,false,Rx,0,8,05,9D,01,C2,43,45,41,22,
7121233,00000155,false,Rx,0,8,29,47,C7,54,7C,90,02,F5,
7131141,00000155,false,Rx,0,8,29,47,C8,54,7C,90,02,F5,
7136341,00000377,false,Rx,0,8,05,9D,01,C2,43,45,41,22,
7141323,00000155,false,Rx,0,8,29,47,C8,54,7C,90,02,F3,
7148063,0000038A,false,Rx,0,8,45,41,00,00,04,00,00,00,
7151193,00000155,false,Rx,0,8,29,47,C7,54,7C,90,02,F3,
7156409,00000377,false,Rx,0,8,05,9D,01,BD,43,45,41,22,
7161176,00000155,false,Rx,0,8,29,47,C7,54,7C,90,02,F4,
7166323,00000389,false,Rx,0,8,BD,00,00,41,41,40,00,00,
7170728,00000423,false,Rx,0,8,07,1D,00,02,B2,80,B2,D8,
7171172,00000155,false,Rx,0,8,29,47,C7,54,7C,90,02,F4,
7176383,00000377,false,Rx,0,8,05,9D,01,BD,43,45,41,22,
7180400,00000445,false,Rx,0,7,80,DF,AA,65,04,82,00,00,
7181191,00000155,false,Rx,0,8,29,47,C7,54,7C,90,02,F5,
7181425,00000424,false,Rx,0,8,11,40,56,8B,3D,66,AA,40,
7181651,00000425,false,Rx,0,8,25,0A,44,9C,42,4E,F1,25,
7186428,00000569,false,Rx,0,8,AA,00,80,02,00,00,00,00,
7191262,00000155,false,Rx,0,8,29,47,C8,54,7C,90,02,F4,
7196409,00000377,false,Rx,0,8,05,9D,01,BD,43,45,41,22,
7201182,00000155,false,Rx,0,8,29,47,C8,54,7C,90,02,F7,
7206332,00000568,false,Rx,0,8,00,02,80,0A,00,00,08,80,
7211300,00000155,false,Rx,0,8,29,47,C8,54,7C,90,02,F3,
7216442,00000377,false,Rx,0,8,05,9D,01,BD,43,45,41,22,
7221216,00000155,false,Rx,0,8,29,47,C7,54,7C,90,02,F5,
7226364,00000563,false,Rx,0,8,AA,AA,2A,AA,82,2A,00,00,
7231339,00000155,false,Rx,0,8,29,47,C7,54,7C,90,02,F4,
7236300,00000377,false,Rx,0,8,05,9D,01,B8,43,45,41,22,
7241275,00000155,false,Rx,0,8,29,47,C8,54,7C,90,02,F4,
7246422,0000038A,false,Rx,0,8,45,41,00,00,04,00,00,00,
7251158,00000155,false,Rx,0,8,29,47,C7,54,7C,90,02,F5,
7256383,00000377,false,Rx,0,8,05,9D,01,BD,43,45,41,22,
7261145,00000155,false,Rx,0,8,29,47,C7,54,7C,90,02,F5,
7266487,00000389,false,Rx,0,8,BD,00,00,41,41,40,00,00,
7270715,00000423,false,Rx,0,8,07,1D,00,02,B2,80,B2,D8,
7271334,00000155,false,Rx,0,8,29,47,C7,54,7C,90,02,F5,
7276428,00000377,false,Rx,0,8,05,9D,01,BD,43,45,41,22,
7280442,00000445,false,Rx,0,7,80,DF,AA,65,04,82,00,00,
7281241,00000155,false,Rx,0,8,29,47,C7,54,7C,90,02,F5,
7281467,00000424,false,Rx,0,8,11,40,56,8B,3D,66,AA,40,
7281693,00000425,false,Rx,0,8,25,0A,44,9C,42,4E,F1,25,
7286462,00000664,false,Rx,0,8,01,83,06,32,F3,00,00,00,
7291217,00000155,false,Rx,0,8,29,47,C7,54,7C,90,02,F5,
7296449,00000377,false,Rx,0,8,05,9D,01,C7,43,45,41,22,
7301217,00000155,false,Rx,0,8,29,47,C7,54,7C,90,02,F6,
7306358,00000663,false,Rx,0,8,01,33,30,30,00,00,00,00,
7311315,00000155,false,Rx,0,8,29,47,C7,54,7C,90,02,F5,
7316456,00000377,false,Rx,0,8,05,9D,01,CB,43,45,41,22,
7321233,00000155,false,Rx,0,8,29,47,C7,54,7C,90,02,F5,
7331294,00000155,false,Rx,0,8,29,47,C7,54,7C,90,02,F8,
7336481,00000377,false,Rx,0,8,05,9D,01,D0,43,45,41,22,
7341255,00000155,false,Rx,0,8,29,47,C7,54,7C,90,02,F7,
7346416,0000038A,false,Rx,0,8,45,41,00,00,04,00,00,00,
7351144,00000155,false,Rx,0,8,29,47,C7,54,7C,90,02,F7,
7356344,00000377,false,Rx,0,8,05,9D,01,D5,43,45,41,22,
7361139,00000155,false,Rx,0,8,29,47,C7,54,7C,90,02,F6,
7366487,00000389,false,Rx,0,8,BD,00,00,41,41,40,00,00,
7370740,00000423,false,Rx,0,8,07,1D,00,02,B2,80,B2,D8,
7371169,00000155,false,Rx,0,8,29,47,C7,54,7C,90,02,F6,
7376323,00000377,false,Rx,0,8,05,9D,01,D5,43,45,41,22,
7380332,00000445,false,Rx,0,7,80,DF,AA,65,04,82,00,00,
7381125,00000155,false,Rx,0,8,29,47,C7,54,7C,90,02,F6,
7381358,00000424,false,Rx,0,8,11,40,56,8B,3D,66,AA,40,
7381584,00000425,false,Rx,0,8,25,0A,44,9C,42,4E,F1,25,
7386352,00000569,false,Rx,0,8,AA,00,80,02,00,00,00,00,
7391146,00000155,false,Rx,0,8,29,47,C7,54,7C,90,02,F7,
7396317,00000377,false,Rx,0,8,05,9D,01,D5,43,45,41,22,
7401272,00000155,false,Rx,0,8,29,47,C7,54,7C,90,02,F5,
7406412,00000568,false,Rx,0,8,00,02,80,0A,00,00,A8,AA,
7411137,00000155,false,Rx,0,8,29,47,C7,54,7C,90,02,F7,
7416409,00000377,false,Rx,0,8,05,9D,01,D5,43,45,41,22,
7420988,00000155,false,Rx,0,8,29,47,C7,54,7C,90,02,F5,
7426342,00000563,false,Rx,0,8,AA,AA,2A,AA,82,2A,00,00,
7431137,00000155,false,Rx,0,8,29,47,C7,54,7C,90,02,F5,
7436377,00000377,false,Rx,0,8,05,9D,01,D5,43,45,41,22,
7441035,00000155,false,Rx,0,8,29,47,C7,54,7C,90,02,F5,
7446400,0000038A,false,Rx,0,8,45,41,00,00,04,00,00,00,
7450975,00000155,false,Rx,0,8,29,47,C7,54,7C,90,02,F5,
7456351,00000377,false,Rx,0,8,05,9D,01,D0,43,45,41,22,
7460920,00000155,false,Rx,0,8,29,47,C7,54,7C,90,02,F5,
7466465,00000389,false,Rx,0,8,BD,00,00,41,41,40,00,00,
7470747,00000423,false,Rx,0,8,07,1D,00,02,B2,80,B2,D8,
7470984,00000155,false,Rx,0,8,29,47,C7,54,7C,90,02,F5,
7476387,00000377,false,Rx,0,8,05,9D,01,D0,43,45,41,22,
7480394,00000445,false,Rx,0,7,80,DF,AA,65,04,82,00,00,
7480992,00000155,false,Rx,0,8,29,47,C7,54,7C,90,02,F5,
7481233,00000424,false,Rx,0,8,11,40,56,8B,3D,66,AA,40,
7481460,00000425,false,Rx,0,8,25,0A,44,9C,42,4E,F1,25,
7490906,00000155,false,Rx,0,8,29,47,C7,54,7C,90,02,F5,
7496306,00000377,false,Rx,0,8,05,9D,01,D5,43,45,41,22,
7501065,00000155,false,Rx,0,8,29,47,C7,54,7C,90,02,F4,
7511077,00000155,false,Rx,0,8,29,47,C7,54,7C,90,02,F5,
7516428,00000377,false,Rx,0,8,05,9D,01,DA,43,45,41,22,
7521001,00000155,false,Rx,0,8,29,47,C7,54,7C,90,02,F5,
7531123,00000155,false,Rx,0,8,29,47,C7,54,7C,90,02,F3,
7536356,00000377,false,Rx,0,8,05,9D,01,DA,43,45,41,22,
7541117,00000155,false,Rx,0,8,29,47,C7,54,7C,90,02,F5,
7546454,0000038A,false,Rx,0,8,45,41,00,00,04,00,00,00,
7551021,00000155,false,Rx,0,8,29,47,C7,54,7C,90,02,F5,
7556422,00000377,false,Rx,0,8,05,9D,01,DF,43,45,41,22,
7560994,00000155,false,Rx,0,8,29,47,C6,54,7C,90,02,F4,
7566408,00000389,false,Rx,0,8,BD,00,00,41,41,40,00,00,
7570812,00000423,false,Rx,0,8,07,1D,00,02,B2,80,B2,D8,
7571047,00000155,false,Rx,0,8,29,47,C7,54,7C,90,02,F4,
7576434,00000377,false,Rx,0,8,05,9D,01,E4,43,45,41,22,
7580442,00000445,false,Rx,0,7,80,DF,AA,65,04,82,00,00,
7581040,00000155,false,Rx,0,8,29,47,C7,54,7C,90,02,F5,
7581280,00000424,false,Rx,0,8,11,40,56,8B,3D,66,AA,40,
7581506,00000425,false,Rx,0,8,25,0A,44,9C,42,4E,F1,25,
7586462,00000569,false,Rx,0,8,AA,00,80,02,00,00,00,00,
7591077,00000155,false,Rx,0,8,29,47,C6,54,7C,90,02,F2,
7596496,00000377,false,Rx,0,8,05,9D,01,E4,43,45,41,22,
7601065,00000155,false,Rx,0,8,29,47,C6,54,7C,90,02,F5,
7606408,00000568,false,Rx,0,8,00,02,80,0A,00,00,A8,AA,
7610935,00000155,false,Rx,0,8,29,47,C7,54,7C,90,02,F3,
7616377,00000377,false,Rx,0,8,05,9D,01,E9,43,45,41,22,
7620942,00000155,false,Rx,0,8,29,47,C7,54,7C,90,02,F4,
7626497,00000563,false,Rx,0,8,AA,AA,2A,AA,82,2A,00,00,
7630997,00000155,false,Rx,0,8,29,47,C7,54,7C,90,02,F4,
7636351,00000377,false,Rx,0,8,05,9D,01,E4,43,45,41,22,
7640981,00000155,false,Rx,0,8,29,47,C6,54,7C,90,02,F4,
7646509,0000038A,false,Rx,0,8,45,41,00,00,04,00,00,00,
7651039,00000155,false,Rx,0,8,29,47,C6,54,7C,90,02,F5,
7656444,00000377,false,Rx,0,8,05,9D,01,E4,43,45,41,22,
7661047,00000155,false,Rx,0,8,29,47,C6,54,7C,90,02,F5,
7666395,00000389,false,Rx,0,8,BD,00,00,41,41,40,00,00,
7670655,00000423,false,Rx,0,8,07,1D,00,02,5D,80,5D,D8,
7671075,00000155,false,Rx,0,8,29,47,C7,54,7C,90,02,F5,
7676424,00000377,false,Rx,0,8,05,9D,01,E9,43,45,41,22,
7680437,00000445,false,Rx,0,7,80,DF,55,65,04,82,00,00,
7681037,00000155,false,Rx,0,8,29,47,C7,54,7C,90,02,F5,
7681275,00000424,false,Rx,0,8,11,40,56,8B,3D,66,55,40,
7681500,00000425,false,Rx,0,8,25,0A,44,9C,42,4E,F1,25,
7690995,00000155,false,Rx,0,8,29,47,C7,54,7C,90,02,F5,
7696387,00000377,false,Rx,0,8,05,9D,01,E4,43,45,41,22,
7700961,00000155,false,Rx,0,8,29,47,C6,54,7C,90,02,F6,
7710981,00000155,false,Rx,0,8,29,47,C7,54,7C,90,02,F5,
7716468,00000377,false,Rx,0,8,05,9D,01,E4,43,45,41,22,
7721046,00000155,false,Rx,0,8,29,47,C6,54,7C,90,02,F5,
7731099,00000155,false,Rx,0,8,29,47,C7,54,7C,90,02,F5,
7736510,00000377,false,Rx,0,8,05,9D,01,E4,43,45,41,22,
7741082,00000155,false,Rx,0,8,29,47,C7,54,7C,90,02,F6,
7746422,0000038A,false,Rx,0,8,45,41,00,00,04,00,00,00,
7751126,00000155,false,Rx,0,8,29,47,C7,54,7C,90,02,F7,
7756348,00000377,false,Rx,0,8,05,9D,01,DF,43,45,41,22,
7761107,00000155,false,Rx,0,8,29,47,C7,54,7C,90,02,F7,
7766487,00000389,false,Rx,0,8,BD,00,00,41,41,40,00,00,
7770766,00000423,false,Rx,0,8,07,1D,00,02,5D,80,5D,D8,
7771003,00000155,false,Rx,0,8,29,47,C7,54,7C,90,02,F6,
7776451,00000377,false,Rx,0,8,05,9D,01,D0,43,45,41,22,
7780465,00000445,false,Rx,0,7,80,DF,55,65,04,82,00,00,
7781065,00000155,false,Rx,0,8,29,47,C7,54,7C,90,02,F6,
7781303,00000424,false,Rx,0,8,11,40,56,8B,3D,66,55,40,
7781529,00000425,false,Rx,0,8,25,0A,44,9C,42,4E,F1,25,
7786486,00000569,false,Rx,0,8,AA,00,80,02,00,00,00,00,
7786712,00000664,false,Rx,0,8,01,83,06,32,F3,00,00,00,
7791029,00000155,false,Rx,0,8,29,47,C7,54,7C,90,02,F7,
7796434,00000377,false,Rx,0,8,05,9D,01,D5,43,45,41,22,
7801004,00000155,false,Rx,0,8,29,47,C7,54,7C,90,02,F5,
7806351,00000568,false,Rx,0,8,00,02,80,0A,00,00,A8,AA,
7806763,00000663,false,Rx,0,8,02,00,00,00,00,00,00,00,
7811073,00000155,false,Rx,0,8,29,47,C7,54,7C,90,02,F7,
7816422,00000377,false,Rx,0,8,05,9D,01,D0,43,45,41,22,
7820937,00000155,false,Rx,0,8,29,47,C7,54,7C,90,02,F7,
7826473,00000563,false,Rx,0,8,AA,AA,2A,AA,82,2A,00,00,
7830988,00000155,false,Rx,0,8,29,47,C7,54,7C,90,02,F6,
7836415,00000377,false,Rx,0,8,05,9D,01,D0,43,45,41,22,
7840995,00000155,false,Rx,0,8,29,47,C7,54,7C,90,02,F6,
7846529,0000038A,false,Rx,0,8,45,41,00,00,04,00,00,00,
7851041,00000155,false,Rx,0,8,29,47,C7,54,7C,90,02,F6,
7856451,00000377,false,Rx,0,8,05,9D,01,D5,43,45,41,22,
7861022,00000155,false,Rx,0,8,29,47,C7,54,7C,90,02,F5,
7866378,00000389,false,Rx,0,8,BD,00,00,41,41,40,00,00,
7870784,00000423,false,Rx,0,8,07,1D,00,02,5D,80,5D,D8,
7871027,00000155,false,Rx,0,8,29,47,C7,54,7C,90,02,F5,
7876481,00000377,false,Rx,0,8,05,9D,01,D0,43,45,41,22,
7880494,00000445,false,Rx,0,7,80,DF,55,65,04,82,00,00,
7880907,00000155,false,Rx,0,8,29,47,C7,54,7C,90,02,F5,
7881137,00000424,false,Rx,0,8,11,40,56,8B,3D,66,55,40,
7881370,00000425,false,Rx,0,8,25,0A,44,9C,42,4E,F1,25,
7891019,00000155,false,Rx,0,8,29,47,C7,54,7C,90,02,F5,
7896456,00000377,false,Rx,0,8,05,9D,01,D0,43,45,41,22,
7901036,00000155,false,Rx,0,8,29,47,C7,54,7C,90,02,F4,
7911054,00000155,false,Rx,0,8,29,47,C7,54,7C,90,02,F5,
7916487,00000377,false,Rx,0,8,05,9D,01,CB,43,45,41,22,
7921056,00000155,false,Rx,0,8,29,47,C7,54,7C,90,02,F5,
7930964,00000155,false,Rx,0,8,29,47,C7,54,7C,90,02,F5,
7936403,00000377,false,Rx,0,8,05,9D,01,CB,43,45,41,22,
7940972,00000155,false,Rx,0,8,29,47,C7,54,7C,90,02,F6,
7946504,0000038A,false,Rx,0,8,45,41,00,00,04,00,00,00,
7950993,00000155,false,Rx,0,8,29,47,C7,54,7C,90,02,F6,
7956446,00000377,false,Rx,0,8,05,9D,01,C7,43,45,41,22,
7961046,00000155,false,Rx,0,8,29,47,C7,54,7C,90,02,F3,
7966416,00000389,false,Rx,0,8,BD,00,00,41,41,40,00,00,
7971252,00000423,false,Rx,0,8,07,1D,00,02,5D,80,5D,D8,
7971258,00000155,false,Rx,0,8,29,47,C7,54,7C,90,02,F4,
7976494,00000377,false,Rx,0,8,05,9D,01,CB,43,45,41,22,
7980319,00000445,false,Rx,0,7,80,DF,55,65,04,82,00,00,
7980919,00000155,false,Rx,0,8,29,47,C7,54,7C,90,02,F5,
7981151,00000424,false,Rx,0,8,11,40,56,8B,3D,66,55,40,
7981384,00000425,false,Rx,0,8,25,0A,44,9C,42,4E,F1,25,
7986529,00000569,false,Rx,0,8,AA,00,80,02,00,00,00,00,
7991240,00000155,false,Rx,0,8,29,47,C7,54,7C,90,02,F5,
7996494,00000377,false,Rx,0,8,05,9D,01,C7,43,45,41,22,
8001066,00000155,false,Rx,0,8,29,47,C7,54,7C,90,02,F6,
8006409,00000568,false,Rx,0,8,00,02,80,0A,00,00,A8,AA,
8011274,00000155,false,Rx,0,8,29,47,C7,54,7C,90,02,F4,
8016495,00000377,false,Rx,0,8,05,9D,01,C7,43,45,41,22,
8021065,00000155,false,Rx,0,8,29,47,C7,54,7C,90,02,F5,
8026410,00000563,false,Rx,0,8,AA,AA,2A,AA,82,2A,00,00,
8031488,00000155,false,Rx,0,8,29,47,C7,54,7C,90,02,F6,
8036365,00000377,false,Rx,0,8,05,9D,01,CB,43,45,41,22,
8040937,00000155,false,Rx,0,8,29,47,C7,54,7C,90,02,F6,
8046466,0000038A,false,Rx,0,8,45,41,00,00,04,00,00,00,
8051526,00000155,false,Rx,0,8,29,47,C7,54,7C,90,02,F6,
8056377,00000377,false,Rx,0,8,05,9D,01,CB,43,45,41,22,
8060972,00000155,false,Rx,0,8,29,47,C7,54,7C,90,02,F6,
8066505,00000389,false,Rx,0,8,BD,00,00,41,41,40,00,00,
8071747,00000423,false,Rx,0,8,07,1D,00,02,5D,80,5D,D8,
8071754,00000155,false,Rx,0,8,29,47,C7,54,7C,90,02,F6,
8076416,00000377,false,Rx,0,8,05,9D,01,CB,43,45,41,22,
8080435,00000445,false,Rx,0,7,80,DF,55,65,04,82,00,00,
8081034,00000155,false,Rx,0,8,29,47,C7,54,7C,90,02,F6,
8081275,00000424,false,Rx,0,8,11,40,56,8B,3D,66,55,40,
8081501,00000425,false,Rx,0,8,25,0A,44,9C,42,4E,F1,25,
8091676,00000155,false,Rx,0,8,29,47,C7,54,7C,90,02,F6,
8096538,00000377,false,Rx,0,8,05,9D,01,CB,43,45,41,22,
8100921,00000155,false,Rx,0,8,29,47,C7,54,7C,90,02,F7,
8111866,00000155,false,Rx,0,8,29,47,C7,54,7C,90,02,F7,
8116512,00000377,false,Rx,0,8,05,9D,01,CB,43,45,41,22,
8121095,00000155,false,Rx,0,8,29,47,C7,54,7C,90,02,F7,
8132042,00000155,false,Rx,0,8,29,47,C7,54,7C,90,02,F7,
8136365,00000377,false,Rx,0,8,05,9D,01,C7,43,45,41,22,
8140937,00000155,false,Rx,0,8,29,47,C7,54,7C,90,02,F9,
8146460,0000038A,false,Rx,0,8,45,41,00,00,04,00,00,00,
8152086,00000155,false,Rx,0,8,29,47,C7,54,7C,90,02,F7,
8156380,00000377,false,Rx,0,8,05,9D,01,C7,43,45,41,22,
8160946,00000155,false,Rx,0,8,29,47,C7,54,7C,90,02,F9,
8166487,00000389,false,Rx,0,8,BD,00,00,41,41,40,00,00,
8172326,00000423,false,Rx,0,8,07,1D,00,02,5D,80,5D,D8,
8172333,00000155,false,Rx,0,8,29,47,C7,54,7C,90,02,F9,
8176463,00000377,false,Rx,0,8,05,9D,01,C7,43,45,41,22,
8180479,00000445,false,Rx,0,7,80,DF,55,65,04,82,00,00,
8181082,00000155,false,Rx,0,8,29,47,C7,54,7C,90,02,F8,
8181315,00000424,false,Rx,0,8,11,40,56,8B,3D,66,55,40,
8181541,00000425,false,Rx,0,8,25,0A,44,9C,42,4E,F1,25,
8186494,00000569,false,Rx,0,8,AA,00,80,02,00,00,00,00,
8192375,00000155,false,Rx,0,8,29,47,C7,54,7C,90,02,F9,
8196496,00000377,false,Rx,0,8,05,9D,01,CB,43,45,41,22,
8201066,00000155,false,Rx,0,8,29,47,C7,54,7C,90,02,F7,
8206409,00000568,false,Rx,0,8,00,02,80,0A,00,00,A8,AA,
8212447,00000155,false,Rx,0,8,29,47,C7,54,7C,90,02,F9,
8216382,00000377,false,Rx,0,8,05,9D,01,C2,43,45,41,22,
8220947,00000155,false,Rx,0,8,29,47,C7,54,7C,90,02,F8,
8226494,00000563,false,Rx,0,8,AA,AA,2A,AA,82,2A,00,00,
8232530,00000155,false,Rx,0,8,29,47,C7,54,7C,90,02,F7,
8236430,00000377,false,Rx,0,8,05,9D,01,C2,43,45,41,22,
8241001,00000155,false,Rx,0,8,29,47,C7,54,7C,90,02,F7,
8246533,0000038A,false,Rx,0,8,45,41,00,00,04,00,00,00,
8250921,00000155,false,Rx,0,8,29,47,C7,54,7C,90,02,F7,
8256502,00000377,false,Rx,0,8,05,9D,01,C2,43,45,41,22,
8260886,00000155,false,Rx,0,8,29,47,C7,54,7C,90,02,F7,
8266438,00000389,false,Rx,0,8,BD,00,00,41,41,40,00,00,
8270628,00000423,false,Rx,0,8,07,1D,00,02,B2,80,B2,D8,
8271041,00000155,false,Rx,0,8,29,47,C7,54,7C,90,02,F7,
8276505,00000377,false,Rx,0,8,05,9D,01,C7,43,45,41,22,
8280519,00000445,false,Rx,0,7,80,DF,AA,65,04,82,00,00,
8280932,00000155,false,Rx,0,8,29,47,C7,54,7C,90,02,F7,
8281165,00000424,false,Rx,0,8,11,40,56,8B,3D,66,AA,40,
8281398,00000425,false,Rx,0,8,25,0A,44,9C,42,4E,F1,25,
8286538,00000664,false,Rx,0,8,01,83,06,32,F3,00,00,00,
8290921,00000155,false,Rx,0,8,29,47,C7,54,7C,90,02,F7,
8296526,00000377,false,Rx,0,8,05,9D,01,CB,43,45,41,22,
8300911,00000155,false,Rx,0,8,29,47,C7,54,7C,90,02,F5,
8306442,00000663,false,Rx,0,8,00,39,34,38,31,41,30,31,
8311013,00000155,false,Rx,0,8,29,47,C7,54,7C,90,02,F7,
8316547,00000377,false,Rx,0,8,05,9D,01,CB,43,45,41,22,
8321130,00000155,false,Rx,0,8,29,47,C7,54,7C,90,02,F7,
8331004,00000155,false,Rx,0,8,29,47,C7,54,7C,90,02,F7,
8336528,00000377,false,Rx,0,8,05,9D,01,CB,43,45,41,22,
8340921,00000155,false,Rx,0,8,29,47,C7,54,7C,90,02,F4,
8346454,0000038A,false,Rx,0,8,45,41,00,00,04,00,00,00,
8351026,00000155,false,Rx,0,8,29,47,C7,54,7C,90,02,F6,
8356584,00000377,false,Rx,0,8,05,9D,01,CB,43,45,41,22,
8360972,00000155,false,Rx,0,8,29,47,C7,54,7C,90,02,F6,
8366505,00000389,false,Rx,0,8,BD,00,00,41,41,40,00,00,
8370721,00000423,false,Rx,0,8,07,1D,00,02,B2,80,B2,D8,
8370947,00000155,false,Rx,0,8,29,47,C7,54,7C,90,02,F4,
8376528,00000377,false,Rx,0,8,05,9D,01,D0,43,45,41,22,
8380411,00000445,false,Rx,0,7,80,DF,AA,65,04,82,00,00,
8381010,00000155,false,Rx,0,8,29,47,C7,54,7C,90,02,F4,
8381248,00000424,false,Rx,0,8,11,40,56,8B,3D,66,AA,40,
8381473,00000425,false,Rx,0,8,25,0A,44,9C,42,4E,F1,25,
8386434,00000569,false,Rx,0,8,AA,00,80,02,00,00,00,00,
8391001,00000155,false,Rx,0,8,29,47,C7,54,7C,90,02,F3,
8396463,00000377,false,Rx,0,8,05,9D,01,D0,43,45,41,22,
8401041,00000155,false,Rx,0,8,29,47,C7,54,7C,90,02,F7,
8406574,00000568,false,Rx,0,8,00,02,80,0A,00,00,A8,AA,
8411352,00000155,false,Rx,0,8,29,47,C7,54,7C,90,02,F4,
8416456,00000377,false,Rx,0,8,05,9D,01,CB,43,45,41,22,
8421065,00000155,false,Rx,0,8,29,47,C7,54,7C,90,02,F5,
8426430,00000563,false,Rx,0,8,AA,AA,2A,AA,82,2A,00,00,
8431018,00000155,false,Rx,0,8,29,47,C7,54,7C,90,02,F5,
8436555,00000377,false,Rx,0,8,05,9D,01,C7,43,45,41,22,
8440994,00000155,false,Rx,0,8,29,47,C7,54,7C,90,02,F6,
8446529,0000038A,false,Rx,0,8,45,41,00,00,04,00,00,00,
8450911,00000155,false,Rx,0,8,29,47,C7,54,7C,90,02,F6,
8456416,00000377,false,Rx,0,8,05,9D,01,C7,43,45,41,22,
8460880,00000155,false,Rx,0,8,29,47,C7,54,7C,90,02,F6,
8466409,00000389,false,Rx,0,8,BD,00,00,41,41,40,00,00,
8470638,00000423,false,Rx,0,8,07,1D,00,02,B2,80,B2,D8,
8471051,00000155,false,Rx,0,8,29,47,C7,54,7C,90,02,F6,
8476564,00000377,false,Rx,0,8,05,9D,01,C7,43,45,41,22,
8480331,00000445,false,Rx,0,7,80,DF,AA,65,04,82,00,00,
8480945,00000155,false,Rx,0,8,29,47,C7,54,7C,90,02,F6,
8481174,00000424,false,Rx,0,8,11,40,56,8B,3D,66,AA,40,
8481407,00000425,false,Rx,0,8,25,0A,44,9C,42,4E,F1,25,
8481633,000004AE,false,Rx,0,8,D2,B2,3C,A0,88,5A,78,84,
8481859,00000659,false,Rx,0,4,2B,33,C4,30,00,00,00,00,
8482091,000004AF,false,Rx,0,5,65,3C,4B,50,00,00,00,00,
8491016,00000155,false,Rx,0,8,29,47,C7,54,7C,90,02,F6,
8496461,00000377,false,Rx,0,8,05,9D,01,C7,43,45,41,22,
8501041,00000155,false,Rx,0,8,29,47,C7,54,7C,90,02,F8,
8510917,00000155,false,Rx,0,8,29,47,C7,54,7C,88,02,F7,
8516564,00000377,false,Rx,0,8,05,9D,01,C2,43,45,41,22,
8521014,00000155,false,Rx,0,8,29,47,C7,54,7C,88,02,F7,
8531082,00000155,false,Rx,0,8,29,47,C7,54,7C,88,02,F7,
8536444,00000377,false,Rx,0,8,05,9D,01,C7,43,45,41,22,
8541022,00000155,false,Rx,0,8,29,47,C7,54,7C,88,02,F9,
8546545,0000038A,false,Rx,0,8,45,41,00,00,04,00,00,00,
8550930,00000155,false,Rx,0,8,29,47,C7,54,7C,88,02,F7,
8556510,00000377,false,Rx,0,8,05,9D,01,C7,43,45,41,22,
8561081,00000155,false,Rx,0,8,29,47,C7,54,7C,88,02,F9,
8566422,00000389,false,Rx,0,8,BD,00,00,41,41,40,00,00,
8570807,00000423,false,Rx,0,8,07,1D,00,02,B2,80,B2,D8,
8571033,00000155,false,Rx,0,8,29,47,C7,54,7C,88,02,F9,
8576394,00000377,false,Rx,0,8,05,9D,01,C7,43,45,41,22,
8580258,00000445,false,Rx,0,7,80,DF,AA,65,04,82,00,00,
8581048,00000155,false,Rx,0,8,29,47,C7,54,7C,88,02,F9,
8581304,00000424,false,Rx,0,8,11,40,56,8B,3D,66,AA,40,
8581541,00000425,false,Rx,0,8,25,0A,44,9C,42,4E,F1,25,
8586545,00000569,false,Rx,0,8,AA,00,80,02,00,00,00,00,
8590931,00000155,false,Rx,0,8,29,47,C7,54,7C,88,02,FA,
8596582,00000377,false,Rx,0,8,05,9D,01,C7,43,45,41,22,
8601037,00000155,false,Rx,0,8,29,47,C7,54,7C,88,02,F7,
8606567,00000568,false,Rx,0,8,00,02,80,0A,00,00,A8,AA,
8610942,00000155,false,Rx,0,8,29,47,C7,54,7C,88,02,F9,
8616508,00000377,false,Rx,0,8,05,9D,01,C7,43,45,41,22,
8620921,00000155,false,Rx,0,8,29,47,C7,54,7C,88,02,F8,
8626500,00000563,false,Rx,0,8,AA,AA,2A,AA,82,2A,00,00,
8631071,00000155,false,Rx,0,8,29,47,C7,54,7C,88,02,F8,
8636468,00000377,false,Rx,0,8,05,9D,01,C7,43,45,41,22,
8641130,00000155,false,Rx,0,8,29,47,C7,54,7C,88,02,F8,
8646466,0000038A,false,Rx,0,8,45,41,00,00,04,00,00,00,
8651047,00000155,false,Rx,0,8,29,47,C7,54,7C,88,02,F8,
8656544,00000377,false,Rx,0,8,05,9D,01,C2,43,45,41,22,
8660968,00000155,false,Rx,0,8,29,47,C7,54,7C,88,02,F7,
8666506,00000389,false,Rx,0,8,BD,00,00,41,41,40,00,00,
8670700,00000423,false,Rx,0,8,07,1D,00,02,B2,80,B2,D8,
8670926,00000155,false,Rx,0,8,29,47,C7,54,7C,88,02,F7,
8676468,00000377,false,Rx,0,8,05,9D,01,C7,43,45,41,22,
8680300,00000445,false,Rx,0,7,80,DF,AA,65,04,82,00,00,
8680898,00000155,false,Rx,0,8,29,47,C7,54,7C,88,02,F7,
8681129,00000424,false,Rx,0,8,11,40,56,8B,3D,66,AA,40,
8681362,00000425,false,Rx,0,8,25,0A,44,9C,42,4E,F1,25,
8690894,00000155,false,Rx,0,8,29,47,C7,54,7C,88,02,F7,
8696486,00000377,false,Rx,0,8,05,9D,01,C7,43,45,41,22,
8700937,00000155,false,Rx,0,8,29,47,C7,54,7C,88,02,F6,
8710996,00000155,false,Rx,0,8,29,47,C7,54,7C,88,02,F7,
8716476,00000377,false,Rx,0,8,05,9D,01,C2,43,45,41,22,
8721130,00000155,false,Rx,0,8,29,47,C7,54,7C,88,02,F7,
8731005,00000155,false,Rx,0,8,29,47,C7,54,7C,88,02,F7,
8736478,00000377,false,Rx,0,8,05,9D,01,C2,43,45,41,22,
8740918,00000155,false,Rx,0,8,29,47,C7,54,7C,88,02,F7,
8746454,0000038A,false,Rx,0,8,45,41,00,00,04,00,00,00,
8751026,00000155,false,Rx,0,8,29,47,C7,54,7C,88,02,F6,
8756517,00000377,false,Rx,0,8,05,9D,01,BD,43,45,41,22,
8760911,00000155,false,Rx,0,8,29,47,C7,54,7C,88,02,F6,
8766441,00000389,false,Rx,0,8,BD,00,00,41,41,40,00,00,
8770641,00000423,false,Rx,0,8,07,1D,00,02,5D,80,5D,D8,
8771054,00000155,false,Rx,0,8,29,47,C7,54,7C,88,02,F6,
8776516,00000377,false,Rx,0,8,05,9D,01,C2,43,45,41,22,
8780434,00000445,false,Rx,0,7,80,DF,55,65,04,82,00,00,
8781034,00000155,false,Rx,0,8,29,47,C7,54,7C,88,02,F4,
8781276,00000424,false,Rx,0,8,11,40,56,8B,3D,66,55,40,
8781502,00000425,false,Rx,0,8,25,0A,44,9C,42,4E,F1,24,
8786481,00000569,false,Rx,0,8,AA,00,80,02,00,00,00,00,
8786707,00000664,false,Rx,0,8,01,83,06,32,F3,00,00,00,
8790912,00000155,false,Rx,0,8,29,47,C7,54,7C,88,02,F4,
8796520,00000377,false,Rx,0,8,05,9D,01,C7,43,45,41,22,
8801014,00000155,false,Rx,0,8,29,47,C7,54,7C,88,02,F6,
8806545,00000568,false,Rx,0,8,00,02,80,0A,00,00,A8,AA,
8806771,00000663,false,Rx,0,8,01,33,30,30,00,00,00,00,
8810969,00000155,false,Rx,0,8,29,47,C7,54,7C,88,02,F3,
8816497,00000377,false,Rx,0,8,05,9D,01,CB,43,45,41,22,
8820963,00000155,false,Rx,0,8,29,47,C7,54,7C,88,02,F4,
8826497,00000563,false,Rx,0,8,AA,AA,2A,AA,82,2A,00,00,
8831066,00000155,false,Rx,0,8,29,47,C8,54,7C,88,02,F5,
8836549,00000377,false,Rx,0,8,05,9D,01,CB,43,45,41,22,
8840997,00000155,false,Rx,0,8,29,47,C8,54,7C,88,02,F5,
8846519,0000038A,false,Rx,0,8,45,41,00,00,04,00,00,00,
8850906,00000155,false,Rx,0,8,29,47,C8,54,7C,88,02,F6,
8856583,00000377,false,Rx,0,8,05,9D,01,BD,43,45,41,22,
8861025,00000155,false,Rx,0,8,29,47,C8,54,7C,88,02,F6,
8866558,00000389,false,Rx,0,8,BD,00,00,41,41,40,00,00,
8870754,00000423,false,Rx,0,8,07,1D,00,02,5D,80,5D,D8,
8870980,00000155,false,Rx,0,8,29,47,C7,54,7C,88,02,F6,
8876509,00000377,false,Rx,0,8,05,9D,01,B3,43,45,41,22,
8880402,00000445,false,Rx,0,7,80,DF,55,65,04,82,00,00,
8881001,00000155,false,Rx,0,8,29,47,C8,54,7C,88,02,F6,
8881242,00000424,false,Rx,0,8,11,40,56,8B,3D,66,55,40,
8881468,00000425,false,Rx,0,8,25,0A,44,9C,42,4E,F1,25,
8890994,00000155,false,Rx,0,8,29,47,C8,54,7C,88,02,F6,
8896416,00000377,false,Rx,0,8,05,9D,01,B3,43,45,41,22,
8901052,00000155,false,Rx,0,8,29,47,C8,54,7C,88,02,F8,
8911124,00000155,false,Rx,0,8,29,47,C8,54,7C,88,02,F6,
8916588,00000377,false,Rx,0,8,05,9D,01,A9,43,45,41,22,
8921037,00000155,false,Rx,0,8,29,47,C8,54,7C,88,02,F6,
8930998,00000155,false,Rx,0,8,29,47,C8,54,7C,88,02,F6,
8936495,00000377,false,Rx,0,8,05,9D,01,A9,43,45,41,22,
8940931,00000155,false,Rx,0,8,29,47,C8,54,7C,88,02,F8,
8946462,0000038A,false,Rx,0,8,45,41,00,00,04,00,00,00,
8951026,00000155,false,Rx,0,8,29,47,C8,54,7C,88,02,F5,
8956504,00000377,false,Rx,0,8,05,9D,01,A9,43,45,41,22,
8961004,00000155,false,Rx,0,8,29,47,C8,54,7C,88,02,F5,
8966539,00000389,false,Rx,0,8,BD,00,00,41,41,40,00,00,
8970734,00000423,false,Rx,0,8,07,1D,00,02,5D,80,5D,D8,
8970960,00000155,false,Rx,0,8,29,47,C8,54,7C,88,02,F8,
8976452,00000377,false,Rx,0,8,05,9D,01,A9,44,45,41,22,
8980351,00000445,false,Rx,0,7,80,DF,55,65,04,82,00,00,
8980951,00000155,false,Rx,0,8,29,47,C8,54,7C,88,02,F7,
8981179,00000424,false,Rx,0,8,11,40,56,8B,3D,66,55,40,
8981412,00000425,false,Rx,0,8,25,0A,44,9C,42,4E,F1,25,
8986570,00000569,false,Rx,0,8,AA,00,80,02,00,00,00,00,
8990972,00000155,false,Rx,0,8,29,47,C8,54,7C,88,02,F9,
8996414,00000377,false,Rx,0,8,05,9D,01,A9,44,45,41,22,
9000905,00000155,false,Rx,0,8,29,47,C8,54,7C,88,02,F6,
9006442,00000568,false,Rx,0,8,00,02,80,0A,00,00,A8,AA,
9011014,00000155,false,Rx,0,8,29,47,C8,54,7C,88,02,F9,
9016504,00000377,false,Rx,0,8,05,9D,01,A4,44,45,41,22,
9020969,00000155,false,Rx,0,8,29,47,C8,54,7C,88,02,F6,
9026513,00000563,false,Rx,0,8,AA,AA,2A,AA,82,2A,00,00,
9030902,00000155,false,Rx,0,8,29,47,C8,54,7C,88,02,F6,
9036581,00000377,false,Rx,0,8,05,9D,01,A9,44,45,41,22,
9041035,00000155,false,Rx,0,8,29,47,C8,54,7C,88,02,F6,
9046563,0000038A,false,Rx,0,8,45,41,00,00,04,00,00,00,
9050943,00000155,false,Rx,0,8,29,47,C8,54,7C,88,02,F6,
9056430,00000377,false,Rx,0,8,05,9D,01,A9,44,45,41,22,
9060878,00000155,false,Rx,0,8,29,47,C8,54,7C,88,02,F6,
9066595,00000389,false,Rx,0,8,BD,00,00,41,41,40,00,00,
9070801,00000423,false,Rx,0,8,07,1D,00,02,5D,80,5D,D8,
9071026,00000155,false,Rx,0,8,29,47,C8,54,7C,88,02,F6,
9076531,00000377,false,Rx,0,8,05,9D,01,A9,44,45,41,22,
9080434,00000445,false,Rx,0,7,80,DF,55,65,04,82,00,00,
9081033,00000155,false,Rx,0,8,29,47,C8,54,7C,88,02,F6,
9081275,00000424,false,Rx,0,8,11,40,56,8B,3D,66,55,40,
9081501,00000425,false,Rx,0,8,25,0A,44,9C,42,4E,F1,25,
9091014,00000155,false,Rx,0,8,29,47,C8,54,7C,88,02,F5,
9096446,00000377,false,Rx,0,8,05,9D,01,A9,44,45,41,22,
9100930,00000155,false,Rx,0,8,29,47,C8,54,7C,88,02,F4,
9110994,00000155,false,Rx,0,8,29,47,C8,54,7C,88,02,F5,
9116461,00000377,false,Rx,0,8,05,9D,01,A9,44,45,41,22,
9121108,00000155,false,Rx,0,8,29,47,C8,54,7C,88,02,F5,
9131046,00000155,false,Rx,0,8,29,47,C8,54,7C,88,02,F5,
9136498,00000377,false,Rx,0,8,05,9D,01,A9,43,45,41,22,
9140982,00000155,false,Rx,0,8,29,47,C8,54,7C,88,02,F5,
9146509,0000038A,false,Rx,0,8,45,41,00,00,04,00,00,00,
9151082,00000155,false,Rx,0,8,29,47,C8,54,7C,88,02,F5,
9156503,00000377,false,Rx,0,8,05,9D,01,A4,43,45,41,22,
9160968,00000155,false,Rx,0,8,29,47,C7,54,7C,88,02,F5,
9166506,00000389,false,Rx,0,8,BD,00,00,41,41,40,00,00,
9170700,00000423,false,Rx,0,8,07,1D,00,02,5D,80,5D,D8,
9170924,00000155,false,Rx,0,8,29,47,C8,54,7C,88,02,F5,
9176558,00000377,false,Rx,0,8,05,9D,01,A9,43,45,41,22,
9180328,00000445,false,Rx,0,7,80,DF,55,65,04,82,00,00,
9180931,00000155,false,Rx,0,8,29,47,C8,54,7C,88,02,F3,
9181164,00000424,false,Rx,0,8,11,40,56,8B,3D,66,55,40,
9181398,00000425,false,Rx,0,8,25,0A,44,9C,42,4E,F1,25,
9186626,00000569,false,Rx,0,8,AA,00,80,02,00,00,00,00,
9191014,00000155,false,Rx,0,8,29,47,C8,54,7C,88,02,F3,
9196815,00000377,false,Rx,0,8,05,9D,01,A4,43,45,41,22,
9201022,00000155,false,Rx,0,8,29,47,C8,54,7C,88,02,F5,
9206564,00000568,false,Rx,0,8,00,02,80,0A,00,00,A8,AA,
9210943,00000155,false,Rx,0,8,29,47,C8,54,7C,88,02,F2,
9216714,00000377,false,Rx,0,8,05,9D,01,A4,43,45,41,22,
9221013,00000155,false,Rx,0,8,29,47,C8,54,7C,88,02,F3,
9226551,00000563,false,Rx,0,8,AA,AA,2A,AA,82,2A,00,00,
9230937,00000155,false,Rx,0,8,29,47,C8,54,7C,88,02,F5,
9236937,00000377,false,Rx,0,8,05,9D,01,9F,43,45,41,22,
9240969,00000155,false,Rx,0,8,29,47,C8,54,7C,88,02,F4,
9246585,0000038A,false,Rx,0,8,45,41,00,00,04,00,00,00,
9250968,00000155,false,Rx,0,8,29,47,C8,54,7C,88,02,F4,
9256968,00000377,false,Rx,0,8,05,9D,01,A4,43,45,41,22,
9260881,00000155,false,Rx,0,8,29,47,C8,54,7C,88,02,F4,
9266599,00000389,false,Rx,0,8,BD,00,00,41,41,40,00,00,
9270801,00000423,false,Rx,0,8,07,1D,00,02,5D,80,5D,D8,
9271027,00000155,false,Rx,0,8,29,47,C8,54,7C,88,02,F5,
9277025,00000377,false,Rx,0,8,05,9D,01,9F,43,45,41,22,
9280374,00000445,false,Rx,0,7,80,DF,55,65,04,82,00,00,
9280974,00000155,false,Rx,0,8,29,47,C8,54,7C,88,02,F5,
9281203,00000424,false,Rx,0,8,11,40,56,8B,3D,66,55,40,
9281435,00000425,false,Rx,0,8,25,0A,44,9C,42,4E,F1,25,
9286581,00000664,false,Rx,0,8,01,83,06,32,F3,00,00,00,
9290981,00000155,false,Rx,0,8,29,47,C8,54,7C,88,02,F5,
9297610,00000377,false,Rx,0,8,05,9D,01,A9,44,45,41,22,
9300963,00000155,false,Rx,0,8,29,47,C8,54,7C,88,02,F7,
9306492,00000663,false,Rx,0,8,02,00,00,00,00,00,00,00,
9311066,00000155,false,Rx,0,8,29,47,C8,54,7C,88,02,F5,
9317262,00000377,false,Rx,0,8,05,9D,01,AE,44,45,41,22,
9320991,00000155,false,Rx,0,8,29,47,C7,54,7C,88,02,F5,
9331065,00000155,false,Rx,0,8,29,47,C8,54,7C,88,02,F5,
9337489,00000377,false,Rx,0,8,05,9D,01,AE,44,45,41,22,
9341012,00000155,false,Rx,0,8,29,47,C7,54,7C,88,02,F8,
9346538,0000038A,false,Rx,0,8,45,41,00,00,04,00,00,00,
9350921,00000155,false,Rx,0,8,29,47,C5,54,7C,88,02,F5,
9357519,00000377,false,Rx,0,8,05,9D,01,AE,44,45,41,22,
9360982,00000155,false,Rx,0,8,29,47,C2,54,7C,88,02,F5,
9366581,00000389,false,Rx,0,8,BD,00,00,41,41,40,00,00,
9370776,00000423,false,Rx,0,8,07,1D,00,02,B2,80,B2,D8,
9371002,00000155,false,Rx,0,8,29,47,BD,54,7C,88,02,F4,
9377655,00000377,false,Rx,0,8,05,9D,01,AE,44,45,41,22,
9380369,00000445,false,Rx,0,7,80,DF,AA,65,04,82,00,00,
9380988,00000155,false,Rx,0,8,29,47,B8,54,7C,88,02,F7,
9381244,00000424,false,Rx,0,8,11,40,56,8B,3D,66,AA,40,
9381494,00000425,false,Rx,0,8,25,0A,44,9C,42,4E,F1,25,
9386642,00000569,false,Rx,0,8,AA,00,80,02,00,00,00,00,
9391026,00000155,false,Rx,0,8,29,47,B5,54,7C,88,02,F8,
9397665,00000377,false,Rx,0,8,05,9D,01,AE,44,45,41,22,
9400977,00000155,false,Rx,0,8,29,47,B4,54,7C,88,02,F4,
9406623,00000568,false,Rx,0,8,00,02,80,0A,00,00,A8,AA,
9411200,00000155,false,Rx,0,8,29,47,B5,54,7C,88,02,F8,
9417857,00000377,false,Rx,0,8,05,9D,01,A9,44,45,41,22,
9420992,00000155,false,Rx,0,8,29,47,B8,54,7C,88,02,F6,
9426539,00000563,false,Rx,0,8,AA,AA,2A,AA,82,2A,00,00,
9430975,00000155,false,Rx,0,8,29,47,BC,54,7C,88,02,F5,
9437980,00000377,false,Rx,0,8,05,9D,01,A9,44,45,41,22,
9440976,00000155,false,Rx,0,8,29,47,BF,54,7C,88,02,F5,
9446510,0000038A,false,Rx,0,8,45,41,00,00,04,00,00,00,
9451082,00000155,false,Rx,0,8,29,47,C1,54,7C,88,02,F5,
9458055,00000377,false,Rx,0,8,05,9D,01,A4,44,45,41,22,
9461018,00000155,false,Rx,0,8,29,47,BF,54,7C,88,02,F5,
9466551,00000389,false,Rx,0,8,BD,00,00,41,41,40,00,00,
9470750,00000423,false,Rx,0,8,07,1D,00,02,B2,80,B2,D8,
9470976,00000155,false,Rx,0,8,29,47,BC,54,7C,88,02,F5,
9476510,00000377,false,Rx,0,8,05,9D,01,A9,44,45,41,22,
9480359,00000445,false,Rx,0,7,80,DF,AA,65,04,82,00,00,
9480962,00000155,false,Rx,0,8,29,47,B8,54,7C,88,02,F5,
9481194,00000424,false,Rx,0,8,11,40,56,8B,3D,66,AA,40,
9481428,00000425,false,Rx,0,8,25,0A,44,9C,42,4E,F1,25,
9490918,00000155,false,Rx,0,8,29,47,B7,54,7C,88,02,F5,
9496476,00000377,false,Rx,0,8,05,9D,01,A4,44,45,41,22,
9501004,00000155,false,Rx,0,8,29,47,B7,54,7C,88,02,F3,
9511016,00000155,false,Rx,0,8,29,47,B9,54,7C,88,02,F5,
9516545,00000377,false,Rx,0,8,05,9D,01,A4,44,45,41,22,
9520995,00000155,false,Rx,0,8,29,47,BC,54,7C,88,02,F5,
9531066,00000155,false,Rx,0,8,29,47,C1,54,7C,88,02,F5,
9536595,00000377,false,Rx,0,8,05,9D,01,A4,44,45,41,22,
9540969,00000155,false,Rx,0,8,29,47,C6,54,7C,88,02,F1,
9546564,0000038A,false,Rx,0,8,45,41,00,00,04,00,00,00,
9550943,00000155,false,Rx,0,8,29,47,C8,54,7C,88,02,F5,
9556477,00000377,false,Rx,0,8,05,9D,01,A9,44,45,41,22,
9561053,00000155,false,Rx,0,8,29,47,C9,54,7C,88,02,F5,
9566587,00000389,false,Rx,0,8,BD,00,00,41,41,40,00,00,
9570785,00000423,false,Rx,0,8,07,1D,00,02,B2,80,B2,D8,
9571011,00000155,false,Rx,0,8,29,47,C8,54,7C,88,02,F5,
9576537,00000377,false,Rx,0,8,05,9D,01,A4,44,45,41,22,
9580311,00000445,false,Rx,0,7,80,DF,AA,65,04,82,00,00,
9580914,00000155,false,Rx,0,8,29,47,C8,54,7C,88,02,F5,
9581146,00000424,false,Rx,0,8,11,40,56,8B,3D,66,AA,40,
9581391,00000425,false,Rx,0,8,25,0A,44,9C,42,4E,F1,25,
9586589,00000569,false,Rx,0,8,AA,00,80,02,00,00,00,00,
9590973,00000155,false,Rx,0,8,29,47,C8,54,7C,88,02,F5,
9596531,00000377,false,Rx,0,8,05,9D,01,A4,44,45,41,22,
9600895,00000155,false,Rx,0,8,29,47,C8,54,7C,88,02,F5,
9606545,00000568,false,Rx,0,8,00,02,80,0A,00,00,A8,AA,
9610930,00000155,false,Rx,0,8,29,47,C8,54,7C,88,02,F1,
9616455,00000377,false,Rx,0,8,05,9D,01,A9,44,45,41,22,
9621006,00000155,false,Rx,0,8,29,47,C8,54,7C,88,02,F1,
9626567,00000563,false,Rx,0,8,AA,AA,2A,AA,82,2A,00,00,
9630947,00000155,false,Rx,0,8,29,47,C8,54,7C,88,02,F5,
9636586,00000377,false,Rx,0,8,05,9D,01,A4,44,45,41,22,
9640957,00000155,false,Rx,0,8,29,47,C8,54,7C,88,02,F4,
9646563,0000038A,false,Rx,0,8,45,41,00,00,04,00,00,00,
9650947,00000155,false,Rx,0,8,29,47,C8,54,7C,88,02,F4,
9656481,00000377,false,Rx,0,8,05,9D,01,A9,44,45,41,22,
9661006,00000155,false,Rx,0,8,29,47,C8,54,7C,88,02,F4,
9666589,00000389,false,Rx,0,8,BD,00,00,41,41,40,00,00,
9670785,00000423,false,Rx,0,8,07,1D,00,02,B2,80,B2,D8,
9671011,00000155,false,Rx,0,8,29,47,C8,54,7C,88,02,F5,
9676608,00000377,false,Rx,0,8,05,9D,01,A4,44,45,41,22,
9680227,00000445,false,Rx,0,7,80,DF,AA,65,04,82,00,00,
9681016,00000155,false,Rx,0,8,29,47,C8,54,7C,88,02,F5,
9681259,00000424,false,Rx,0,8,11,40,56,8B,3D,66,AA,40,
9681486,00000425,false,Rx,0,8,25,0A,44,9C,42,4E,F1,25,
9691025,00000155,false,Rx,0,8,29,47,C8,54,7C,88,02,F5,
9696557,00000377,false,Rx,0,8,05,9D,01,A4,44,45,41,22,
9700995,00000155,false,Rx,0,8,29,47,C8,54,7C,88,02,F7,
9710930,00000155,false,Rx,0,8,29,47,C8,54,7C,88,02,F5,
9716462,00000377,false,Rx,0,8,05,9D,01,9F,44,45,41,22,
9721104,00000155,false,Rx,0,8,29,47,C8,54,7C,88,02,F5,
9731037,00000155,false,Rx,0,8,29,47,C8,54,7C,88,02,F5,
9736567,00000377,false,Rx,0,8,05,9D,01,9F,44,45,41,22,
9740923,00000155,false,Rx,0,8,29,47,C8,54,7C,88,02,F9,
9746551,0000038A,false,Rx,0,8,45,41,00,00,04,00,00,00,
9750936,00000155,false,Rx,0,8,29,47,C7,54,7C,88,02,F5,
9756466,00000377,false,Rx,0,8,05,9D,01,9F,44,45,41,22,
9761016,00000155,false,Rx,0,8,29,47,C8,54,7C,88,02,F5,
9766641,00000389,false,Rx,0,8,BD,00,00,41,41,40,00,00,
9770653,00000423,false,Rx,0,8,07,1D,00,02,B2,80,B2,D8,
9770879,00000155,false,Rx,0,8,29,47,C8,54,7C,88,02,F5,
9776595,00000377,false,Rx,0,8,05,9D,01,9F,44,45,41,22,
9780365,00000445,false,Rx,0,7,80,DF,AA,65,04,82,00,00,
9780968,00000155,false,Rx,0,8,29,47,C8,54,7C,88,02,F5,
9781204,00000424,false,Rx,0,8,11,40,56,8B,3D,66,AA,40,
9781437,00000425,false,Rx,0,8,25,0A,44,9C,42,4E,F1,25,
9786487,00000569,false,Rx,0,8,AA,00,80,02,00,00,00,00,
9786900,00000664,false,Rx,0,8,01,83,06,32,F3,00,00,00,
9790911,00000155,false,Rx,0,8,29,47,C8,54,7C,88,02,F5,
9796640,00000377,false,Rx,0,8,05,9D,01,A4,44,45,41,22,
9801001,00000155,false,Rx,0,8,29,47,C8,54,7C,88,02,F5,
9806482,00000568,false,Rx,0,8,00,02,80,0A,00,00,A8,AA,
9806894,00000663,false,Rx,0,8,00,39,34,38,31,41,30,31,
9810930,00000155,false,Rx,0,8,29,47,C8,54,7C,88,02,F9,
9816648,00000377,false,Rx,0,8,05,9D,01,A9,44,45,41,22,
9820965,00000155,false,Rx,0,8,29,47,C8,54,7C,88,02,F7,
9826611,00000563,false,Rx,0,8,AA,AA,2A,AA,82,2A,00,00,
9830994,00000155,false,Rx,0,8,29,47,C8,54,7C,88,02,F5,
9836518,00000377,false,Rx,0,8,05,9D,01,A9,44,45,41,22,
9841063,00000155,false,Rx,0,8,29,47,C8,54,7C,88,02,F6,
9846669,0000038A,false,Rx,0,8,45,41,00,00,04,00,00,00,
9851054,00000155,false,Rx,0,8,29,47,C8,54,7C,88,02,F6,
9856587,00000377,false,Rx,0,8,05,9D,01,A9,44,45,41,22,
9860903,00000155,false,Rx,0,8,29,47,C8,54,7C,88,02,F6,
9866513,00000389,false,Rx,0,8,BD,00,00,41,41,40,00,00,
9870716,00000423,false,Rx,0,8,07,1D,00,02,5D,80,5D,D8,
9870942,00000155,false,Rx,0,8,29,47,C8,54,7C,88,02,F5,
9876497,00000377,false,Rx,0,8,05,9D,01,AE,44,45,41,22,
9880266,00000445,false,Rx,0,7,80,DF,55,65,04,82,00,00,
9880890,00000155,false,Rx,0,8,29,47,C8,54,7C,88,02,F5,
9881120,00000424,false,Rx,0,8,11,40,56,8B,3D,66,55,40,
9881351,00000425,false,Rx,0,8,25,0A,44,9C,42,4E,F1,25,
9890912,00000155,false,Rx,0,8,29,47,C8,54,7C,88,02,F5,
9896628,00000377,false,Rx,0,8,05,9D,01,A9,44,45,41,22,
9900952,00000155,false,Rx,0,8,29,47,C8,54,7C,88,02,F2,
9911046,00000155,false,Rx,0,8,29,47,C8,54,7C,88,02,F5,
9916581,00000377,false,Rx,0,8,05,9D,01,A9,44,45,41,22,
9920925,00000155,false,Rx,0,8,29,47,C8,54,7C,88,02,F5,
9931069,00000155,false,Rx,0,8,29,47,C8,54,7C,88,02,F5,
9936561,00000377,false,Rx,0,8,05,9D,01,A4,44,45,41,22,
9940965,00000155,false,Rx,0,8,29,47,C8,54,7C,88,02,F6,
9946570,0000038A,false,Rx,0,8,45,41,00,00,04,00,00,00,
9950955,00000155,false,Rx,0,8,29,47,C8,54,7C,88,02,F6,
9956487,00000377,false,Rx,0,8,05,9D,01,A4,44,45,41,22,
9961008,00000155,false,Rx,0,8,29,47,C8,54,7C,88,02,F4,
9966609,00000389,false,Rx,0,8,BD,00,00,41,41,40,00,00,
9970807,00000423,false,Rx,0,8,07,1D,00,02,5D,80,5D,D8,
9971033,00000155,false,Rx,0,8,29,47,C8,54,7C,88,02,F6,
9976564,00000377,false,Rx,0,8,05,9D,01,A4,44,45,41,22,
9980892,00000445,false,Rx,0,7,80,DF,55,65,04,82,00,00,
9980898,00000155,false,Rx,0,8,29,47,C7,54,7C,88,02,F6,
9981139,00000424,false,Rx,0,8,11,40,56,8B,3D,66,55,40,
9981374,00000425,false,Rx,0,8,25,0A,44,9C,42,4E,F1,25,
9986574,00000569,false,Rx,0,8,AA,00,80,02,00,00,00,00,
9990960,00000155,false,Rx,0,8,29,47,C8,54,7C,88,02,F6,
9996495,00000377,false,Rx,0,8,05,9D,01,A4,44,45,41,22,
10000972,00000155,false,Rx,0,8,29,47,C8,54,7C,88,02,F6,
10006589,00000568,false,Rx,0,8,00,02,80,0A,00,00,A8,AA,
10010972,00000155,false,Rx,0,8,29,47,C8,54,7C,88,02,F2,
10016533,00000377,false,Rx,0,8,05,9D,01,A4,44,45,41,22,
10021113,00000155,false,Rx,0,8,29,47,C8,54,7C,88,02,F2,
10026570,00000563,false,Rx,0,8,AA,AA,2A,AA,82,2A,00,00,
10030954,00000155,false,Rx,0,8,29,47,C8,54,7C,88,02,F4,
10036487,00000377,false,Rx,0,8,05,9D,01,A4,44,45,41,22,
10041185,00000155,false,Rx,0,8,29,47,C8,54,7C,88,02,F4,
10046589,0000038A,false,Rx,0,8,45,41,00,00,04,00,00,00,
10050972,00000155,false,Rx,0,8,29,47,C8,54,7C,88,02,F6,
10056505,00000377,false,Rx,0,8,05,9D,01,A4,44,45,41,22,
10061198,00000155,false,Rx,0,8,29,47,C8,54,7C,88,02,F5,
10066621,00000389,false,Rx,0,8,BD,00,00,41,41,40,00,00,
10070815,00000423,false,Rx,0,8,07,1D,00,02,5D,80,5D,D8,
10071040,00000155,false,Rx,0,8,29,47,C8,54,7C,88,02,F6,
10076574,00000377,false,Rx,0,8,05,9D,01,A4,44,45,41,22,
10081343,00000445,false,Rx,0,7,80,DF,55,65,04,82,00,00,
10081349,00000155,false,Rx,0,8,29,47,C8,54,7C,88,02,F6,
10081355,00000424,false,Rx,0,8,11,40,56,8B,3D,66,55,40,
10081360,00000425,false,Rx,0,8,25,0A,44,9C,42,4E,F1,25,
10090954,00000155,false,Rx,0,8,29,47,C8,54,7C,88,02,F6,
10096485,00000377,false,Rx,0,8,05,9D,01,A4,44,45,41,22,
10101358,00000155,false,Rx,0,8,29,47,C8,54,7C,88,02,F9,
10110960,00000155,false,Rx,0,8,29,47,C8,54,7C,88,02,F6,
10116523,00000377,false,Rx,0,8,05,9D,01,9F,44,45,41,22,
10121512,00000155,false,Rx,0,8,29,47,C7,54,7C,88,02,F6,
10130924,00000155,false,Rx,0,8,29,47,C8,54,7C,88,02,F6,
10136643,00000377,false,Rx,0,8,05,9D,01,A4,44,45,41,22,
10141550,00000155,false,Rx,0,8,29,47,C8,54,7C,88,02,F7,
10146587,0000038A,false,Rx,0,8,45,41,00,00,04,00,00,00,
10150972,00000155,false,Rx,0,8,29,47,C8,54,7C,88,02,F7,
10156505,00000377,false,Rx,0,8,05,9D,01,9F,44,45,41,22,
10161552,00000155,false,Rx,0,8,29,47,C8,54,7C,88,02,F7,
10166584,00000389,false,Rx,0,8,BD,00,00,41,41,40,00,00,
10170781,00000423,false,Rx,0,8,07,1D,00,02,5D,80,5D,D8,
10171007,00000155,false,Rx,0,8,29,47,C8,54,7C,88,02,F7,
10176576,00000377,false,Rx,0,8,05,9D,01,A4,44,45,41,22,
10181701,00000445,false,Rx,0,7,80,DF,55,65,04,82,00,00,
10181708,00000155,false,Rx,0,8,29,47,C7,54,7C,88,02,F7,
10181713,00000424,false,Rx,0,8,11,40,56,8B,3D,66,55,40,
10181719,00000425,false,Rx,0,8,25,0A,44,9C,42,4E,F1,25,
10186592,00000569,false,Rx,0,8,AA,C0,80,02,00,00,00,00,
10190981,00000155,false,Rx,0,8,29,47,C8,54,7C,88,02,F7,
10196518,00000377,false,Rx,0,8,05,9D,01,9F,44,45,41,22,
10201795,00000155,false,Rx,0,8,29,47,C7,54,7C,88,02,F7,
10206672,00000568,false,Rx,0,8,00,02,80,0A,00,00,A8,AA,
10211082,00000155,false,Rx,0,8,29,47,C8,54,7C,88,02,FB,
10216599,00000377,false,Rx,0,8,05,9D,01,A4,44,45,41,22,
10222009,00000155,false,Rx,0,8,29,47,C8,54,7C,88,02,F9,
10226536,00000563,false,Rx,0,8,AA,AA,2A,AA,82,2A,00,00,
10230920,00000155,false,Rx,0,8,29,47,C8,54,7C,88,02,F7,
10236641,00000377,false,Rx,0,8,05,9D,01,9F,44,45,41,22,
10241916,00000155,false,Rx,0,8,29,47,C8,54,7C,88,02,F8,
10246574,0000038A,false,Rx,0,8,45,41,00,00,04,00,00,00,
10250962,00000155,false,Rx,0,8,29,47,C8,54,7C,88,02,F8,
10256678,00000377,false,Rx,0,8,05,9D,01,9F,44,45,41,22,
10261948,00000155,false,Rx,0,8,29,47,C8,54,7C,88,02,F8,
10266620,00000389,false,Rx,0,8,BD,00,00,41,41,40,00,00,
10270818,00000423,false,Rx,0,8,07,1D,00,02,5D,80,5D,D8,
10271044,00000155,false,Rx,0,8,29,47,C8,54,7C,88,02,F8,
10276581,00000377,false,Rx,0,8,05,9D,01,9F,44,45,41,22,
10280216,00000445,false,Rx,0,7,80,55,55,65,04,82,00,00,
10282088,00000155,false,Rx,0,8,29,47,C8,54,7C,88,02,F7,
10282094,00000424,false,Rx,0,8,11,40,56,8B,3D,66,55,40,
10282100,00000425,false,Rx,0,8,25,0A,44,9C,42,4E,F1,25,
10286559,00000664,false,Rx,0,8,02,83,06,32,F3,00,00,00,
10290947,00000155,false,Rx,0,8,29,47,C8,54,7C,88,02,F7,
10296663,00000377,false,Rx,0,8,05,9D,01,9F,44,45,41,22,
10302119,00000155,false,Rx,0,8,29,47,C8,54,7C,88,02,F4,
10306613,00000663,false,Rx,0,8,01,33,30,30,00,00,00,00,
10311002,00000155,false,Rx,0,8,29,47,C8,54,7C,88,02,F7,
10316545,00000377,false,Rx,0,8,05,9D,01,A9,44,45,41,22,
10322344,00000155,false,Rx,0,8,29,47,C8,54,7C,88,02,F7,
10331047,00000155,false,Rx,0,8,29,47,C8,54,7C,88,02,F7,
10336574,00000377,false,Rx,0,8,05,9D,01,A4,44,45,41,22,
10342257,00000155,false,Rx,0,8,29,47,C8,54,7C,88,02,F2,
10346557,0000038A,false,Rx,0,8,45,41,00,00,04,00,00,00,
10350941,00000155,false,Rx,0,8,29,47,C8,54,7C,88,02,F7,
10356653,00000377,false,Rx,0,8,05,9D,01,A9,44,45,41,22,
10362338,00000155,false,Rx,0,8,29,47,C8,54,7C,88,02,F7,
10366642,00000389,false,Rx,0,8,BD,00,00,41,41,40,00,00,
10370662,00000423,false,Rx,0,8,07,1D,00,02,5D,80,5D,D8,
10370888,00000155,false,Rx,0,8,29,47,C8,54,7C,88,02,F7,
10376620,00000377,false,Rx,0,8,05,9D,01,A9,44,45,41,22,
10380259,00000445,false,Rx,0,7,80,55,55,65,04,82,00,00,
10382584,00000155,false,Rx,0,8,29,47,C8,54,7C,88,02,F6,
10382590,00000424,false,Rx,0,8,11,40,56,8B,3D,66,55,40,
10382596,00000425,false,Rx,0,8,25,0A,44,9C,42,4E,F1,25,
10386709,00000569,false,Rx,0,8,AA,C0,80,02,00,00,00,00,
10390912,00000155,false,Rx,0,8,29,47,C8,54,7C,88,02,F6,
10396641,00000377,false,Rx,0,8,05,9D,01,A9,44,45,41,22,
10401026,00000155,false,Rx,0,8,29,47,C8,54,7C,88,02,F6,
10406630,00000568,false,Rx,0,8,00,02,80,0A,00,00,A8,AA,
10411216,00000155,false,Rx,0,8,29,47,C8,54,7C,88,02,F2,
10416564,00000377,false,Rx,0,8,05,9D,01,A9,44,45,41,22,
10423384,00000155,false,Rx,0,8,29,47,C8,54,7C,88,02,F3,
10426643,00000563,false,Rx,0,8,AA,AA,AA,AA,82,2A,00,00,
10431037,00000155,false,Rx,0,8,29,47,C8,54,7C,88,02,F4,
10436568,00000377,false,Rx,0,8,05,9D,01,A4,44,45,41,22,
10440992,00000155,false,Rx,0,8,29,47,C8,54,7C,88,02,F5,
10446646,0000038A,false,Rx,0,8,45,41,00,00,04,00,00,00,
10451041,00000155,false,Rx,0,8,29,47,C8,54,7C,88,02,F6,
10456574,00000377,false,Rx,0,8,05,9D,01,A4,44,45,41,22,
10460961,00000155,false,Rx,0,8,29,47,C8,54,7C,88,02,F5,
10466538,00000389,false,Rx,0,8,BD,00,00,41,41,40,00,00,
10470737,00000423,false,Rx,0,8,07,1D,00,02,B2,80,B2,D8,
10470964,00000155,false,Rx,0,8,29,47,C8,54,7C,88,02,F6,
10476678,00000377,false,Rx,0,8,05,9D,01,9F,44,45,41,22,
10480308,00000445,false,Rx,0,7,80,55,AA,65,04,82,00,00,
10480907,00000155,false,Rx,0,8,29,47,C8,54,7C,88,02,F6,
10481136,00000424,false,Rx,0,8,11,40,56,8B,3D,66,AA,40,
10481369,00000425,false,Rx,0,8,25,0A,44,9C,42,4E,F1,25,
10491013,00000155,false,Rx,0,8,29,47,C8,54,7C,88,02,F6,
10496549,00000377,false,Rx,0,8,05,9D,01,9F,44,45,41,22,
10500930,00000155,false,Rx,0,8,29,47,C8,54,7C,88,02,F9,
10510937,00000155,false,Rx,0,8,29,47,C8,54,7C,88,02,F6,
10516673,00000377,false,Rx,0,8,05,9D,01,9F,44,45,41,22,
10520922,00000155,false,Rx,0,8,29,47,C8,54,7C,88,02,F6,
10531041,00000155,false,Rx,0,8,29,47,C8,54,7C,88,02,F6,
10536574,00000377,false,Rx,0,8,05,9D,01,9F,44,45,41,22,
10540970,00000155,false,Rx,0,8,29,47,C8,54,7C,88,02,F7,
10546625,0000038A,false,Rx,0,8,45,41,00,00,04,00,00,00,
10551013,00000155,false,Rx,0,8,29,47,C8,54,7C,88,02,F7,
10556545,00000377,false,Rx,0,8,05,9D,01,9F,44,45,41,22,
10560931,00000155,false,Rx,0,8,29,47,C8,54,7C,88,02,F7,
10566658,00000389,false,Rx,0,8,BD,00,00,41,41,40,00,00,
10570673,00000423,false,Rx,0,8,07,1D,00,02,B2,80,B2,D8,
10570899,00000155,false,Rx,0,8,29,47,C8,54,7C,88,02,F7,
10576621,00000377,false,Rx,0,8,05,9D,01,9F,44,45,41,22,
10580258,00000445,false,Rx,0,7,80,55,AA,65,04,82,00,00,
10581044,00000155,false,Rx,0,8,29,47,C8,54,7C,88,02,F7,
10581281,00000424,false,Rx,0,8,11,40,56,8B,3D,66,AA,40,
10581507,00000425,false,Rx,0,8,25,0A,44,9C,42,4E,F1,25,
10586672,00000569,false,Rx,0,8,AA,C0,80,02,00,00,00,00,
10590868,00000155,false,Rx,0,8,29,47,C8,54,7C,88,02,F7,
10596599,00000377,false,Rx,0,8,05,9D,01,9F,44,45,41,22,
10600988,00000155,false,Rx,0,8,29,47,C8,54,7C,88,02,F7,
10606704,00000568,false,Rx,0,8,00,02,80,0A,00,00,A8,AA,
10610912,00000155,false,Rx,0,8,29,47,C8,54,7C,88,02,F7,
10616629,00000377,false,Rx,0,8,05,9D,01,9F,44,45,41,22,
10620931,00000155,false,Rx,0,8,29,47,C8,54,7C,88,02,FB,
10626631,00000563,false,Rx,0,8,AA,AA,AA,AA,82,2A,00,00,
10631086,00000155,false,Rx,0,8,29,47,C8,54,7C,88,02,F7,
10636678,00000377,false,Rx,0,8,05,9D,01,9F,44,45,41,22,
10641066,00000155,false,Rx,0,8,29,47,C8,54,7C,88,02,F9,
10646712,0000038A,false,Rx,0,8,45,41,00,00,04,00,00,00,
10650981,00000155,false,Rx,0,8,29,47,C8,54,7C,88,02,F8,
10656696,00000377,false,Rx,0,8,05,9D,01,A4,44,45,41,22,
10660891,00000155,false,Rx,0,8,29,47,C8,54,7C,88,02,F7,
10666628,00000389,false,Rx,0,8,BD,00,00,41,41,40,00,00,
10670734,00000423,false,Rx,0,8,07,1D,00,02,B2,80,B2,D8,
10670961,00000155,false,Rx,0,8,29,47,C8,54,7C,88,02,F8,
10676897,00000377,false,Rx,0,8,05,9D,01,9F,44,45,41,22,
10680350,00000445,false,Rx,0,7,80,55,AA,65,04,82,00,00,
10680950,00000155,false,Rx,0,8,29,47,C8,54,7C,88,02,F7,
10681182,00000424,false,Rx,0,8,11,40,56,8B,3D,66,AA,40,
10681415,00000425,false,Rx,0,8,25,0A,44,9C,42,4E,F1,25,
10690961,00000155,false,Rx,0,8,29,47,C8,54,7C,88,02,F7,
10696681,00000377,false,Rx,0,8,05,9D,01,9F,44,45,41,22,
10700878,00000155,false,Rx,0,8,29,47,C8,54,7C,88,02,F2,
10711026,00000155,false,Rx,0,8,29,47,C8,54,7C,88,02,F7,
10716563,00000377,false,Rx,0,8,05,9D,01,9F,44,45,41,22,
10720943,00000155,false,Rx,0,8,29,47,C8,54,7C,88,02,F7,
10730876,00000155,false,Rx,0,8,29,47,C8,54,7C,88,02,F7,
10736596,00000377,false,Rx,0,8,05,9D,01,9A,44,45,41,22,
10740988,00000155,false,Rx,0,8,29,47,C8,54,7C,88,02,F5,
10746668,0000038A,false,Rx,0,8,45,41,00,00,04,00,00,00,
10751056,00000155,false,Rx,0,8,29,47,C8,54,7C,88,02,F6,
10756587,00000377,false,Rx,0,8,05,9D,01,9F,44,45,41,22,
10760972,00000155,false,Rx,0,8,29,47,C8,54,7C,88,02,F7,
10766728,00000389,false,Rx,0,8,BD,00,00,41,41,40,00,00,
10770738,00000423,false,Rx,0,8,07,1D,00,02,B2,80,B2,D8,
10770964,00000155,false,Rx,0,8,29,47,C8,54,7C,88,02,F7,
10776698,00000377,false,Rx,0,8,05,9D,01,9A,44,45,41,22,
10780342,00000445,false,Rx,0,7,80,55,AA,65,04,82,00,00,
10780941,00000155,false,Rx,0,8,29,47,C8,54,7C,88,02,F6,
10781174,00000424,false,Rx,0,8,11,40,56,8B,3D,66,AA,40,
10781408,00000425,false,Rx,0,8,25,0A,44,9C,42,4E,F1,25,
10786565,00000569,false,Rx,0,8,AA,C0,80,02,00,00,00,00,
10786807,00000664,false,Rx,0,8,02,83,06,32,F3,00,00,00,
10791005,00000155,false,Rx,0,8,29,47,C8,54,7C,88,02,F7,
10796545,00000377,false,Rx,0,8,05,9D,01,9F,44,45,41,22,
10800930,00000155,false,Rx,0,8,29,47,C8,54,7C,88,02,F6,
10806615,00000568,false,Rx,0,8,00,02,80,0A,00,00,A8,AA,
10806844,00000663,false,Rx,0,8,02,00,00,00,00,00,00,00,
10810901,00000155,false,Rx,0,8,29,47,C8,54,7C,88,02,F7,
10816628,00000377,false,Rx,0,8,05,9D,01,A4,44,45,41,22,
10821013,00000155,false,Rx,0,8,29,47,C8,54,7C,88,02,F2,
10826577,00000563,false,Rx,0,8,AA,AA,AA,AA,82,2A,00,00,
10830963,00000155,false,Rx,0,8,29,47,C8,54,7C,88,02,F6,
10836697,00000377,false,Rx,0,8,05,9D,01,A4,44,45,41,22,
10840891,00000155,false,Rx,0,8,29,47,C8,54,7C,88,02,F3,
10846716,0000038A,false,Rx,0,8,45,41,00,00,04,00,00,00,
10851033,00000155,false,Rx,0,8,29,47,C8,54,7C,88,02,F4,
10856564,00000377,false,Rx,0,8,05,9D,01,A4,44,45,41,22,
10860941,00000155,false,Rx,0,8,29,47,C8,54,7C,88,02,F5,
10866679,00000389,false,Rx,0,8,BD,00,00,41,41,40,00,00,
10870696,00000423,false,Rx,0,8,07,1D,00,02,B2,80,B2,D8,
10870922,00000155,false,Rx,0,8,29,47,C8,54,7C,88,02,F6,
10876663,00000377,false,Rx,0,8,05,9D,01,A9,44,45,42,22,
10880300,00000445,false,Rx,0,7,80,55,AA,65,04,82,00,00,
10880900,00000155,false,Rx,0,8,29,47,C8,54,7C,88,02,F6,
10881133,00000424,false,Rx,0,8,11,40,56,8B,3D,66,AA,40,
10881366,00000425,false,Rx,0,8,25,0A,44,9C,42,4E,F1,25,
10890937,00000155,false,Rx,0,8,29,47,C8,54,7C,88,02,F6,
10896653,00000377,false,Rx,0,8,05,9D,01,A9,44,45,42,22,
10900860,00000155,false,Rx,0,8,29,47,C8,54,7C,88,02,FA,
10910982,00000155,false,Rx,0,8,29,47,C8,54,7C,88,02,F6,
10916699,00000377,false,Rx,0,8,05,9D,01,A9,44,45,42,22,
10921095,00000155,false,Rx,0,8,29,47,C8,54,7C,88,02,F6,
10931030,00000155,false,Rx,0,8,29,47,C8,54,7C,88,02,F6,
10936586,00000377,false,Rx,0,8,05,9D,01,A4,44,45,42,22,
10940972,00000155,false,Rx,0,8,29,47,C8,54,7C,88,02,F9,
10946639,0000038A,false,Rx,0,8,45,41,00,00,04,00,00,00,
10951053,00000155,false,Rx,0,8,29,47,C8,54,7C,88,02,F5,
10956586,00000377,false,Rx,0,8,05,9D,01,A4,44,45,42,22,
10960972,00000155,false,Rx,0,8,29,47,C8,54,7C,88,02,F5,
10966655,00000389,false,Rx,0,8,BD,00,00,41,41,40,00,00,
10970673,00000423,false,Rx,0,8,07,1D,00,02,5D,80,5D,D8,
10970900,00000155,false,Rx,0,8,29,47,C8,54,7C,88,02,F5,
10976626,00000377,false,Rx,0,8,05,9F,01,A4,44,45,42,22,
10980309,00000445,false,Rx,0,7,80,55,55,65,04,82,00,00,
10980907,00000155,false,Rx,0,8,29,47,C8,54,7C,88,02,F5,
10981134,00000424,false,Rx,0,8,11,40,56,8B,3D,66,55,40,
10981368,00000425,false,Rx,0,8,25,0A,44,9C,42,4E,F1,25,
10986661,00000569,false,Rx,0,8,AA,C0,80,02,00,00,00,00,
10990928,00000155,false,Rx,0,8,29,47,C8,54,7C,88,02,F5,
10996653,00000377,false,Rx,0,8,05,9D,01,9F,44,45,42,22,
11000860,00000155,false,Rx,0,8,29,47,C8,54,7C,88,02,F5,
11006727,00000568,false,Rx,0,8,00,02,80,0A,00,00,A8,AA,
11010993,00000155,false,Rx,0,8,29,47,C8,54,7C,88,02,F5,
11016716,00000377,false,Rx,0,8,05,9D,01,A4,44,45,42,22,
11020910,00000155,false,Rx,0,8,29,47,C8,54,7C,88,02,F9,
11026564,00000563,false,Rx,0,8,AA,AA,AA,AA,82,2A,00,00,
11031036,00000155,false,Rx,0,8,29,47,C8,54,7C,88,02,F6,
11036564,00000377,false,Rx,0,8,05,9D,01,9F,44,45,42,22,
11040975,00000155,false,Rx,0,8,29,47,C8,54,7C,88,02,F9,
11046595,0000038A,false,Rx,0,8,45,41,00,00,04,00,00,00,
11050912,00000155,false,Rx,0,8,29,47,C8,54,7C,88,02,F7,
11056628,00000377,false,Rx,0,8,05,9D,01,9F,44,45,42,22,
11061014,00000155,false,Rx,0,8,29,47,C8,54,7C,88,02,F7,
11066675,00000389,false,Rx,0,8,BD,00,00,41,41,40,00,00,
11070747,00000423,false,Rx,0,8,07,1D,00,02,5D,80,5D,D8,
11070973,00000155,false,Rx,0,8,29,47,C7,54,7C,88,02,F6,
11076693,00000377,false,Rx,0,8,05,9D,01,9F,44,45,42,22,
11080326,00000445,false,Rx,0,7,80,55,55,65,04,82,00,00,
11080926,00000155,false,Rx,0,8,29,47,C7,54,7C,88,02,F6,
11081153,00000424,false,Rx,0,8,11,40,56,8B,3D,66,55,40,
11081387,00000425,false,Rx,0,8,25,0A,44,9C,42,4E,F1,25,
11090930,00000155,false,Rx,0,8,29,47,C8,54,7C,88,02,F6,
11096653,00000377,false,Rx,0,8,05,9D,01,9F,44,45,42,22,
11100854,00000155,false,Rx,0,8,29,47,C8,54,7C,88,02,F5,
11110937,00000155,false,Rx,0,8,29,47,C8,54,7C,88,02,F5,
11116653,00000377,false,Rx,0,8,05,9D,01,9F,44,45,42,22,
11121047,00000155,false,Rx,0,8,29,47,C8,54,7C,88,02,F5,
11131004,00000155,false,Rx,0,8,29,47,C7,54,7C,88,02,F5,
11136737,00000377,false,Rx,0,8,05,9D,01,9F,44,45,42,22,
11140974,00000155,false,Rx,0,8,29,47,C7,54,7C,88,02,F5,
11146583,0000038A,false,Rx,0,8,45,41,00,00,04,00,00,00,
11151046,00000155,false,Rx,0,8,29,47,C7,54,7C,88,02,F5,
11156581,00000377,false,Rx,0,8,05,9D,01,B8,44,45,42,22,
11160963,00000155,false,Rx,0,8,29,47,C7,54,7C,88,02,F5,
11166647,00000389,false,Rx,0,8,BD,00,00,41,41,40,00,00,
11170740,00000423,false,Rx,0,8,07,1D,00,02,5D,80,5D,D8,
11170967,00000155,false,Rx,0,8,29,47,C8,54,7C,88,02,F5,
11176555,00000377,false,Rx,0,8,05,9D,01,DA,44,45,42,22,
11180184,00000445,false,Rx,0,7,80,55,55,65,04,82,00,00,
11180976,00000155,false,Rx,0,8,29,47,C8,54,7C,88,02,F5,
11181204,00000424,false,Rx,0,8,11,40,56,8B,3D,66,55,40,
11181437,00000425,false,Rx,0,8,25,0A,44,9C,42,4E,F1,25,
11186585,00000569,false,Rx,0,8,AA,C0,80,02,00,00,00,00,
11190869,00000155,false,Rx,0,8,29,47,C8,54,7C,88,02,F5,
11196599,00000377,false,Rx,0,8,05,9D,01,D0,44,45,42,22,
11200988,00000155,false,Rx,0,8,29,47,C7,54,7C,88,02,F5,
11206649,00000568,false,Rx,0,8,00,02,80,0A,00,00,A8,AA,
11210891,00000155,false,Rx,0,8,29,47,C8,54,7C,88,02,F5,
11216621,00000377,false,Rx,0,8,05,9D,01,CB,44,45,42,22,
11221003,00000155,false,Rx,0,8,29,47,C8,54,7C,88,02,F5,
11226723,00000563,false,Rx,0,8,AA,AA,AA,AA,82,2A,00,00,
11230982,00000155,false,Rx,0,8,29,47,C8,54,7C,88,02,F5,
11236725,00000377,false,Rx,0,8,05,9D,01,C7,44,45,42,22,
11240921,00000155,false,Rx,0,8,29,47,C7,54,7C,88,02,F5,
11246586,0000038A,false,Rx,0,8,45,41,00,00,04,00,00,00,
11250869,00000155,false,Rx,0,8,29,47,C8,54,7C,88,02,F5,
11256586,00000377,false,Rx,0,8,05,9D,01,C2,44,45,42,22,
11260972,00000155,false,Rx,0,8,29,47,C8,54,7C,88,02,F5,
11266640,00000389,false,Rx,0,8,BD,00,00,41,41,40,00,00,
11270697,00000423,false,Rx,0,8,07,1D,00,02,5D,80,5D,D8,
11270923,00000155,false,Rx,0,8,29,47,C8,54,7C,88,02,F5,
11276641,00000377,false,Rx,0,8,05,9D,01,BD,44,45,42,22,
11280280,00000445,false,Rx,0,7,80,55,55,65,04,82,00,00,
11280879,00000155,false,Rx,0,8,29,47,C8,54,7C,88,02,F5,
11281107,00000424,false,Rx,0,8,11,40,56,8B,3D,66,55,40,
11281340,00000425,false,Rx,0,8,25,0A,44,9C,42,4E,F1,25,
11286645,00000664,false,Rx,0,8,02,83,06,32,F3,00,00,00,
11290868,00000155,false,Rx,0,8,29,47,C8,54,7C,88,02,F5,
11296669,00000377,false,Rx,0,8,05,9D,01,A4,44,45,42,22,
11300866,00000155,false,Rx,0,8,29,47,C8,54,7C,88,02,F5,
11306758,00000663,false,Rx,0,8,00,39,34,38,31,41,30,31,
11310960,00000155,false,Rx,0,8,29,47,C8,54,7C,88,02,F5,
11316678,00000377,false,Rx,0,8,05,9D,01,9A,44,45,42,22,
11321065,00000155,false,Rx,0,8,29,47,C8,54,7C,88,02,F5,
11330954,00000155,false,Rx,0,8,29,47,C8,54,7C,88,02,F5,
11336673,00000377,false,Rx,0,8,05,9D,01,9A,44,45,42,22,
11340891,00000155,false,Rx,0,8,29,47,C8,54,7C,88,02,F5,
11346675,0000038A,false,Rx,0,8,45,41,00,00,04,00,00,00,
11350976,00000155,false,Rx,0,8,29,47,C8,54,7C,88,02,F5,
11356697,00000377,false,Rx,0,8,05,9D,01,9F,44,45,42,22,
11360892,00000155,false,Rx,0,8,29,47,C8,54,7C,88,02,F5,
11366718,00000389,false,Rx,0,8,BD,00,00,41,41,40,00,00,
11370809,00000423,false,Rx,0,8,07,1D,00,02,5D,80,5D,D8,
11371035,00000155,false,Rx,0,8,29,47,C8,54,7C,88,02,F5,
11376568,00000377,false,Rx,0,8,05,9D,01,A4,44,45,42,22,
11380193,00000445,false,Rx,0,7,80,55,55,65,04,82,00,00,
11380985,00000155,false,Rx,0,8,29,47,C8,54,7C,88,02,F5,
11381225,00000424,false,Rx,0,8,11,40,56,8B,3D,66,55,40,
11381451,00000425,false,Rx,0,8,25,0A,44,9C,42,4E,F1,25,
11386890,00000569,false,Rx,0,8,AA,C0,80,02,00,00,00,00,
11390853,00000155,false,Rx,0,8,29,47,C8,54,7C,88,02,F5,
11396587,00000377,false,Rx,0,8,05,9D,01,A4,44,45,42,22,
11400972,00000155,false,Rx,0,8,29,47,C8,54,7C,88,02,F5,
11406968,00000568,false,Rx,0,8,00,02,80,0A,00,00,A8,AA,
11411044,00000155,false,Rx,0,8,29,47,C8,54,7C,88,02,F5,
11416621,00000377,false,Rx,0,8,05,9D,01,A4,44,45,42,22,
11421005,00000155,false,Rx,0,8,29,47,C8,54,7C,88,02,F5,
11427105,00000563,false,Rx,0,8,AA,AA,AA,AA,82,2A,00,00,
11431021,00000155,false,Rx,0,8,29,47,C8,54,7C,88,02,F5,
11436732,00000377,false,Rx,0,8,05,9D,01,A4,44,45,42,22,
11441012,00000155,false,Rx,0,8,29,47,C8,54,7C,88,02,F5,
11447909,0000038A,false,Rx,0,8,45,41,00,00,04,00,00,00,
11450898,00000155,false,Rx,0,8,29,47,C8,54,7C,88,02,F5,
11456620,00000377,false,Rx,0,8,05,9D,01,A9,44,45,42,22,
11461005,00000155,false,Rx,0,8,29,47,C8,54,7C,88,02,F5,
11467401,00000389,false,Rx,0,8,BD,00,00,41,41,40,00,00,
11470732,00000423,false,Rx,0,8,07,1D,00,02,5D,80,5D,D8,
11470960,00000155,false,Rx,0,8,29,47,C8,54,7C,88,02,F5,
11476678,00000377,false,Rx,0,8,05,9D,01,9F,44,45,42,22,
11480310,00000445,false,Rx,0,7,80,55,55,65,04,82,00,00,
11480909,00000155,false,Rx,0,8,29,47,C8,54,7C,88,02,F5,
11481138,00000424,false,Rx,0,8,11,40,56,8B,3D,66,55,40,
11481372,00000425,false,Rx,0,8,25,0A,44,9C,42,4E,F1,25,
11481598,000004AE,false,Rx,0,8,D2,B2,3C,A0,88,5A,78,84,
11481824,00000659,false,Rx,0,4,2B,33,C4,30,00,00,00,00,
11482049,000004AF,false,Rx,0,5,65,3C,4B,50,00,00,00,00,
11490983,00000155,false,Rx,0,8,29,47,C8,54,7C,88,02,F5,
11496705,00000377,false,Rx,0,8,05,9D,01,9A,44,45,42,22,
11500908,00000155,false,Rx,0,8,29,47,C8,54,7C,88,02,F5,
11510986,00000155,false,Rx,0,8,29,47,C8,54,7C,88,02,F5,
11516706,00000377,false,Rx,0,8,05,9D,01,95,44,45,42,22,
11520912,00000155,false,Rx,0,8,29,47,C8,54,7C,88,02,F5,
11530978,00000155,false,Rx,0,8,29,47,C8,54,7C,88,02,F5,
11536697,00000377,false,Rx,0,8,05,9D,01,9A,44,45,42,22,
11541082,00000155,false,Rx,0,8,29,47,C8,54,7C,88,02,F5,
11547899,0000038A,false,Rx,0,8,45,41,00,00,04,00,00,00,
11551016,00000155,false,Rx,0,8,29,47,C8,54,7C,88,02,F5,
11556614,00000377,false,Rx,0,8,05,9D,01,9A,44,45,42,22,
11560999,00000155,false,Rx,0,8,29,47,C8,54,7C,88,02,F5,
11568013,00000389,false,Rx,0,8,BD,00,00,41,41,40,00,00,
11570750,00000423,false,Rx,0,8,07,1D,00,02,B2,80,B2,D8,
11570998,00000155,false,Rx,0,8,29,47,C8,54,7C,88,02,F5,
11576581,00000377,false,Rx,0,8,05,9D,01,95,44,45,42,22,
11580216,00000445,false,Rx,0,7,80,55,AA,65,04,82,00,00,
11581002,00000155,false,Rx,0,8,29,47,C8,54,7C,88,02,F5,
11581244,00000424,false,Rx,0,8,11,40,56,8B,3D,66,AA,40,
11581470,00000425,false,Rx,0,8,25,0A,44,9C,42,4E,F1,25,
11588056,00000569,false,Rx,0,8,AA,C0,80,02,00,00,00,00,
11590966,00000155,false,Rx,0,8,29,47,C9,54,7C,88,02,F5,
11596696,00000377,false,Rx,0,8,05,9D,01,95,44,45,42,22,
11600959,00000155,false,Rx,0,8,29,47,C8,54,7C,88,02,F5,
11608115,00000568,false,Rx,0,8,00,02,80,0A,00,00,A8,AA,
11610897,00000155,false,Rx,0,8,29,47,C8,54,7C,88,02,F5,
11616620,00000377,false,Rx,0,8,05,9D,01,9A,44,45,42,22,
11621005,00000155,false,Rx,0,8,29,47,C8,54,7C,88,02,F5,
11628191,00000563,false,Rx,0,8,AA,AA,AA,AA,82,2A,00,00,
11630964,00000155,false,Rx,0,8,29,47,C8,54,7C,88,02,F5,
11636678,00000377,false,Rx,0,8,05,9D,01,9A,44,45,42,22,
11641066,00000155,false,Rx,0,8,29,47,C8,54,7C,88,02,F5,
11646607,0000038A,false,Rx,0,8,45,41,00,00,04,00,00,00,
11650982,00000155,false,Rx,0,8,29,47,C8,54,7C,88,02,F5,
11656589,00000377,false,Rx,0,8,05,9D,01,9A,44,45,42,22,
11660833,00000155,false,Rx,0,8,29,47,C8,54,7C,88,02,F5,
11666731,00000389,false,Rx,0,8,BD,00,00,41,41,40,00,00,
11670766,00000423,false,Rx,0,8,07,1D,00,02,B2,80,B2,D8,
11670996,00000155,false,Rx,0,8,29,47,C8,54,7C,88,02,F5,
11676706,00000377,false,Rx,0,8,05,9D,01,9A,44,45,42,22,
11680158,00000445,false,Rx,0,7,80,55,AA,65,04,82,00,00,
11680951,00000155,false,Rx,0,8,29,47,C8,54,7C,88,02,F5,
11681185,00000424,false,Rx,0,8,11,40,56,8B,3D,66,AA,40,
11681418,00000425,false,Rx,0,8,25,0A,44,9C,42,4E,F1,25,
11690871,00000155,false,Rx,0,8,29,47,C9,54,7C,88,02,F5,
11696589,00000377,false,Rx,0,8,05,9D,01,9A,44,45,42,22,
11700972,00000155,false,Rx,0,8,29,47,C8,54,7C,88,02,F5,
11710935,00000155,false,Rx,0,8,29,47,C8,54,7C,88,02,F5,
11716652,00000377,false,Rx,0,8,05,9D,01,9A,44,45,42,22,
11721041,00000155,false,Rx,0,8,29,47,C8,54,7C,88,02,F5,
11730907,00000155,false,Rx,0,8,29,47,C8,54,7C,88,02,F5,
11736678,00000377,false,Rx,0,8,05,9D,01,95,44,45,42,22,
11740878,00000155,false,Rx,0,8,29,47,C8,54,7C,88,02,F5,
11746620,0000038A,false,Rx,0,8,45,41,00,00,04,00,00,00,
11751004,00000155,false,Rx,0,8,29,47,C8,54,7C,88,02,F5,
11756641,00000377,false,Rx,0,8,05,9D,01,9A,44,45,42,22,
11761025,00000155,false,Rx,0,8,29,47,C9,54,7C,88,02,F5,
11766743,00000389,false,Rx,0,8,BD,00,00,41,41,40,00,00,
11770813,00000423,false,Rx,0,8,07,1D,00,02,B2,80,B2,D8,
11771064,00000155,false,Rx,0,8,29,47,C8,54,7C,88,02,F5,
11776715,00000377,false,Rx,0,8,05,9D,01,95,44,45,42,22,
11780162,00000445,false,Rx,0,7,80,55,AA,65,04,82,00,00,
11780955,00000155,false,Rx,0,8,29,47,C8,54,7C,88,02,F5,
11781189,00000424,false,Rx,0,8,11,40,56,8B,3D,66,AA,40,
11781422,00000425,false,Rx,0,8,25,0A,44,9C,42,4E,F1,25,
11786750,00000569,false,Rx,0,8,AA,C0,80,02,00,00,00,00,
11786976,00000664,false,Rx,0,8,02,83,06,32,F3,00,00,00,
11790935,00000155,false,Rx,0,8,29,47,C9,54,7C,88,02,F5,
11796733,00000377,false,Rx,0,8,05,9D,01,95,44,45,42,22,
11800930,00000155,false,Rx,0,8,29,47,C8,54,7C,88,02,F5,
11806643,00000568,false,Rx,0,8,00,02,80,0A,00,00,A8,AA,
11807055,00000663,false,Rx,0,8,01,33,30,30,00,00,00,00,
11810976,00000155,false,Rx,0,8,29,47,C9,54,7C,88,02,F5,
11816697,00000377,false,Rx,0,8,05,9D,01,95,44,45,42,22,
11820892,00000155,false,Rx,0,8,29,47,C8,54,7C,88,02,F5,
11826625,00000563,false,Rx,0,8,AA,AA,AA,AA,82,2A,00,00,
11830937,00000155,false,Rx,0,8,29,47,C8,54,7C,88,02,F5,
11836709,00000377,false,Rx,0,8,05,9D,01,95,44,45,42,22,
11840912,00000155,false,Rx,0,8,29,47,C8,54,7C,88,02,F5,
11846627,0000038A,false,Rx,0,8,45,41,00,00,04,00,00,00,
11850950,00000155,false,Rx,0,8,29,47,C8,54,7C,88,02,F5,
11856725,00000377,false,Rx,0,8,05,9D,01,9A,44,45,42,22,
11860920,00000155,false,Rx,0,8,29,47,C8,54,7C,88,02,F5,
11866641,00000389,false,Rx,0,8,BD,00,00,41,41,40,00,00,
11870754,00000423,false,Rx,0,8,07,1D,00,02,B2,80,B2,D8,
11871025,00000155,false,Rx,0,8,29,47,C8,54,7C,88,02,F5,
11876608,00000377,false,Rx,0,8,05,9D,01,9F,44,45,42,22,
11880250,00000445,false,Rx,0,7,80,55,AA,65,04,82,00,00,
11880849,00000155,false,Rx,0,8,29,47,C8,54,7C,88,02,F5,
11881310,00000424,false,Rx,0,8,11,40,56,8B,3D,66,AA,40,
11881315,00000425,false,Rx,0,8,25,0A,44,9C,42,4E,F1,25,
11890983,00000155,false,Rx,0,8,29,47,C9,54,7C,88,02,F5,
11896760,00000377,false,Rx,0,8,05,9D,01,9F,44,45,42,22,
11900954,00000155,false,Rx,0,8,29,47,C8,54,7C,88,02,F5,
11911022,00000155,false,Rx,0,8,29,47,C8,54,7C,88,02,F5,
11916628,00000377,false,Rx,0,8,05,9D,01,9F,44,45,42,22,
11921014,00000155,false,Rx,0,8,29,47,C8,54,7C,88,02,F5,
11930934,00000155,false,Rx,0,8,29,47,C8,54,7C,88,02,F5,
11936722,00000377,false,Rx,0,8,05,9D,01,9F,44,45,42,22,
11940917,00000155,false,Rx,0,8,29,47,C8,54,7C,88,02,F5,
11946641,0000038A,false,Rx,0,8,45,41,00,00,04,00,00,00,
11951005,00000155,false,Rx,0,8,29,47,C8,54,7C,88,02,F6,
11956643,00000377,false,Rx,0,8,05,9D,01,9F,44,45,42,22,
11960868,00000155,false,Rx,0,8,29,47,C8,54,7C,88,02,F6,
11966773,00000389,false,Rx,0,8,BD,00,00,41,41,40,00,00,
11970696,00000423,false,Rx,0,8,07,1D,00,02,B2,80,B2,D8,
11970926,00000155,false,Rx,0,8,29,47,C8,54,7C,88,02,F6,
11976731,00000377,false,Rx,0,8,05,9D,01,9F,44,45,42,22,
11980177,00000445,false,Rx,0,7,80,55,AA,65,04,82,00,00,
11980970,00000155,false,Rx,0,8,29,47,C9,54,7C,88,02,F6,
11981204,00000424,false,Rx,0,8,11,40,56,8B,3D,66,AA,40,
11981437,00000425,false,Rx,0,8,25,0A,44,9C,42,4E,F1,25,
11986767,00000569,false,Rx,0,8,AA,C0,80,02,00,00,00,00,
11990928,00000155,false,Rx,0,8,29,47,C8,54,7C,88,02,F6,
11996725,00000377,false,Rx,0,8,05,9D,01,9A,44,45,42,22,
12000920,00000155,false,Rx,0,8,29,47,C8,54,7C,88,02,F6,
12006640,00000568,false,Rx,0,8,00,02,80,0A,00,00,A8,AA,
12010964,00000155,false,Rx,0,8,29,47,C8,54,7C,88,02,F7,
12016700,00000377,false,Rx,0,8,05,9D,01,9A,44,45,42,22,
12020972,00000155,false,Rx,0,8,29,47,C8,54,7C,88,02,F7,
12026701,00000563,false,Rx,0,8,AA,AA,AA,AA,82,2A,00,00,
12031042,00000155,false,Rx,0,8,29,47,C8,54,7C,88,02,F7,
12036628,00000377,false,Rx,0,8,05,9D,01,9A,44,45,42,22,
12041014,00000155,false,Rx,0,8,29,47,C8,54,7C,88,02,F7,
12046731,0000038A,false,Rx,0,8,45,41,00,00,04,00,00,00,
12050891,00000155,false,Rx,0,8,29,47,C8,54,7C,88,02,F7,
12056692,00000377,false,Rx,0,8,05,9D,01,9A,44,45,42,22,
12060887,00000155,false,Rx,0,8,29,47,C9,54,7C,88,02,F7,
12066632,00000389,false,Rx,0,8,BD,00,00,41,41,40,00,00,
12070728,00000423,false,Rx,0,8,07,1D,00,02,5D,80,5D,D8,
12070957,00000155,false,Rx,0,8,29,47,C8,54,7C,88,02,F7,
12076738,00000377,false,Rx,0,8,05,9D,01,9A,44,45,42,22,
12080189,00000445,false,Rx,0,7,80,55,55,65,04,82,00,00,
12080982,00000155,false,Rx,0,8,29,47,C8,54,7C,88,02,F7,
12081217,00000424,false,Rx,0,8,11,40,56,8B,3D,66,55,40,
12081443,00000425,false,Rx,0,8,25,0A,44,9C,42,4E,F1,25,
12090887,00000155,false,Rx,0,8,29,47,C8,54,7C,88,02,F7,
12096696,00000377,false,Rx,0,8,05,9D,01,95,44,45,42,22,
12100892,00000155,false,Rx,0,8,29,47,C8,54,7C,88,02,F7,
12110908,00000155,false,Rx,0,8,29,47,C8,54,7C,88,02,F7,
12116722,00000377,false,Rx,0,8,05,9D,01,95,44,45,42,22,
12120918,00000155,false,Rx,0,8,29,47,C8,54,7C,88,02,F7,
12131001,00000155,false,Rx,0,8,29,47,C9,54,7C,88,02,F7,
12136768,00000377,false,Rx,0,8,05,9D,01,95,44,45,42,22,
12140963,00000155,false,Rx,0,8,29,47,C8,54,7C,88,02,F7,
12146678,0000038A,false,Rx,0,8,45,41,00,00,04,00,00,00,
12151032,00000155,false,Rx,0,8,29,47,C8,54,7C,88,02,F7,
12156622,00000377,false,Rx,0,8,05,9D,01,95,44,45,42,22,
12161005,00000155,false,Rx,0,8,29,47,C8,54,7C,88,02,F7,
12166738,00000389,false,Rx,0,8,BD,00,00,41,41,40,00,00,
12170843,00000423,false,Rx,0,8,07,1D,00,02,5D,80,5D,D8,
12171077,00000155,false,Rx,0,8,29,47,C8,54,7C,88,02,F7,
12176781,00000377,false,Rx,0,8,05,9D,01,95,44,45,42,22,
12180233,00000445,false,Rx,0,7,80,55,55,65,04,82,00,00,
12181019,00000155,false,Rx,0,8,29,47,C8,54,7C,88,02,F7,
12181257,00000424,false,Rx,0,8,11,40,56,8B,3D,66,55,40,
12181483,00000425,false,Rx,0,8,25,0A,44,9C,42,4E,F1,25,
12186815,00000569,false,Rx,0,8,AA,C0,80,02,00,00,00,00,
12191000,00000155,false,Rx,0,8,29,47,C8,54,7C,88,02,F7,
12196776,00000377,false,Rx,0,8,05,9D,01,95,44,45,42,22,
12200972,00000155,false,Rx,0,8,29,47,C8,54,7C,88,02,F7,
12206693,00000568,false,Rx,0,8,00,02,80,0A,00,00,A8,AA,
12211030,00000155,false,Rx,0,8,29,47,C8,54,7C,88,02,F7,
12216614,00000377,false,Rx,0,8,05,9D,01,95,44,45,42,22,
12221001,00000155,false,Rx,0,8,29,47,C8,54,7C,88,02,F7,
12226726,00000563,false,Rx,0,8,AA,AA,AA,AA,82,2A,00,00,
12231081,00000155,false,Rx,0,8,29,47,C8,54,7C,88,02,F7,
12236682,00000377,false,Rx,0,8,05,9D,01,95,44,45,42,22,
12240878,00000155,false,Rx,0,8,29,47,C8,54,7C,88,02,F7,
12246776,0000038A,false,Rx,0,8,45,41,00,00,04,00,00,00,
12250915,00000155,false,Rx,0,8,29,47,C8,54,7C,88,02,F7,
12256696,00000377,false,Rx,0,8,05,9D,01,95,44,45,42,22,
12260911,00000155,false,Rx,0,8,29,47,C8,54,7C,88,02,F7,
12266658,00000389,false,Rx,0,8,BD,00,00,41,41,40,00,00,
12270725,00000423,false,Rx,0,8,07,1D,00,02,5D,80,5D,D8,
12270960,00000155,false,Rx,0,8,29,47,C8,54,7C,88,02,F7,
12276683,00000377,false,Rx,0,8,05,9D,01,9A,44,45,42,22,
12280122,00000445,false,Rx,0,7,80,55,55,65,04,82,00,00,
12280915,00000155,false,Rx,0,8,29,47,C8,54,7C,88,02,F7,
12281145,00000424,false,Rx,0,8,11,40,56,8B,3D,66,55,40,
12281378,00000425,false,Rx,0,8,25,0A,44,9C,42,4E,F1,25,
12286781,00000664,false,Rx,0,8,02,83,06,32,F3,00,00,00,
12290924,00000155,false,Rx,0,8,29,47,C8,54,7C,88,02,F7,
12296705,00000377,false,Rx,0,8,05,9D,01,95,44,45,42,22,
12300911,00000155,false,Rx,0,8,29,47,C8,54,7C,88,02,F7,
12306815,00000663,false,Rx,0,8,02,00,00,00,00,00,00,00,
12310962,00000155,false,Rx,0,8,29,47,C8,54,7C,88,02,F7,
12316737,00000377,false,Rx,0,8,05,9D,01,95,44,45,42,22,
12320937,00000155,false,Rx,0,8,29,47,C8,54,7C,88,02,F7,
12330919,00000155,false,Rx,0,8,29,47,C8,54,7C,88,02,F7,
12336754,00000377,false,Rx,0,8,05,9D,01,95,44,45,42,22,
12340947,00000155,false,Rx,0,8,29,47,C8,54,7C,88,02,F7,
12346668,0000038A,false,Rx,0,8,45,41,00,00,04,00,00,00,
12350962,00000155,false,Rx,0,8,29,47,C8,54,7C,88,02,F7,
12356801,00000377,false,Rx,0,8,05,9D,01,90,44,45,42,22,
12361021,00000155,false,Rx,0,8,29,47,C8,54,7C,88,02,F7,
12366731,00000389,false,Rx,0,8,BD,00,00,41,41,40,00,00,
12371203,00000423,false,Rx,0,8,07,1D,00,02,5D,80,5D,D8,
12371216,00000155,false,Rx,0,8,29,47,C8,54,7C,88,02,F7,
12376697,00000377,false,Rx,0,8,05,9D,01,9A,44,45,42,22,
12380137,00000445,false,Rx,0,7,80,55,55,65,04,82,00,00,
12380930,00000155,false,Rx,0,8,29,47,C8,54,7C,88,02,F7,
12381161,00000424,false,Rx,0,8,11,40,56,8B,3D,66,55,40,
12381394,00000425,false,Rx,0,8,25,0A,44,9C,42,4E,F1,25,
12386725,00000569,false,Rx,0,8,AA,C0,80,02,00,00,00,00,
12391264,00000155,false,Rx,0,8,29,47,C8,54,7C,88,02,F7,
12396682,00000377,false,Rx,0,8,05,9D,01,9A,44,45,42,22,
12400879,00000155,false,Rx,0,8,29,47,C8,54,7C,88,02,F7,
12406782,00000568,false,Rx,0,8,00,02,80,0A,00,00,A8,AA,
12411270,00000155,false,Rx,0,8,29,47,C8,54,7C,88,02,F7,
12416692,00000377,false,Rx,0,8,05,9D,01,9F,44,45,42,22,
12420886,00000155,false,Rx,0,8,29,47,C8,54,7C,88,02,F7,
12426830,00000563,false,Rx,0,8,AA,AA,AA,AA,82,2A,00,00,
12431418,00000155,false,Rx,0,8,29,47,C8,54,7C,88,02,F7,
12436682,00000377,false,Rx,0,8,05,9D,01,9A,44,45,42,22,
12440922,00000155,false,Rx,0,8,29,47,C8,54,7C,88,02,F7,
12446827,0000038A,false,Rx,0,8,45,41,00,00,04,00,00,00,
12451528,00000155,false,Rx,0,8,29,47,C8,54,7C,88,02,F7,
12456803,00000377,false,Rx,0,8,05,9D,01,9F,44,45,42,22,
12461000,00000155,false,Rx,0,8,29,47,C8,54,7C,88,02,F7,
12466744,00000389,false,Rx,0,8,BD,00,00,41,41,40,00,00,
12471692,00000423,false,Rx,0,8,07,1D,00,02,5D,80,5D,D8,
12471699,00000155,false,Rx,0,8,29,47,C8,54,7C,88,02,F7,
12476752,00000377,false,Rx,0,8,05,9D,01,9F,44,45,42,22,
12480103,00000445,false,Rx,0,7,80,55,55,65,04,82,00,00,
12480896,00000155,false,Rx,0,8,29,47,C8,54,7C,88,02,F7,
12481130,00000424,false,Rx,0,8,11,40,56,8B,3D,66,55,40,
12481363,00000425,false,Rx,0,8,25,0A,44,9C,42,4E,F1,25,
12491760,00000155,false,Rx,0,8,29,47,C8,54,7C,88,02,F7,
12496818,00000377,false,Rx,0,8,05,9D,01,9A,44,45,42,22,
12500829,00000155,false,Rx,0,8,29,47,C8,54,7C,88,02,F7,
12511756,00000155,false,Rx,0,8,29,47,C8,54,7C,88,02,F7,
12516815,00000377,false,Rx,0,8,05,9D,01,9A,44,45,42,22,
12521014,00000155,false,Rx,0,8,29,47,C8,54,7C,88,02,F7,
12531755,00000155,false,Rx,0,8,29,47,C8,54,7C,88,02,F7,
12536823,00000377,false,Rx,0,8,05,9D,01,95,44,45,42,22,
12541022,00000155,false,Rx,0,8,29,47,C8,54,7C,88,02,F7,
12546732,0000038A,false,Rx,0,8,45,41,00,00,04,00,00,00,
12551822,00000155,false,Rx,0,8,29,47,C8,54,7C,88,02,F7,
12556674,00000377,false,Rx,0,8,05,9D,01,95,44,45,42,22,
12560870,00000155,false,Rx,0,8,29,47,C8,54,7C,88,02,F7,
12566792,00000389,false,Rx,0,8,BD,00,00,41,41,40,00,00,
12571919,00000423,false,Rx,0,8,07,1D,00,02,5D,80,5D,D8,
12571925,00000155,false,Rx,0,8,29,47,C8,54,7C,88,02,F7,
12576819,00000377,false,Rx,0,8,05,9D,01,95,44,45,42,22,
12580270,00000445,false,Rx,0,7,80,55,55,65,04,82,00,00,
12580869,00000155,false,Rx,0,8,29,47,C8,54,7C,88,02,F7,
12581104,00000424,false,Rx,0,8,11,40,56,8B,3D,66,55,40,
12581338,00000425,false,Rx,0,8,25,0A,44,9C,42,4E,F1,25,
12586673,00000569,false,Rx,0,8,AA,C0,80,02,00,00,00,00,
12592006,00000155,false,Rx,0,8,29,47,C8,54,7C,88,02,F7,
12596681,00000377,false,Rx,0,8,05,9D,01,95,44,45,42,22,
12600879,00000155,false,Rx,0,8,29,47,C8,54,7C,88,02,F7,
12606782,00000568,false,Rx,0,8,00,02,80,0A,00,00,A8,AA,
12612044,00000155,false,Rx,0,8,29,47,C8,54,7C,88,02,F7,
12616708,00000377,false,Rx,0,8,05,9D,01,95,44,45,42,22,
12620912,00000155,false,Rx,0,8,29,47,C8,54,7C,88,02,F7,
12626819,00000563,false,Rx,0,8,AA,AA,AA,AA,82,2A,00,00,
12632076,00000155,false,Rx,0,8,29,47,C8,54,7C,88,02,F7,
12636768,00000377,false,Rx,0,8,05,9D,01,9A,44,45,42,22,
12640963,00000155,false,Rx,0,8,29,47,C8,54,7C,88,02,F7,
12646678,0000038A,false,Rx,0,8,45,41,00,00,04,00,00,00,
12652150,00000155,false,Rx,0,8,29,47,C8,54,7C,88,02,F7,
12656655,00000377,false,Rx,0,8,05,9D,01,95,44,45,42,22,
12660860,00000155,false,Rx,0,8,29,47,C8,54,7C,88,02,F7,
12666767,00000389,false,Rx,0,8,BD,00,00,41,41,40,00,00,
12672325,00000423,false,Rx,0,8,07,1D,00,02,B2,80,B2,D8,
12672332,00000155,false,Rx,0,8,29,47,C8,54,7C,88,02,F7,
12676752,00000377,false,Rx,0,8,05,9D,01,95,44,45,42,22,
12680108,00000445,false,Rx,0,7,80,55,AA,65,04,82,00,00,
12680923,00000155,false,Rx,0,8,29,47,C8,54,7C,88,02,F7,
12681156,00000424,false,Rx,0,8,11,40,56,8B,3D,66,AA,40,
12681389,00000425,false,Rx,0,8,25,0A,44,9C,42,4E,F1,25,
12692480,00000155,false,Rx,0,8,29,47,C8,54,7C,88,02,F7,
12696696,00000377,false,Rx,0,8,05,9D,01,95,44,45,42,22,
12700892,00000155,false,Rx,0,8,29,47,C8,54,7C,88,02,F7,
12712360,00000155,false,Rx,0,8,29,47,C8,54,7C,88,02,F7,
12716768,00000377,false,Rx,0,8,05,9D,01,95,44,45,42,22,
12721054,00000155,false,Rx,0,8,29,47,C8,54,7C,88,02,F7,
12730937,00000155,false,Rx,0,8,29,47,C8,54,7C,88,02,F7,
12736723,00000377,false,Rx,0,8,05,9D,01,95,44,45,42,22,
12740925,00000155,false,Rx,0,8,29,47,C8,54,7C,88,02,F7,
12746829,0000038A,false,Rx,0,8,45,41,00,00,04,00,00,00,
12751025,00000155,false,Rx,0,8,29,47,C8,54,7C,88,02,F7,
12756787,00000377,false,Rx,0,8,05,9D,01,95,44,45,42,22,
12760994,00000155,false,Rx,0,8,29,47,C8,54,7C,88,02,F7,
12766705,00000389,false,Rx,0,8,BD,00,00,41,41,40,00,00,
12770741,00000423,false,Rx,0,8,07,1D,00,02,B2,80,B2,D8,
12770967,00000155,false,Rx,0,8,29,47,C8,54,7C,88,02,F7,
12776799,00000377,false,Rx,0,8,05,9D,01,95,44,45,42,22,
12780160,00000445,false,Rx,0,7,80,55,AA,65,04,82,00,00,
12780953,00000155,false,Rx,0,8,29,47,C8,54,7C,88,02,F7,
12781187,00000424,false,Rx,0,8,11,40,56,8B,3D,66,AA,40,
12781420,00000425,false,Rx,0,8,25,0A,44,9C,42,4E,F1,25,
12786750,00000569,false,Rx,0,8,AA,C0,80,02,00,00,00,00,
12786977,00000664,false,Rx,0,8,02,83,06,32,F3,00,00,00,
12790994,00000155,false,Rx,0,8,29,47,C8,54,7C,88,02,F7,
12796663,00000377,false,Rx,0,8,05,9D,01,90,44,45,42,22,
12800864,00000155,false,Rx,0,8,29,47,C8,54,7C,88,02,F7,
12806760,00000568,false,Rx,0,8,00,02,80,0A,00,00,A8,AA,
12806987,00000663,false,Rx,0,8,00,39,34,38,31,41,30,31,
12811001,00000155,false,Rx,0,8,29,47,C9,54,7C,88,02,F7,
12816761,00000377,false,Rx,0,8,05,9D,01,90,44,45,42,22,
12820962,00000155,false,Rx,0,8,29,47,C8,54,7C,88,02,F7,
12826684,00000563,false,Rx,0,8,AA,AA,AA,AA,82,2A,00,00,
12831066,00000155,false,Rx,0,8,29,47,C8,54,7C,88,02,F7,
12836796,00000377,false,Rx,0,8,05,9D,01,90,44,45,42,22,
12840997,00000155,false,Rx,0,8,29,47,C8,54,7C,88,02,F7,
12846706,0000038A,false,Rx,0,8,45,41,00,00,04,00,00,00,
12850906,00000155,false,Rx,0,8,29,47,C8,54,7C,88,02,F7,
12856819,00000377,false,Rx,0,8,05,9D,01,90,44,45,42,22,
12860829,00000155,false,Rx,0,8,29,47,C8,54,7C,88,02,F7,
12866732,00000389,false,Rx,0,8,BD,00,00,41,41,40,00,00,
12870744,00000423,false,Rx,0,8,07,1D,00,02,B2,80,B2,D8,
12870970,00000155,false,Rx,0,8,29,47,C8,54,7C,88,02,F7,
12876760,00000377,false,Rx,0,8,05,9D,01,9A,44,45,42,22,
12880226,00000445,false,Rx,0,7,80,55,AA,65,04,82,00,00,
12880850,00000155,false,Rx,0,8,29,47,C8,54,7C,88,02,F7,
12881079,00000424,false,Rx,0,8,11,40,56,8B,3D,66,AA,40,
12881319,00000425,false,Rx,0,8,25,0A,44,9C,42,4E,F1,25,
12890994,00000155,false,Rx,0,8,29,47,C8,54,7C,88,02,F7,
12896674,00000377,false,Rx,0,8,05,9D,01,9A,44,45,42,22,
12900868,00000155,false,Rx,0,8,29,47,C8,54,7C,88,02,F7,
12910938,00000155,false,Rx,0,8,29,47,C8,54,7C,88,02,F7,
12916670,00000377,false,Rx,0,8,05,9D,01,9A,44,45,42,22,
12921056,00000155,false,Rx,0,8,29,47,C8,54,7C,88,02,F7,
12930859,00000155,false,Rx,0,8,29,47,C8,54,7C,88,02,F6,
12936822,00000377,false,Rx,0,8,05,9D,01,9F,44,45,42,22,
12941022,00000155,false,Rx,0,8,29,47,C8,54,7C,88,02,F6,
12946731,0000038A,false,Rx,0,8,45,41,00,00,04,00,00,00,
12950930,00000155,false,Rx,0,8,29,47,C8,54,7C,88,02,F6,
12956808,00000377,false,Rx,0,8,05,9D,01,9F,44,45,42,22,
12960859,00000155,false,Rx,0,8,29,47,C8,54,7C,88,02,F5,
12966768,00000389,false,Rx,0,8,BD,00,00,41,41,40,00,00,
12970963,00000155,false,Rx,0,8,29,47,C8,54,7C,88,02,F5,
12976727,00000377,false,Rx,0,8,05,9D,01,9F,44,45,42,22,
12980177,00000445,false,Rx,0,7,80,55,AA,65,04,82,00,00,
12980968,00000155,false,Rx,0,8,29,47,C8,54,7C,88,02,F5,
12981203,00000424,false,Rx,0,8,11,40,56,8B,3D,66,AA,40,
12981436,00000425,false,Rx,0,8,25,0A,44,9C,42,4E,F1,25,
12986801,00000569,false,Rx,0,8,AA,C0,80,02,00,00,00,00,
12991001,00000155,false,Rx,0,8,29,47,C6,54,7C,88,02,F5,
12996682,00000377,false,Rx,0,8,05,9D,01,9A,44,45,42,22,
13000884,00000155,false,Rx,0,8,29,47,BB,54,7C,88,02,F5,
13010941,00000155,false,Rx,0,8,29,47,C6,54,7C,88,02,F5,
13020868,00000155,false,Rx,0,8,29,47,CE,54,7C,88,02,F5,
13030941,00000155,false,Rx,0,8,29,47,CF,54,7C,88,02,F5,
13041055,00000155,false,Rx,0,8,29,47,D0,54,7C,88,02,F5,
13050931,00000155,false,Rx,0,8,29,47,CF,54,7C,88,02,F5,
13060813,00000155,false,Rx,0,8,29,47,CF,54,7C,88,02,F5,
13070883,00000155,false,Rx,0,8,29,47,D0,54,7C,88,02,F5,
13080103,00000445,false,Rx,0,7,80,55,AA,65,04,82,00,00,
13080899,00000155,false,Rx,0,8,29,47,D0,54,7C,88,02,F5,
13081128,00000424,false,Rx,0,8,11,40,56,8B,3D,66,AA,40,
13081361,00000425,false,Rx,0,8,25,0A,44,9C,42,4E,F1,25,
13090869,00000155,false,Rx,0,8,29,47,D0,54,7C,88,02,F5,
13100874,00000155,false,Rx,0,8,29,47,D0,54,7C,88,02,F5,
13110937,00000155,false,Rx,0,8,29,47,CF,54,7C,88,02,F5,
13120997,00000155,false,Rx,0,8,29,47,D0,54,7C,88,02,F5,
13130902,00000155,false,Rx,0,8,29,47,CF,54,7C,88,02,F5,
13141015,00000155,false,Rx,0,8,29,47,CF,54,7C,88,02,F5,
13150884,00000155,false,Rx,0,8,29,47,D0,54,7C,88,02,F5,
13160971,00000155,false,Rx,0,8,29,47,D0,54,7C,88,02,F5,
13170860,00000155,false,Rx,0,8,29,47,D0,54,7C,88,02,F5,
13180037,00000445,false,Rx,0,7,80,55,AA,65,04,82,00,00,
13180851,00000155,false,Rx,0,8,29,47,D0,54,7C,88,02,F5,
13181077,00000424,false,Rx,0,8,11,40,56,8B,3D,66,AA,40,
13181310,00000425,false,Rx,0,8,25,0A,44,9C,42,4E,F1,25,
13190828,00000155,false,Rx,0,8,29,47,CF,54,7C,88,02,F5,
13200882,00000155,false,Rx,0,8,29,47,CF,54,7C,88,02,F5,
13210947,00000155,false,Rx,0,8,29,47,CF,54,7C,88,02,F5,
13220886,00000155,false,Rx,0,8,29,47,CF,54,7C,88,02,F5,
13230968,00000155,false,Rx,0,8,29,47,CF,54,7C,88,02,F5,
13240869,00000155,false,Rx,0,8,29,47,CF,54,7C,88,02,F5,
13250937,00000155,false,Rx,0,8,29,47,CF,54,7C,88,02,F5,
