Time Stamp,ID,Extended,Dir,Bus,LEN,D1,D2,D3,D4,D5,D6,D7,D8
2162789,000000B6,false,Rx,0,5,FF,00,80,00,C8,00,00,00,
2163018,000000C4,false,Rx,0,7,42,08,FC,00,00,FF,F1,00,
2163243,000000CE,false,Rx,0,8,00,00,00,00,00,00,00,00,
2163469,0000019E,false,Rx,0,8,00,E8,9F,FC,FE,00,00,24,
2163699,000001A0,false,Rx,0,8,00,80,00,40,01,17,00,7A,
2163931,000002B2,false,Rx,0,8,00,00,00,00,50,00,00,04,
2166045,000000AA,false,Rx,0,8,66,5C,07,00,B8,0B,94,00,
2166270,000000A8,false,Rx,0,8,04,06,21,E0,21,1F,0F,04,
2166495,000000A9,false,Rx,0,8,EF,06,79,DF,1D,C7,E0,21,
2166755,000000BA,false,Rx,0,7,03,FF,0F,00,00,53,86,00,
2166760,000001FB,false,Rx,0,2,F5,FF,00,00,00,00,00,00,
2172826,000000C4,false,Rx,0,7,42,08,FC,00,00,FF,F1,00,
2176047,000000AA,false,Rx,0,8,68,5E,07,00,B8,0B,94,00,
2176272,000000A8,false,Rx,0,8,05,07,21,E0,21,1F,0F,04,
2176498,000000A9,false,Rx,0,8,F0,07,79,DF,1D,C7,E0,21,
2176726,000000BA,false,Rx,0,7,03,FF,0F,00,00,54,87,00,
2182789,000000B6,false,Rx,0,5,00,01,80,00,C8,00,00,00,
2183018,000000C4,false,Rx,0,7,42,08,FC,00,00,FF,F1,00,
2183243,000000CE,false,Rx,0,8,00,00,00,00,00,00,00,00,
2183469,0000019E,false,Rx,0,8,00,E8,9F,FC,FE,00,00,24,
2183697,000001A0,false,Rx,0,8,00,80,00,60,01,14,10,A7,
2183929,000002B2,false,Rx,0,8,00,00,00,00,50,00,00,04,
2184154,000000C8,false,Rx,0,6,38,08,CC,00,00,EC,00,00,
2186068,000000AA,false,Rx,0,8,5A,50,07,00,B8,0B,94,00,
2186293,000000A8,false,Rx,0,8,06,08,21,E0,21,1F,0F,04,
2186517,000000A9,false,Rx,0,8,F1,08,79,DF,1D,C7,E0,21,
2186748,000000BA,false,Rx,0,7,03,FF,0F,00,00,55,88,00,
2190551,000001D0,false,Rx,0,8,3C,76,63,C3,9C,9E,CD,82,
2192856,000000C4,false,Rx,0,7,42,08,FC,00,00,FF,F1,00,
2196090,000000AA,false,Rx,0,8,5C,52,07,00,B8,0B,94,00,
2196315,000000A8,false,Rx,0,8,07,09,21,E0,21,1F,0F,04,
2196540,000000A9,false,Rx,0,8,F2,09,79,DF,1D,C7,E0,21,
2196774,000000BA,false,Rx,0,7,03,FF,0F,00,00,56,89,00,
186688,000000B6,false,Rx,0,5,02,02,80,00,C8,00,00,00,
186922,000000C4,false,Rx,0,7,42,08,FC,00,00,FF,F1,00,
187148,000000CE,false,Rx,0,8,00,00,00,00,00,00,00,00,
187373,0000019E,false,Rx,0,8,00,E8,9F,FC,FE,00,00,24,
187598,000001A0,false,Rx,0,8,00,80,00,60,01,14,20,B7,
187833,000002B2,false,Rx,0,8,00,00,00,00,50,00,00,04,
188056,000001A6,false,Rx,0,8,00,00,00,00,00,00,F0,FF,
188281,000002F6,false,Rx,0,2,54,F5,00,00,00,00,00,00,
190047,000000AA,false,Rx,0,8,5E,54,07,00,B8,0B,94,00,
190272,000000A8,false,Rx,0,8,08,0A,21,E0,21,1F,0F,04,
190497,000000A9,false,Rx,0,8,F3,0A,79,DF,1D,C7,E0,21,
190726,000000BA,false,Rx,0,7,03,FF,0F,00,00,57,8A,00,
196812,000000C4,false,Rx,0,7,42,08,FC,00,00,FF,F1,00,
200062,000000AA,false,Rx,0,8,60,56,07,00,B8,0B,94,00,
200287,000000A8,false,Rx,0,8,09,0B,21,E0,21,1F,0F,04,
200511,000000A9,false,Rx,0,8,F4,0B,79,DF,1D,C7,E0,21,
200751,000000BA,false,Rx,0,7,03,FF,0F,00,00,58,8B,00,
203676,000001B4,false,Rx,0,8,00,D0,E2,F9,44,32,FE,D8,
206636,000000B6,false,Rx,0,5,03,03,80,00,C8,00,00,00,
206867,000000C4,false,Rx,0,7,42,08,FC,00,00,FF,F1,00,
207092,000000CE,false,Rx,0,8,00,00,00,00,00,00,00,00,
207317,0000019E,false,Rx,0,8,00,E8,AF,FC,FE,00,00,34,
207540,000001A0,false,Rx,0,8,00,80,00,60,01,14,30,C7,
207966,000002B2,false,Rx,0,8,00,00,00,00,50,00,00,04,
210068,000000AA,false,Rx,0,8,62,58,07,00,B8,0B,94,00,
210293,000000A8,false,Rx,0,8,0A,0C,21,E0,21,1F,0F,04,
210518,000000A9,false,Rx,0,8,F5,0C,79,DF,1D,C7,E0,21,
210752,000000BA,false,Rx,0,7,03,FF,0F,00,00,59,8C,00,
212868,00000497,false,Rx,0,8,29,42,FF,FF,FF,FF,FF,FF,
216858,000000C4,false,Rx,0,7,42,08,FC,00,00,FF,F1,00,
220093,000000AA,false,Rx,0,8,64,5A,07,00,B8,0B,94,00,
220318,000000A8,false,Rx,0,8,0B,0D,21,E0,21,1F,0F,04,
220543,000000A9,false,Rx,0,8,F6,0D,79,DF,1D,C7,E0,21,
220773,000000BA,false,Rx,0,7,03,FF,0F,00,00,5A,8D,00,
226697,000000B6,false,Rx,0,5,04,04,80,00,C8,00,00,00,
226924,000000C4,false,Rx,0,7,42,08,FC,00,00,FF,F1,00,
227157,000000CE,false,Rx,0,8,00,00,00,00,00,00,00,00,
227383,0000019E,false,Rx,0,8,00,E8,AF,FC,FE,00,00,34,
227608,000001A0,false,Rx,0,8,00,80,00,40,01,17,40,BA,
227849,000002B2,false,Rx,0,8,00,00,00,00,50,00,00,04,
228259,00000130,false,Rx,0,5,45,43,21,8F,22,00,00,00,
229995,000000AA,false,Rx,0,8,66,5C,07,00,B8,0B,94,00,
230221,000000A8,false,Rx,0,8,0C,0E,21,E0,21,1F,0F,04,
230446,000000A9,false,Rx,0,8,F7,0E,79,DF,1D,C7,E0,21,
230676,000000BA,false,Rx,0,7,03,FF,0F,00,00,5B,8E,00,
236738,000000C4,false,Rx,0,7,42,08,FC,00,00,FF,F1,00,
236970,00000194,false,Rx,0,4,E6,F5,00,F0,00,00,00,00,
237227,000001D6,false,Rx,0,2,FF,F3,00,00,00,00,00,00,
237232,000002A6,false,Rx,0,2,00,FC,00,00,00,00,00,00,
240100,000000AA,false,Rx,0,8,5A,50,07,00,B8,0B,94,00,
240325,000000A8,false,Rx,0,8,FD,00,21,E0,21,1F,0F,04,
240550,000000A9,false,Rx,0,8,E9,00,79,DF,1D,C7,E0,21,
240788,000000BA,false,Rx,0,7,03,FF,0F,00,00,4D,80,00,
246882,000000B6,false,Rx,0,5,05,05,80,00,C8,00,00,00,
247131,000000C4,false,Rx,0,7,42,08,FC,00,00,FF,F1,00,
247372,000000CE,false,Rx,0,8,00,00,00,00,00,00,00,00,
247605,0000019E,false,Rx,0,8,00,E8,AF,FC,FE,00,00,34,
247842,000001A0,false,Rx,0,8,00,80,00,60,01,14,50,E7,
248067,000002B2,false,Rx,0,8,00,00,00,00,50,00,00,04,
249991,000000AA,false,Rx,0,8,5C,52,07,00,B8,0B,94,00,
250217,000000A8,false,Rx,0,8,FE,01,21,E0,21,1F,0F,04,
250442,000000A9,false,Rx,0,8,EA,01,79,DF,1D,C7,E0,21,
250672,000000BA,false,Rx,0,7,03,FF,0F,00,00,4E,81,00,
256733,000000C4,false,Rx,0,7,42,08,FC,00,00,FF,F1,00,
259975,000000AA,false,Rx,0,8,5E,54,07,00,B8,0B,94,00,
260200,000000A8,false,Rx,0,8,FF,02,21,E0,21,1F,0F,04,
260425,000000A9,false,Rx,0,8,EB,02,79,DF,1D,C7,E0,21,
260651,000000BA,false,Rx,0,7,03,FF,0F,00,00,4F,82,00,
266766,000000B6,false,Rx,0,5,06,06,80,00,C8,00,00,00,
267001,000000C4,false,Rx,0,7,42,08,FC,00,00,FF,F1,00,
267226,000000CE,false,Rx,0,8,00,00,00,00,00,00,00,00,
267452,0000019E,false,Rx,0,8,00,E8,AF,FC,FE,00,00,34,
267680,000001A0,false,Rx,0,8,00,80,00,60,01,14,60,F7,
267912,000002B2,false,Rx,0,8,00,00,00,00,50,00,00,04,
270023,000000AA,false,Rx,0,8,60,56,07,00,B8,0B,94,00,
270248,000000A8,false,Rx,0,8,00,03,21,E0,21,1F,0F,04,
270474,000000A9,false,Rx,0,8,EC,03,79,DF,1D,C7,E0,21,
270707,000000BA,false,Rx,0,7,03,FF,0F,00,00,50,83,00,
274504,000001D0,false,Rx,0,8,3C,76,63,C3,9C,9E,CD,82,
276822,000000C4,false,Rx,0,7,42,08,FC,00,00,FF,F1,00,
280058,000000AA,false,Rx,0,8,62,58,07,00,B8,0B,94,00,
280283,000000A8,false,Rx,0,8,02,04,21,E0,21,1F,0F,04,
280508,000000A9,false,Rx,0,8,ED,04,79,DF,1D,C7,E0,21,
280740,000000BA,false,Rx,0,7,03,FF,0F,00,00,51,84,00,
286625,000000B6,false,Rx,0,5,07,07,80,00,C8,00,00,00,
286869,000000C4,false,Rx,0,7,42,08,FC,00,00,FF,F1,00,
287094,000000CE,false,Rx,0,8,00,00,00,00,00,00,00,00,
287320,0000019E,false,Rx,0,8,00,E8,AF,FC,FE,00,00,34,
287544,000001A0,false,Rx,0,8,00,80,00,60,01,14,70,08,
287776,000002B2,false,Rx,0,8,00,00,00,00,50,00,00,04,
288008,000001A6,false,Rx,0,8,00,00,00,00,00,00,80,F1,
288233,00000374,false,Rx,0,5,00,00,00,00,FC,00,00,00,
289972,000000AA,false,Rx,0,8,64,5A,07,00,B8,0B,94,00,
290197,000000A8,false,Rx,0,8,03,05,21,E0,21,1F,0F,04,
290422,000000A9,false,Rx,0,8,EE,05,79,DF,1D,C7,E0,21,
290650,000000BA,false,Rx,0,7,03,FF,0F,00,00,52,85,00,
296748,000000C4,false,Rx,0,7,42,08,FC,00,00,FF,F1,00,
300000,000000AA,false,Rx,0,8,66,5C,07,00,B8,0B,94,00,
300225,000000A8,false,Rx,0,8,04,06,21,E0,21,1F,0F,04,
300450,000000A9,false,Rx,0,8,EF,06,79,DF,1D,C7,E0,21,
300678,000000BA,false,Rx,0,7,03,FF,0F,00,00,53,86,00,
303332,000001B4,false,Rx,0,8,00,D0,E2,FA,44,32,FE,D9,
306650,000000B6,false,Rx,0,5,08,08,80,00,C8,00,00,00,
306876,000000C4,false,Rx,0,7,42,08,FC,00,00,FF,F1,00,
307108,000000CE,false,Rx,0,8,00,00,00,00,00,00,00,00,
307333,0000019E,false,Rx,0,8,00,E8,AF,FC,FE,00,00,34,
307558,000001A0,false,Rx,0,8,00,80,00,40,01,17,80,FA,
307799,000002B2,false,Rx,0,8,00,00,00,00,50,00,00,04,
308024,000004A9,false,Rx,0,8,30,42,FF,FF,FF,FF,FF,FF,
309944,000000AA,false,Rx,0,8,68,5E,07,00,B8,0B,94,00,
310169,000000A8,false,Rx,0,8,05,07,21,E0,21,1F,0F,04,
310580,000000A9,false,Rx,0,8,F0,07,79,DF,1D,C7,E0,21,
310619,000000BA,false,Rx,0,7,03,FF,0F,00,00,54,87,00,
316688,000000C4,false,Rx,0,7,42,08,FC,00,00,FF,F1,00,
319934,000000AA,false,Rx,0,8,5A,50,07,00,B8,0B,94,00,
320345,000000A8,false,Rx,0,8,06,08,21,E0,21,1F,0F,04,
320570,000000A9,false,Rx,0,8,F1,08,79,DF,1D,C7,E0,21,
320809,000000BA,false,Rx,0,7,03,FF,0F,00,00,55,88,00,
326715,000000B6,false,Rx,0,5,09,09,80,00,C8,00,00,00,
326951,000000C4,false,Rx,0,7,42,08,FC,00,00,FF,F1,00,
327175,000000CE,false,Rx,0,8,00,00,00,00,00,00,00,00,
327399,0000019E,false,Rx,0,8,00,E8,AF,FC,FE,00,00,34,
327624,000001A0,false,Rx,0,8,00,80,00,40,01,14,90,08,
327865,000002B2,false,Rx,0,8,00,00,00,00,50,00,00,04,
328276,00000130,false,Rx,0,5,45,43,21,8F,33,00,00,00,
330009,000000AA,false,Rx,0,8,5C,52,07,00,B8,0B,94,00,
330235,000000A8,false,Rx,0,8,07,09,21,E0,21,1F,0F,04,
330460,000000A9,false,Rx,0,8,F2,09,79,DF,1D,C7,E0,21,
330694,000000BA,false,Rx,0,7,03,FF,0F,00,00,56,89,00,
330925,000001D2,false,Rx,0,5,E1,0C,8F,D0,F0,00,00,00,
336829,000000C4,false,Rx,0,7,42,08,FC,00,00,FF,F1,00,
336834,000001D6,false,Rx,0,2,FF,F3,00,00,00,00,00,00,
340065,000000AA,false,Rx,0,8,5E,54,07,00,B8,0B,94,00,
340290,000000A8,false,Rx,0,8,08,0A,21,E0,21,1F,0F,04,
340515,000000A9,false,Rx,0,8,F3,0A,79,DF,1D,C7,E0,21,
340789,000000BA,false,Rx,0,7,03,FF,0F,00,00,57,8A,00,
340794,000001FB,false,Rx,0,2,F6,FF,00,00,00,00,00,00,
346739,000000B6,false,Rx,0,5,0A,0A,80,00,C8,00,00,00,
346974,000000C4,false,Rx,0,7,42,08,FC,00,00,FF,F1,00,
347199,000000CE,false,Rx,0,8,00,00,00,00,00,00,00,00,
347425,0000019E,false,Rx,0,8,00,E8,AF,FC,FE,00,00,34,
347651,000001A0,false,Rx,0,8,00,80,00,40,01,17,A0,1B,
347884,000002B2,false,Rx,0,8,00,00,00,00,50,00,00,04,
349993,000000AA,false,Rx,0,8,60,56,07,00,B8,0B,94,00,
350219,000000A8,false,Rx,0,8,09,0B,21,E0,21,1F,0F,04,
350444,000000A9,false,Rx,0,8,F4,0B,79,DF,1D,C7,E0,21,
350677,000000BA,false,Rx,0,7,03,FF,0F,00,00,58,8B,00,
356738,000000C4,false,Rx,0,7,42,08,FC,00,00,FF,F1,00,
359975,000000AA,false,Rx,0,8,62,58,07,00,B8,0B,94,00,
360199,000000A8,false,Rx,0,8,0A,0C,21,E0,21,1F,0F,04,
360425,000000A9,false,Rx,0,8,F5,0C,79,DF,1D,C7,E0,21,
360651,000000BA,false,Rx,0,7,03,FF,0F,00,00,59,8C,00,
366691,000000B6,false,Rx,0,5,0B,0B,80,00,C8,00,00,00,
366959,000000C4,false,Rx,0,7,42,08,FC,00,00,FF,F1,00,
367228,000000CE,false,Rx,0,8,00,00,00,00,00,00,00,00,
367490,0000019E,false,Rx,0,8,00,E8,AF,FC,FE,00,00,34,
367717,000001A0,false,Rx,0,8,00,80,00,60,01,14,B0,48,
367949,000002B2,false,Rx,0,8,00,00,00,00,50,00,00,04,
368174,000000C8,false,Rx,0,6,38,08,2C,00,00,0C,00,00,
368972,00000310,false,Rx,0,7,6E,54,DB,2D,01,40,23,00,
369949,000000AA,false,Rx,0,8,64,5A,07,00,B8,0B,94,00,
370174,000000A8,false,Rx,0,8,0B,0D,21,E0,21,1F,0F,04,
370399,000000A9,false,Rx,0,8,F6,0D,79,DF,1D,C7,E0,21,
370624,000000BA,false,Rx,0,7,03,FF,0F,00,00,5A,8D,00,
374618,000001D0,false,Rx,0,8,3C,76,64,C3,9C,9E,CD,82,
376737,000000C4,false,Rx,0,7,42,08,FC,00,00,FF,F1,00,
379975,000000AA,false,Rx,0,8,66,5C,07,00,B8,0B,94,00,
380200,000000A8,false,Rx,0,8,0C,0E,21,E0,21,1F,0F,04,
380425,000000A9,false,Rx,0,8,F7,0E,79,DF,1D,C7,E0,21,
380655,000000BA,false,Rx,0,7,03,FF,0F,00,00,5B,8E,00,
386746,000000B6,false,Rx,0,5,0C,0C,80,00,C8,00,00,00,
386981,000000C4,false,Rx,0,7,42,08,FC,00,00,FF,F1,00,
387206,000000CE,false,Rx,0,8,00,00,00,00,00,00,00,00,
387431,0000019E,false,Rx,0,8,00,E8,AF,FC,FE,00,00,34,
387664,000001A0,false,Rx,0,8,00,80,00,60,01,14,C0,58,
387896,000002B2,false,Rx,0,8,00,00,00,00,50,00,00,04,
388121,000001A6,false,Rx,0,8,00,00,00,00,00,00,10,F3,
390045,000000AA,false,Rx,0,8,5A,50,07,00,B8,0B,94,00,
390270,000000A8,false,Rx,0,8,FD,00,21,E0,21,1F,0F,04,
390495,000000A9,false,Rx,0,8,E9,00,79,DF,1D,C7,E0,21,
390723,000000BA,false,Rx,0,7,03,FF,0F,00,00,4D,80,00,
396632,000000C4,false,Rx,0,7,42,08,FC,00,00,FF,F1,00,
399132,000004B0,false,Rx,0,8,00,42,FE,01,FF,FF,FF,FF,
400109,000000AA,false,Rx,0,8,5C,52,07,00,B8,0B,94,00,
400334,000000A8,false,Rx,0,8,FE,01,21,E0,21,1F,0F,04,
400559,000000A9,false,Rx,0,8,EA,01,79,DF,1D,C7,E0,21,
400797,000000BA,false,Rx,0,7,03,FF,0F,00,00,4E,81,00,
403596,000001B4,false,Rx,0,8,00,D0,E2,FB,44,32,FE,DA,
406723,000000B6,false,Rx,0,5,0D,0D,80,00,C8,00,00,00,
406948,000000C4,false,Rx,0,7,42,08,FC,00,00,FF,F1,00,
407181,000000CE,false,Rx,0,8,00,00,00,00,00,00,00,00,
407406,0000019E,false,Rx,0,8,00,E8,AF,FC,FE,00,00,34,
407631,000001A0,false,Rx,0,8,00,80,00,60,01,17,D0,6B,
407867,000002B2,false,Rx,0,8,00,00,00,00,50,00,00,04,
409974,000000AA,false,Rx,0,8,5E,54,07,00,B8,0B,94,00,
410199,000000A8,false,Rx,0,8,FF,02,21,E0,21,1F,0F,04,
410425,000000A9,false,Rx,0,8,EB,02,79,DF,1D,C7,E0,21,
410651,000000BA,false,Rx,0,7,03,FF,0F,00,00,4F,82,00,
416707,000000C4,false,Rx,0,7,42,08,FC,00,00,FF,F1,00,
419947,000000AA,false,Rx,0,8,60,56,07,00,B8,0B,94,00,
420171,000000A8,false,Rx,0,8,00,03,21,E0,21,1F,0F,04,
420581,000000A9,false,Rx,0,8,EC,03,79,DF,1D,C7,E0,21,
420821,000000BA,false,Rx,0,7,03,FF,0F,00,00,50,83,00,
426680,000000B6,false,Rx,0,5,0E,0E,80,00,C8,00,00,00,
426916,000000C4,false,Rx,0,7,42,08,FC,00,00,FF,F1,00,
427141,000000CE,false,Rx,0,8,00,00,00,00,00,00,00,00,
427366,0000019E,false,Rx,0,8,00,E8,BF,FC,FE,00,00,44,
427591,000001A0,false,Rx,0,8,00,80,00,60,01,14,E0,78,
427826,000002B2,false,Rx,0,8,00,00,00,00,50,00,00,04,
428236,00000130,false,Rx,0,5,45,43,21,8F,44,00,00,00,
429974,000000AA,false,Rx,0,8,62,58,07,00,B8,0B,94,00,
430200,000000A8,false,Rx,0,8,02,04,21,E0,21,1F,0F,04,
430425,000000A9,false,Rx,0,8,ED,04,79,DF,1D,C7,E0,21,
430651,000000BA,false,Rx,0,7,03,FF,0F,00,00,51,84,00,
436931,000000C4,false,Rx,0,7,42,08,FC,00,00,FF,F1,00,
436937,00000194,false,Rx,0,4,E7,F6,00,F0,00,00,00,00,
437161,000001D6,false,Rx,0,2,FF,F3,00,00,00,00,00,00,
440022,000000AA,false,Rx,0,8,64,5A,07,00,B8,0B,94,00,
440247,000000A8,false,Rx,0,8,03,05,21,E0,21,1F,0F,04,
440473,000000A9,false,Rx,0,8,EE,05,79,DF,1D,C7,E0,21,
440704,000000BA,false,Rx,0,7,03,FF,0F,00,00,52,85,00,
446777,000000B6,false,Rx,0,5,FF,00,80,00,C8,00,00,00,
447012,000000C4,false,Rx,0,7,42,08,FC,00,00,FF,F1,00,
447237,000000CE,false,Rx,0,8,00,00,00,00,00,00,00,00,
447461,0000019E,false,Rx,0,8,00,E8,BF,FC,FE,00,00,44,
447693,000001A0,false,Rx,0,8,00,80,00,60,01,14,00,97,
448111,000002B2,false,Rx,0,8,00,00,00,00,50,00,00,04,
450034,000000AA,false,Rx,0,8,66,5C,07,00,B8,0B,94,00,
450258,000000A8,false,Rx,0,8,04,06,21,E0,21,1F,0F,04,
450484,000000A9,false,Rx,0,8,EF,06,79,DF,1D,C7,E0,21,
450711,000000BA,false,Rx,0,7,03,FF,0F,00,00,53,86,00,
456875,000000C4,false,Rx,0,7,42,08,FC,00,00,FF,F1,00,
460110,000000AA,false,Rx,0,8,68,5E,07,00,B8,0B,94,00,
460334,000000A8,false,Rx,0,8,05,07,21,E0,21,1F,0F,04,
460560,000000A9,false,Rx,0,8,F0,07,79,DF,1D,C7,E0,21,
460797,000000BA,false,Rx,0,7,03,FF,0F,00,00,54,87,00,
466730,000000B6,false,Rx,0,5,00,01,80,00,C8,00,00,00,
466965,000000C4,false,Rx,0,7,42,08,FC,00,00,FF,F1,00,
467190,000000CE,false,Rx,0,8,00,00,00,00,00,00,00,00,
467600,0000019E,false,Rx,0,8,00,E8,BF,FC,FE,00,00,44,
467841,000001A0,false,Rx,0,8,00,80,00,40,01,14,10,87,
468065,000002B2,false,Rx,0,8,00,00,00,00,50,00,00,04,
469992,000000AA,false,Rx,0,8,5A,50,07,00,B8,0B,94,00,
470217,000000A8,false,Rx,0,8,06,08,21,E0,21,1F,0F,04,
470443,000000A9,false,Rx,0,8,F1,08,79,DF,1D,C7,E0,21,
470672,000000BA,false,Rx,0,7,03,FF,0F,00,00,55,88,00,
474668,000001D0,false,Rx,0,8,3C,76,64,C3,9C,9E,CD,82,
476708,000000C4,false,Rx,0,7,42,08,FC,00,00,FF,F1,00,
479960,000000AA,false,Rx,0,8,5C,52,07,00,B8,0B,94,00,
480183,000000A8,false,Rx,0,8,07,09,21,E0,21,1F,0F,04,
480407,000000A9,false,Rx,0,8,F2,09,79,DF,1D,C7,E0,21,
480631,000000BA,false,Rx,0,7,03,FF,0F,00,00,56,89,00,
486697,000000B6,false,Rx,0,5,02,02,80,00,C8,00,00,00,
486932,000000C4,false,Rx,0,7,42,08,FC,00,00,FF,F1,00,
487157,000000CE,false,Rx,0,8,00,00,00,00,00,00,00,00,
487382,0000019E,false,Rx,0,8,00,E8,BF,FC,FE,00,00,44,
487608,000001A0,false,Rx,0,8,00,80,00,40,01,14,20,97,
487848,000002B2,false,Rx,0,8,00,00,00,00,50,00,00,04,
488073,000001A6,false,Rx,0,8,00,00,00,00,00,00,A0,F4,
489995,000000AA,false,Rx,0,8,5E,54,07,00,B8,0B,94,00,
490220,000000A8,false,Rx,0,8,08,0A,21,E0,21,1F,0F,04,
490445,000000A9,false,Rx,0,8,F3,0A,79,DF,1D,C7,E0,21,
490676,000000BA,false,Rx,0,7,03,FF,0F,00,00,57,8A,00,
491093,000003B0,false,Rx,0,2,FD,FF,00,00,00,00,00,00,
496799,000000C4,false,Rx,0,7,42,08,FC,00,00,FF,F1,00,
499306,00000480,false,Rx,0,8,17,42,FD,FF,FF,FF,FF,FF,
500100,000000AA,false,Rx,0,8,60,56,07,00,B8,0B,94,00,
500326,000000A8,false,Rx,0,8,09,0B,21,E0,21,1F,0F,04,
500551,000000A9,false,Rx,0,8,F4,0B,79,DF,1D,C7,E0,21,
500790,000000BA,false,Rx,0,7,03,FF,0F,00,00,58,8B,00,
503973,000001B4,false,Rx,0,8,00,D0,E2,FC,44,32,FE,DB,
506715,000000B6,false,Rx,0,5,03,03,80,00,C8,00,00,00,
506943,000000C4,false,Rx,0,7,42,08,FC,00,00,FF,F1,00,
507168,000000CE,false,Rx,0,8,00,00,00,00,00,00,00,00,
507393,0000019E,false,Rx,0,8,00,E8,BF,FC,FE,00,00,44,
507618,000001A0,false,Rx,0,8,00,80,00,60,01,17,30,CA,
507852,000002B2,false,Rx,0,8,00,00,00,00,50,00,00,04,
509964,000000AA,false,Rx,0,8,62,58,07,00,B8,0B,94,00,
510189,000000A8,false,Rx,0,8,0A,0C,21,E0,21,1F,0F,04,
510414,000000A9,false,Rx,0,8,F5,0C,79,DF,1D,C7,E0,21,
510638,000000BA,false,Rx,0,7,03,FF,0F,00,00,59,8C,00,
516697,000000C4,false,Rx,0,7,42,08,FC,00,00,FF,F1,00,
519937,000000AA,false,Rx,0,8,64,5A,07,00,B8,0B,94,00,
520347,000000A8,false,Rx,0,8,0B,0D,21,E0,21,1F,0F,04,
520572,000000A9,false,Rx,0,8,F6,0D,79,DF,1D,C7,E0,21,
520814,000000BA,false,Rx,0,7,03,FF,0F,00,00,5A,8D,00,
526706,000000B6,false,Rx,0,5,04,04,80,00,C8,00,00,00,
526932,000000C4,false,Rx,0,7,42,08,FC,00,00,FF,F1,00,
527165,000000CE,false,Rx,0,8,00,00,00,00,00,00,00,00,
527391,0000019E,false,Rx,0,8,00,E8,BF,FC,FE,00,00,44,
527616,000001A0,false,Rx,0,8,00,80,00,40,01,17,40,BA,
527856,000002B2,false,Rx,0,8,00,00,00,00,50,00,00,04,
528081,00000130,false,Rx,0,5,45,43,21,8F,55,00,00,00,
529247,000001FB,false,Rx,0,2,F7,FF,00,00,00,00,00,00,
530045,000000AA,false,Rx,0,8,66,5C,07,00,B8,0B,94,00,
530269,000000A8,false,Rx,0,8,0C,0E,21,E0,21,1F,0F,04,
530495,000000A9,false,Rx,0,8,F7,0E,79,DF,1D,C7,E0,21,
530723,000000BA,false,Rx,0,7,03,FF,0F,00,00,5B,8E,00,
530954,000001D2,false,Rx,0,5,E1,0C,8F,E0,F0,00,00,00,
536858,000000C4,false,Rx,0,7,42,08,FC,00,00,FF,F1,00,
536863,000001D6,false,Rx,0,2,FF,F3,00,00,00,00,00,00,
540103,000000AA,false,Rx,0,8,5A,50,07,00,B8,0B,94,00,
540329,000000A8,false,Rx,0,8,FD,00,21,E0,21,1F,0F,04,
540554,000000A9,false,Rx,0,8,E9,00,79,DF,1D,C7,E0,21,
540794,000000BA,false,Rx,0,7,03,FF,0F,00,00,4D,80,00,
546728,000000B6,false,Rx,0,5,05,05,80,00,C8,00,00,00,
546964,000000C4,false,Rx,0,7,42,08,FC,00,00,FF,F1,00,
547188,000000CE,false,Rx,0,8,00,00,00,00,00,00,00,00,
547412,0000019E,false,Rx,0,8,00,E8,BF,FC,FE,00,00,44,
547837,000001A0,false,Rx,0,8,00,80,00,40,01,17,50,CA,
548062,000002B2,false,Rx,0,8,00,00,00,00,50,00,00,04,
549989,000000AA,false,Rx,0,8,5C,52,07,00,B8,0B,94,00,
550214,000000A8,false,Rx,0,8,FE,01,21,E0,21,1F,0F,04,
550439,000000A9,false,Rx,0,8,EA,01,79,DF,1D,C7,E0,21,
550672,000000BA,false,Rx,0,7,03,FF,0F,00,00,4E,81,00,
556740,000000C4,false,Rx,0,7,42,08,FC,00,00,FF,F1,00,
559989,000000AA,false,Rx,0,8,5E,54,07,00,B8,0B,94,00,
560214,000000A8,false,Rx,0,8,FF,02,21,E0,21,1F,0F,04,
560439,000000A9,false,Rx,0,8,EB,02,79,DF,1D,C7,E0,21,
560668,000000BA,false,Rx,0,7,03,FF,0F,00,00,4F,82,00,
566757,000000B6,false,Rx,0,5,06,06,80,00,C8,00,00,00,
566993,000000C4,false,Rx,0,7,42,08,FC,00,00,FF,F1,00,
567217,000000CE,false,Rx,0,8,00,00,00,00,00,00,00,00,
567443,0000019E,false,Rx,0,8,00,E8,BF,FC,FE,00,00,44,
567672,000001A0,false,Rx,0,8,00,80,00,40,01,17,60,DA,
567905,000002B2,false,Rx,0,8,00,00,00,00,50,00,00,04,
568130,000000C8,false,Rx,0,6,38,08,7C,00,00,1C,00,00,
570054,000000AA,false,Rx,0,8,60,56,07,00,B8,0B,94,00,
570278,000000A8,false,Rx,0,8,00,03,21,E0,21,1F,0F,04,
570503,000000A9,false,Rx,0,8,EC,03,79,DF,1D,C7,E0,21,
570732,000000BA,false,Rx,0,7,03,FF,0F,00,00,50,83,00,
574530,000001D0,false,Rx,0,8,3C,76,65,C3,9C,9E,CD,82,
576744,000000C4,false,Rx,0,7,42,08,FC,00,00,FF,F1,00,
580000,000000AA,false,Rx,0,8,62,58,07,00,B8,0B,94,00,
580225,000000A8,false,Rx,0,8,02,04,21,E0,21,1F,0F,04,
580451,000000A9,false,Rx,0,8,ED,04,79,DF,1D,C7,E0,21,
580680,000000BA,false,Rx,0,7,03,FF,0F,00,00,51,84,00,
586740,000000B6,false,Rx,0,5,07,07,80,00,C8,00,00,00,
586970,000000C4,false,Rx,0,7,42,08,FC,00,00,FF,F1,00,
587195,000000CE,false,Rx,0,8,00,00,00,00,00,00,00,00,
587419,0000019E,false,Rx,0,8,00,E8,BF,FC,FE,00,00,44,
587646,000001A0,false,Rx,0,8,00,80,00,40,01,17,70,EA,
587881,000002B2,false,Rx,0,8,00,00,00,00,50,00,00,04,
588105,000001A6,false,Rx,0,8,00,00,00,00,00,00,30,F6,
590029,000000AA,false,Rx,0,8,64,5A,07,00,B8,0B,94,00,
590254,000000A8,false,Rx,0,8,03,05,21,E0,21,1F,0F,04,
590479,000000A9,false,Rx,0,8,EE,05,79,DF,1D,C7,E0,21,
590706,000000BA,false,Rx,0,7,03,FF,0F,00,00,52,85,00,
593014,00000497,false,Rx,0,8,29,42,FF,FF,FF,FF,FF,FF,
596815,000000C4,false,Rx,0,7,42,08,FC,00,00,FF,F1,00,
600080,000000AA,false,Rx,0,8,66,5C,07,00,B8,0B,94,00,
600312,000000A8,false,Rx,0,8,04,06,21,E0,21,1F,0F,04,
600537,000000A9,false,Rx,0,8,EF,06,79,DF,1D,C7,E0,21,
600768,000000BA,false,Rx,0,7,03,FF,0F,00,00,53,86,00,
604953,000001B4,false,Rx,0,8,00,D0,E2,FD,44,32,FE,DC,
606767,000000B6,false,Rx,0,5,08,08,80,00,C8,00,00,00,
606998,000000C4,false,Rx,0,7,42,08,FC,00,00,FF,F1,00,
607223,000000CE,false,Rx,0,8,00,00,00,00,00,00,00,00,
607447,0000019E,false,Rx,0,8,00,E8,BF,FC,FE,00,00,44,
607678,000001A0,false,Rx,0,8,00,80,00,60,01,14,80,18,
607909,000002B2,false,Rx,0,8,00,00,00,00,50,00,00,04,
610016,000000AA,false,Rx,0,8,68,5E,07,00,B8,0B,94,00,
610241,000000A8,false,Rx,0,8,05,07,21,E0,21,1F,0F,04,
610466,000000A9,false,Rx,0,8,F0,07,79,DF,1D,C7,E0,21,
610697,000000BA,false,Rx,0,7,03,FF,0F,00,00,54,87,00,
616754,000000C4,false,Rx,0,7,42,08,FC,00,00,FF,F1,00,
619996,000000AA,false,Rx,0,8,5A,50,07,00,B8,0B,94,00,
620221,000000A8,false,Rx,0,8,06,08,21,E0,21,1F,0F,04,
620447,000000A9,false,Rx,0,8,F1,08,79,DF,1D,C7,E0,21,
620676,000000BA,false,Rx,0,7,03,FF,0F,00,00,55,88,00,
626817,000000B6,false,Rx,0,5,09,09,80,00,C8,00,00,00,
626825,000000C4,false,Rx,0,7,42,08,FC,00,00,FF,F1,00,
627236,000000CE,false,Rx,0,8,00,00,00,00,00,00,00,00,
627462,0000019E,false,Rx,0,8,00,E8,CF,FC,FE,00,00,54,
627694,000001A0,false,Rx,0,8,00,80,00,60,01,17,90,2B,
627918,000002B2,false,Rx,0,8,00,00,00,00,50,00,00,04,
628336,000002FC,false,Rx,0,7,81,01,04,FF,FF,FF,FF,00,
629126,00000130,false,Rx,0,5,45,43,21,8F,76,00,00,00,
630110,000000AA,false,Rx,0,8,5C,52,07,00,B8,0B,94,00,
630335,000000A8,false,Rx,0,8,07,09,21,E0,21,1F,0F,04,
630559,000000A9,false,Rx,0,8,F2,09,79,DF,1D,C7,E0,21,
630797,000000BA,false,Rx,0,7,03,FF,0F,00,00,56,89,00,
636860,000000C4,false,Rx,0,7,42,08,FC,00,00,FF,F1,00,
637118,00000194,false,Rx,0,4,E8,F7,00,F0,00,00,00,00,
637123,000001D6,false,Rx,0,2,FF,F3,00,00,00,00,00,00,
639989,000000AA,false,Rx,0,8,5E,54,07,00,B8,0B,94,00,
640214,000000A8,false,Rx,0,8,08,0A,21,E0,21,1F,0F,04,
640439,000000A9,false,Rx,0,8,F3,0A,79,DF,1D,C7,E0,21,
640668,000000BA,false,Rx,0,7,03,FF,0F,00,00,57,8A,00,
646710,000000B6,false,Rx,0,5,0A,0A,80,00,C8,00,00,00,
646946,000000C4,false,Rx,0,7,42,08,FC,00,00,FF,F1,00,
647171,000000CE,false,Rx,0,8,00,00,00,00,00,00,00,00,
647582,0000019E,false,Rx,0,8,00,E8,CF,FC,FE,00,00,54,
647825,000001A0,false,Rx,0,8,00,80,00,60,01,17,A0,3B,
648050,000002B2,false,Rx,0,8,00,00,00,00,50,00,00,04,
649975,000000AA,false,Rx,0,8,60,56,07,00,B8,0B,94,00,
650200,000000A8,false,Rx,0,8,09,0B,21,E0,21,1F,0F,04,
650425,000000A9,false,Rx,0,8,F4,0B,79,DF,1D,C7,E0,21,
650655,000000BA,false,Rx,0,7,03,FF,0F,00,00,58,8B,00,
653142,000001B5,false,Rx,0,7,C8,FF,04,00,88,FF,FF,00,
656849,000000C4,false,Rx,0,7,42,08,FC,00,00,FF,F1,00,
660081,000000AA,false,Rx,0,8,62,58,07,00,B8,0B,94,00,
660306,000000A8,false,Rx,0,8,0A,0C,21,E0,21,1F,0F,04,
660530,000000A9,false,Rx,0,8,F5,0C,79,DF,1D,C7,E0,21,
660761,000000BA,false,Rx,0,7,03,FF,0F,00,00,59,8C,00,
666829,000000B6,false,Rx,0,5,0B,0B,80,00,C8,00,00,00,
667073,000000C4,false,Rx,0,7,42,08,FC,00,00,FF,F1,00,
667298,000000CE,false,Rx,0,8,00,00,00,00,00,00,00,00,
667523,0000019E,false,Rx,0,8,00,E8,CF,FC,FE,00,00,54,
667755,000001A0,false,Rx,0,8,00,80,00,60,01,14,B0,48,
667987,000002B2,false,Rx,0,8,00,00,00,00,50,00,00,04,
670093,000000AA,false,Rx,0,8,64,5A,07,00,B8,0B,94,00,
670318,000000A8,false,Rx,0,8,0B,0D,21,E0,21,1F,0F,04,
670543,000000A9,false,Rx,0,8,F6,0D,79,DF,1D,C7,E0,21,
670774,000000BA,false,Rx,0,7,03,FF,0F,00,00,5A,8D,00,
674567,000001D0,false,Rx,0,8,3C,76,65,C3,9C,9E,CD,82,
676692,000000C4,false,Rx,0,7,42,08,FC,00,00,FF,F1,00,
679931,000000AA,false,Rx,0,8,66,5C,07,00,B8,0B,94,00,
680341,000000A8,false,Rx,0,8,0C,0E,21,E0,21,1F,0F,04,
680566,000000A9,false,Rx,0,8,F7,0E,79,DF,1D,C7,E0,21,
680807,000000BA,false,Rx,0,7,03,FF,0F,00,00,5B,8E,00,
686710,000000B6,false,Rx,0,5,0C,0C,80,00,C8,00,00,00,
686945,000000C4,false,Rx,0,7,42,08,FC,00,00,FF,F1,00,
687170,000000CE,false,Rx,0,8,00,00,00,00,00,00,00,00,
687395,0000019E,false,Rx,0,8,00,E8,CF,FC,FE,00,00,54,
687621,000001A0,false,Rx,0,8,00,80,00,60,01,14,C0,58,
687854,000002B2,false,Rx,0,8,00,00,00,00,50,00,00,04,
688079,000001A6,false,Rx,0,8,00,00,00,00,00,00,C0,F7,
688490,000004A9,false,Rx,0,8,30,42,FF,FF,FF,FF,FF,FF,
690045,000000AA,false,Rx,0,8,5A,50,07,00,B8,0B,94,00,
690270,000000A8,false,Rx,0,8,FD,00,21,E0,21,1F,0F,04,
690495,000000A9,false,Rx,0,8,E9,00,79,DF,1D,C7,E0,21,
690722,000000BA,false,Rx,0,7,03,FF,0F,00,00,4D,80,00,
696790,000000C4,false,Rx,0,7,42,08,FC,00,00,FF,F1,00,
700033,000000AA,false,Rx,0,8,5C,52,07,00,B8,0B,94,00,
700259,000000A8,false,Rx,0,8,FE,01,21,E0,21,1F,0F,04,
700484,000000A9,false,Rx,0,8,EA,01,79,DF,1D,C7,E0,21,
700712,000000BA,false,Rx,0,7,03,FF,0F,00,00,4E,81,00,
706431,000001B4,false,Rx,0,8,00,D0,E2,FE,44,32,FE,DD,
706685,000000B6,false,Rx,0,5,0D,0D,80,00,C8,00,00,00,
706936,000000C4,false,Rx,0,7,42,08,FC,00,00,FF,F1,00,
707194,000000CE,false,Rx,0,8,00,00,00,00,00,00,00,00,
707429,0000019E,false,Rx,0,8,00,E8,CF,FC,FE,00,00,54,
707670,000001A0,false,Rx,0,8,00,80,00,70,01,17,D0,7B,
707925,000002B2,false,Rx,0,8,00,00,00,00,50,00,00,04,
710054,000000AA,false,Rx,0,8,5E,54,07,00,B8,0B,94,00,
710288,000000A8,false,Rx,0,8,FF,02,21,E0,21,1F,0F,04,
710551,000000A9,false,Rx,0,8,EB,02,79,DF,1D,C7,E0,21,
710799,000000BA,false,Rx,0,7,03,FF,0F,00,00,4F,82,00,
716856,000000C4,false,Rx,0,7,42,08,FC,00,00,FF,F1,00,
720090,000000AA,false,Rx,0,8,60,56,07,00,B8,0B,94,00,
720314,000000A8,false,Rx,0,8,00,03,21,E0,21,1F,0F,04,
720539,000000A9,false,Rx,0,8,EC,03,79,DF,1D,C7,E0,21,
720807,000000BA,false,Rx,0,7,03,FF,0F,00,00,50,83,00,
720812,000001FB,false,Rx,0,2,F8,FF,00,00,00,00,00,00,
726732,000000B6,false,Rx,0,5,0E,0E,80,00,C8,00,00,00,
726967,000000C4,false,Rx,0,7,42,08,FC,00,00,FF,F1,00,
727192,000000CE,false,Rx,0,8,00,00,00,00,00,00,00,00,
727417,0000019E,false,Rx,0,8,00,E8,CF,FC,FE,00,00,54,
727643,000001A0,false,Rx,0,8,00,80,00,60,01,14,E0,78,
727882,000002B2,false,Rx,0,8,00,00,00,00,50,00,00,04,
728292,00000130,false,Rx,0,5,45,43,21,8F,87,00,00,00,
730029,000000AA,false,Rx,0,8,62,58,07,00,B8,0B,94,00,
730254,000000A8,false,Rx,0,8,02,04,21,E0,21,1F,0F,04,
730478,000000A9,false,Rx,0,8,ED,04,79,DF,1D,C7,E0,21,
730706,000000BA,false,Rx,0,7,03,FF,0F,00,00,51,84,00,
730937,000001D2,false,Rx,0,5,E1,0C,8F,F0,F0,00,00,00,
736815,000000C4,false,Rx,0,7,42,08,FC,00,00,FF,F1,00,
737039,000001D6,false,Rx,0,2,FF,F3,00,00,00,00,00,00,
739142,00000316,false,Rx,0,2,FD,FF,00,00,00,00,00,00,
739932,000000AA,false,Rx,0,8,64,5A,07,00,B8,0B,94,00,
740342,000000A8,false,Rx,0,8,03,05,21,E0,21,1F,0F,04,
740567,000000A9,false,Rx,0,8,EE,05,79,DF,1D,C7,E0,21,
740807,000000BA,false,Rx,0,7,03,FF,0F,00,00,52,85,00,
746828,000000B6,false,Rx,0,5,FF,00,80,00,C8,00,00,00,
747056,000000C4,false,Rx,0,7,42,08,FC,00,00,FF,F1,00,
747282,000000CE,false,Rx,0,8,00,00,00,00,00,00,00,00,
747507,0000019E,false,Rx,0,8,00,E8,CF,FC,FE,00,00,54,
747738,000001A0,false,Rx,0,8,00,80,00,60,01,14,00,97,
747970,000002B2,false,Rx,0,8,00,00,00,00,50,00,00,04,
750097,000000AA,false,Rx,0,8,66,5C,07,00,B8,0B,94,00,
750322,000000A8,false,Rx,0,8,04,06,21,E0,21,1F,0F,04,
750547,000000A9,false,Rx,0,8,EF,06,79,DF,1D,C7,E0,21,
750793,000000BA,false,Rx,0,7,03,FF,0F,00,00,53,86,00,
756879,000000C4,false,Rx,0,7,42,08,FC,00,00,FF,F1,00,
760115,000000AA,false,Rx,0,8,68,5E,07,00,B8,0B,94,00,
760340,000000A8,false,Rx,0,8,05,07,21,E0,21,1F,0F,04,
760566,000000A9,false,Rx,0,8,F0,07,79,DF,1D,C7,E0,21,
760807,000000BA,false,Rx,0,7,03,FF,0F,00,00,54,87,00,
766704,000000B6,false,Rx,0,5,00,01,80,00,C8,00,00,00,
766959,000000C4,false,Rx,0,7,42,08,FC,00,00,FF,F1,00,
767184,000000CE,false,Rx,0,8,00,00,00,00,00,00,00,00,
767409,0000019E,false,Rx,0,8,00,E8,CF,FC,FE,00,00,54,
767634,000001A0,false,Rx,0,8,00,80,00,60,01,14,10,A7,
768093,000002B2,false,Rx,0,8,00,00,00,00,50,00,00,04,
768099,000000C8,false,Rx,0,6,38,08,CC,00,00,2C,00,00,
770024,000000AA,false,Rx,0,8,5A,50,07,00,B8,0B,94,00,
770249,000000A8,false,Rx,0,8,06,08,21,E0,21,1F,0F,04,
770474,000000A9,false,Rx,0,8,F1,08,79,DF,1D,C7,E0,21,
770707,000000BA,false,Rx,0,7,03,FF,0F,00,00,55,88,00,
774504,000001D0,false,Rx,0,8,3C,76,66,C3,9C,9E,CD,82,
776809,000000C4,false,Rx,0,7,42,08,FC,00,00,FF,F1,00,
779289,000004B0,false,Rx,0,8,00,42,FE,01,FF,FF,FF,FF,
780085,000000AA,false,Rx,0,8,5C,52,07,00,B8,0B,94,00,
780310,000000A8,false,Rx,0,8,07,09,21,E0,21,1F,0F,04,
780536,000000A9,false,Rx,0,8,F2,09,79,DF,1D,C7,E0,21,
780767,000000BA,false,Rx,0,7,03,FF,0F,00,00,56,89,00,
786839,000000B6,false,Rx,0,5,02,02,80,00,C8,00,00,00,
786847,000000C4,false,Rx,0,7,42,08,FC,00,00,FF,F1,00,
787082,000000CE,false,Rx,0,8,00,00,00,00,00,00,00,00,
787332,0000019E,false,Rx,0,8,00,E8,CF,FC,FE,00,00,54,
787752,000001A0,false,Rx,0,8,00,80,00,60,01,14,20,B7,
787983,000002B2,false,Rx,0,8,00,00,00,00,50,00,00,04,
788208,000001A6,false,Rx,0,8,00,00,00,00,00,00,50,F9,
789939,000000AA,false,Rx,0,8,5E,54,07,00,B8,0B,94,00,
790350,000000A8,false,Rx,0,8,08,0A,21,E0,21,1F,0F,04,
790575,000000A9,false,Rx,0,8,F3,0A,79,DF,1D,C7,E0,21,
790813,000000BA,false,Rx,0,7,03,FF,0F,00,00,57,8A,00,
796680,000000C4,false,Rx,0,7,42,08,FC,00,00,FF,F1,00,
800116,000000AA,false,Rx,0,8,60,56,07,00,B8,0B,94,00,
800341,000000A8,false,Rx,0,8,09,0B,21,E0,21,1F,0F,04,
800566,000000A9,false,Rx,0,8,F4,0B,79,DF,1D,C7,E0,21,
800807,000000BA,false,Rx,0,7,03,FF,0F,00,00,58,8B,00,
803675,000001B4,false,Rx,0,8,00,D0,E2,F0,44,32,FE,CF,
806684,000000B6,false,Rx,0,5,03,03,80,00,C8,00,00,00,
806925,000000C4,false,Rx,0,7,42,08,FC,00,00,FF,F1,00,
807150,000000CE,false,Rx,0,8,00,00,00,00,00,00,00,00,
807381,0000019E,false,Rx,0,8,00,E8,CF,FC,FE,00,00,54,
807616,000001A0,false,Rx,0,8,00,80,00,60,01,17,30,CA,
807856,000002B2,false,Rx,0,8,00,00,00,00,50,00,00,04,
810013,000000AA,false,Rx,0,8,62,58,07,00,B8,0B,94,00,
810238,000000A8,false,Rx,0,8,0A,0C,21,E0,21,1F,0F,04,
810463,000000A9,false,Rx,0,8,F5,0C,79,DF,1D,C7,E0,21,
810697,000000BA,false,Rx,0,7,03,FF,0F,00,00,59,8C,00,
816758,000000C4,false,Rx,0,7,42,08,FC,00,00,FF,F1,00,
820000,000000AA,false,Rx,0,8,64,5A,07,00,B8,0B,94,00,
820225,000000A8,false,Rx,0,8,0B,0D,21,E0,21,1F,0F,04,
820451,000000A9,false,Rx,0,8,F6,0D,79,DF,1D,C7,E0,21,
820680,000000BA,false,Rx,0,7,03,FF,0F,00,00,5A,8D,00,
826745,000000B6,false,Rx,0,5,04,04,80,00,C8,00,00,00,
827000,000000C4,false,Rx,0,7,42,08,FC,00,00,FF,F1,00,
827235,000000CE,false,Rx,0,8,00,00,00,00,00,00,00,00,
827460,0000019E,false,Rx,0,8,00,E8,CF,FC,FE,00,00,54,
827693,000001A0,false,Rx,0,8,00,80,00,60,01,17,40,DA,
827924,000002B2,false,Rx,0,8,00,00,00,00,50,00,00,04,
828149,00000130,false,Rx,0,5,45,43,21,8F,98,00,00,00,
830067,000000AA,false,Rx,0,8,66,5C,07,00,B8,0B,94,00,
830293,000000A8,false,Rx,0,8,0C,0E,21,E0,21,1F,0F,04,
830518,000000A9,false,Rx,0,8,F7,0E,79,DF,1D,C7,E0,21,
830752,000000BA,false,Rx,0,7,03,FF,0F,00,00,5B,8E,00,
836815,000000C4,false,Rx,0,7,42,08,FC,00,00,FF,F1,00,
837071,00000194,false,Rx,0,4,E9,F8,00,F0,00,00,00,00,
837076,000001D6,false,Rx,0,2,FF,F3,00,00,00,00,00,00,
839185,00000316,false,Rx,0,2,FD,FF,00,00,00,00,00,00,
839978,000000AA,false,Rx,0,8,5A,50,07,00,B8,0B,94,00,
840204,000000A8,false,Rx,0,8,FD,00,21,E0,21,1F,0F,04,
840429,000000A9,false,Rx,0,8,E9,00,79,DF,1D,C7,E0,21,
840655,000000BA,false,Rx,0,7,03,FF,0F,00,00,4D,80,00,
846955,000000B6,false,Rx,0,5,05,05,80,00,C8,00,00,00,
846964,000000C4,false,Rx,0,7,42,08,FC,00,00,FF,F1,00,
847209,000000CE,false,Rx,0,8,00,00,00,00,00,00,00,00,
847479,0000019E,false,Rx,0,8,00,E8,DF,FC,FE,00,00,64,
847709,000001A0,false,Rx,0,8,00,80,00,60,01,14,50,E7,
847941,000002B2,false,Rx,0,8,00,00,00,00,50,00,00,04,
850054,000000AA,false,Rx,0,8,5C,52,07,00,B8,0B,94,00,
850278,000000A8,false,Rx,0,8,FE,01,21,E0,21,1F,0F,04,
850504,000000A9,false,Rx,0,8,EA,01,79,DF,1D,C7,E0,21,
850733,000000BA,false,Rx,0,7,03,FF,0F,00,00,4E,81,00,
856803,000000C4,false,Rx,0,7,42,08,FC,00,00,FF,F1,00,
857972,00000335,false,Rx,0,8,00,BC,10,00,00,99,00,00,
860077,000000AA,false,Rx,0,8,5E,54,07,00,B8,0B,94,00,
860301,000000A8,false,Rx,0,8,FF,02,21,E0,21,1F,0F,04,
860526,000000A9,false,Rx,0,8,EB,02,79,DF,1D,C7,E0,21,
860758,000000BA,false,Rx,0,7,03,FF,0F,00,00,4F,82,00,
866800,000000B6,false,Rx,0,5,06,06,80,00,C8,00,00,00,
867046,000000C4,false,Rx,0,7,42,08,FC,00,00,FF,F1,00,
867284,000000CE,false,Rx,0,8,00,00,00,00,00,00,00,00,
867522,0000019E,false,Rx,0,8,00,E8,DF,FC,FE,00,00,64,
867759,000001A0,false,Rx,0,8,00,80,00,60,01,14,60,F7,
867991,000002B2,false,Rx,0,8,00,00,00,00,50,00,00,04,
870100,000000AA,false,Rx,0,8,60,56,07,00,B8,0B,94,00,
870325,000000A8,false,Rx,0,8,00,03,21,E0,21,1F,0F,04,
870551,000000A9,false,Rx,0,8,EC,03,79,DF,1D,C7,E0,21,
870790,000000BA,false,Rx,0,7,03,FF,0F,00,00,50,83,00,
874580,000001D0,false,Rx,0,8,3C,76,66,C3,9C,9E,CD,82,
876703,000000C4,false,Rx,0,7,42,08,FC,00,00,FF,F1,00,
879374,00000480,false,Rx,0,8,17,42,FD,FF,FF,FF,FF,FF,
879985,000000AA,false,Rx,0,8,62,58,07,00,B8,0B,94,00,
880210,000000A8,false,Rx,0,8,02,04,21,E0,21,1F,0F,04,
880435,000000A9,false,Rx,0,8,ED,04,79,DF,1D,C7,E0,21,
880668,000000BA,false,Rx,0,7,03,FF,0F,00,00,51,84,00,
886503,00000316,false,Rx,0,2,FC,FF,00,00,00,00,00,00,
886738,000000B6,false,Rx,0,5,07,07,80,00,C8,00,00,00,
886982,000000C4,false,Rx,0,7,42,08,FC,00,00,FF,F1,00,
887223,000000CE,false,Rx,0,8,00,00,00,00,00,00,00,00,
887461,0000019E,false,Rx,0,8,00,E8,DF,FC,FE,00,00,64,
887694,000001A0,false,Rx,0,8,00,80,00,60,01,14,70,08,
887920,000002B2,false,Rx,0,8,00,00,00,00,50,00,00,04,
888145,000001A6,false,Rx,0,8,00,00,00,00,00,00,E0,FA,
890064,000000AA,false,Rx,0,8,64,5A,07,00,B8,0B,94,00,
890289,000000A8,false,Rx,0,8,03,05,21,E0,21,1F,0F,04,
890514,000000A9,false,Rx,0,8,EE,05,79,DF,1D,C7,E0,21,
890745,000000BA,false,Rx,0,7,03,FF,0F,00,00,52,85,00,
896815,000000C4,false,Rx,0,7,42,08,FC,00,00,FF,F1,00,
900059,000000AA,false,Rx,0,8,66,5C,07,00,B8,0B,94,00,
900284,000000A8,false,Rx,0,8,04,06,21,E0,21,1F,0F,04,
900509,000000A9,false,Rx,0,8,EF,06,79,DF,1D,C7,E0,21,
900743,000000BA,false,Rx,0,7,03,FF,0F,00,00,53,86,00,
903416,000001B4,false,Rx,0,8,00,D0,E2,F1,44,32,FE,D0,
906683,000000B6,false,Rx,0,5,08,08,80,00,C8,00,00,00,
906919,000000C4,false,Rx,0,7,42,08,FC,00,00,FF,F1,00,
907144,000000CE,false,Rx,0,8,00,00,00,00,00,00,00,00,
907369,0000019E,false,Rx,0,8,00,E8,DF,FC,FE,00,00,64,
907595,000001A0,false,Rx,0,8,00,80,00,60,01,14,80,18,
907842,000002B2,false,Rx,0,8,00,00,00,00,50,00,00,04,
909998,000000AA,false,Rx,0,8,68,5E,07,00,B8,0B,94,00,
910224,000000A8,false,Rx,0,8,05,07,21,E0,21,1F,0F,04,
910449,000000A9,false,Rx,0,8,F0,07,79,DF,1D,C7,E0,21,
910677,000000BA,false,Rx,0,7,03,FF,0F,00,00,54,87,00,
910909,000001FB,false,Rx,0,2,F9,FF,00,00,00,00,00,00,
916774,000000C4,false,Rx,0,7,42,08,FC,00,00,FF,F1,00,
920010,000000AA,false,Rx,0,8,5A,50,07,00,B8,0B,94,00,
920235,000000A8,false,Rx,0,8,06,08,21,E0,21,1F,0F,04,
920461,000000A9,false,Rx,0,8,F1,08,79,DF,1D,C7,E0,21,
920694,000000BA,false,Rx,0,7,03,FF,0F,00,00,55,88,00,
926704,000000B6,false,Rx,0,5,09,09,80,00,C8,00,00,00,
926935,000000C4,false,Rx,0,7,42,08,FC,00,00,FF,F1,00,
927160,000000CE,false,Rx,0,8,00,00,00,00,00,00,00,00,
927385,0000019E,false,Rx,0,8,00,E8,DF,FC,FE,00,00,64,
927611,000001A0,false,Rx,0,8,00,80,00,40,01,14,90,08,
927853,000002B2,false,Rx,0,8,00,00,00,00,50,00,00,04,
928280,00000130,false,Rx,0,5,45,43,21,8F,A9,00,00,00,
930056,000000AA,false,Rx,0,8,5C,52,07,00,B8,0B,94,00,
930281,000000A8,false,Rx,0,8,07,09,21,E0,21,1F,0F,04,
930506,000000A9,false,Rx,0,8,F2,09,79,DF,1D,C7,E0,21,
930740,000000BA,false,Rx,0,7,03,FF,0F,00,00,56,89,00,
930971,000001D2,false,Rx,0,5,E1,0C,8F,00,F0,00,00,00,
936879,000000C4,false,Rx,0,7,42,08,FC,00,00,FF,F1,00,
936884,000001D6,false,Rx,0,2,FF,F3,00,00,00,00,00,00,
939932,000000AA,false,Rx,0,8,5E,54,07,00,B8,0B,94,00,
940342,000000A8,false,Rx,0,8,08,0A,21,E0,21,1F,0F,04,
940567,000000A9,false,Rx,0,8,F3,0A,79,DF,1D,C7,E0,21,
940807,000000BA,false,Rx,0,7,03,FF,0F,00,00,57,8A,00,
946835,000000B6,false,Rx,0,5,0A,0A,80,00,C8,00,00,00,
947062,000000C4,false,Rx,0,7,42,08,FC,00,00,FF,F1,00,
947303,000000CE,false,Rx,0,8,00,00,00,00,00,00,00,00,
947549,0000019E,false,Rx,0,8,00,E8,DF,FC,FE,00,00,64,
947806,000001A0,false,Rx,0,8,00,80,00,60,01,14,A0,38,
948039,000002B2,false,Rx,0,8,00,00,00,00,50,00,00,04,
949959,000000AA,false,Rx,0,8,60,56,07,00,B8,0B,94,00,
950184,000000A8,false,Rx,0,8,09,0B,21,E0,21,1F,0F,04,
950409,000000A9,false,Rx,0,8,F4,0B,79,DF,1D,C7,E0,21,
950635,000000BA,false,Rx,0,7,03,FF,0F,00,00,58,8B,00,
956766,000000C4,false,Rx,0,7,42,08,FC,00,00,FF,F1,00,
960007,000000AA,false,Rx,0,8,62,58,07,00,B8,0B,94,00,
960232,000000A8,false,Rx,0,8,0A,0C,21,E0,21,1F,0F,04,
960457,000000A9,false,Rx,0,8,F5,0C,79,DF,1D,C7,E0,21,
960688,000000BA,false,Rx,0,7,03,FF,0F,00,00,59,8C,00,
966964,000000B6,false,Rx,0,5,0B,0B,80,00,C8,00,00,00,
966972,000000C4,false,Rx,0,7,42,08,FC,00,00,FF,F1,00,
967197,000000CE,false,Rx,0,8,00,00,00,00,00,00,00,00,
967608,0000019E,false,Rx,0,8,00,E8,DF,FC,FE,00,00,64,
967856,000001A0,false,Rx,0,8,00,80,00,60,01,17,B0,4B,
968089,000002B2,false,Rx,0,8,00,00,00,00,50,00,00,04,
968133,000000C8,false,Rx,0,6,38,08,2C,00,00,6C,00,00,
970090,000000AA,false,Rx,0,8,64,5A,07,00,B8,0B,94,00,
970315,000000A8,false,Rx,0,8,0B,0D,21,E0,21,1F,0F,04,
970540,000000A9,false,Rx,0,8,F6,0D,79,DF,1D,C7,E0,21,
970832,000000BA,false,Rx,0,7,03,FF,0F,00,00,5A,8D,00,
972947,00000497,false,Rx,0,8,29,42,FF,FF,FF,FF,FF,FF,
974672,000001D0,false,Rx,0,8,3C,76,67,C3,9C,9E,CD,82,
976787,000000C4,false,Rx,0,7,42,08,FC,00,00,FF,F1,00,
980024,000000AA,false,Rx,0,8,66,5C,07,00,B8,0B,94,00,
980248,000000A8,false,Rx,0,8,0C,0E,21,E0,21,1F,0F,04,
980474,000000A9,false,Rx,0,8,F7,0E,79,DF,1D,C7,E0,21,
980707,000000BA,false,Rx,0,7,03,FF,0F,00,00,5B,8E,00,
986733,000000B6,false,Rx,0,5,0C,0C,80,00,C8,00,00,00,
986977,000000C4,false,Rx,0,7,42,08,FC,00,00,FF,F1,00,
987202,000000CE,false,Rx,0,8,00,00,00,00,00,00,00,00,
987427,0000019E,false,Rx,0,8,00,E8,DF,FC,FE,00,00,64,
987668,000001A0,false,Rx,0,8,00,80,00,70,01,14,C0,68,
987920,000002B2,false,Rx,0,8,00,00,00,00,50,00,00,04,
988154,000001A6,false,Rx,0,8,00,00,00,00,00,00,70,FC,
990081,000000AA,false,Rx,0,8,5A,50,07,00,B8,0B,94,00,
990306,000000A8,false,Rx,0,8,FD,00,21,E0,21,1F,0F,04,
990530,000000A9,false,Rx,0,8,E9,00,79,DF,1D,C7,E0,21,
990765,000000BA,false,Rx,0,7,03,FF,0F,00,00,4D,80,00,
996821,000000C4,false,Rx,0,7,42,08,FC,00,00,FF,F1,00,
1000062,000000AA,false,Rx,0,8,5C,52,07,00,B8,0B,94,00,
1000287,000000A8,false,Rx,0,8,FE,01,21,E0,21,1F,0F,04,
1000511,000000A9,false,Rx,0,8,EA,01,79,DF,1D,C7,E0,21,
1000746,000000BA,false,Rx,0,7,03,FF,0F,00,00,4E,81,00,
1003606,000001B4,false,Rx,0,8,00,D0,E2,F2,44,32,FE,D1,
1006809,000000B6,false,Rx,0,5,0D,0D,80,00,C8,00,00,00,
1007046,000000C4,false,Rx,0,7,42,08,FC,00,00,FF,F1,00,
1007276,000000CE,false,Rx,0,8,00,00,00,00,00,00,00,00,
1007511,0000019E,false,Rx,0,8,00,E8,DF,FC,FE,00,00,64,
1007765,000001A0,false,Rx,0,8,00,80,00,40,01,17,D0,4B,
1008014,000002B2,false,Rx,0,8,00,00,00,00,50,00,00,04,
1009996,000000AA,false,Rx,0,8,5E,54,07,00,B8,0B,94,00,
1010221,000000A8,false,Rx,0,8,FF,02,21,E0,21,1F,0F,04,
1010446,000000A9,false,Rx,0,8,EB,02,79,DF,1D,C7,E0,21,
1010676,000000BA,false,Rx,0,7,03,FF,0F,00,00,4F,82,00,
1016738,000000C4,false,Rx,0,7,42,08,FC,00,00,FF,F1,00,
1019974,000000AA,false,Rx,0,8,60,56,07,00,B8,0B,94,00,
1020200,000000A8,false,Rx,0,8,00,03,21,E0,21,1F,0F,04,
1020424,000000A9,false,Rx,0,8,EC,03,79,DF,1D,C7,E0,21,
1020650,000000BA,false,Rx,0,7,03,FF,0F,00,00,50,83,00,
1026668,000000B6,false,Rx,0,5,0E,0E,80,00,C8,00,00,00,
1026908,000000C4,false,Rx,0,7,42,08,FC,00,00,FF,F1,00,
1027133,000000CE,false,Rx,0,8,00,00,00,00,00,00,00,00,
1027358,0000019E,false,Rx,0,8,00,E8,DF,FC,FE,00,00,64,
1027776,000001A0,false,Rx,0,8,00,80,00,60,01,17,E0,7B,
1028008,000002B2,false,Rx,0,8,00,00,00,00,50,00,00,04,
1028232,00000130,false,Rx,0,5,45,43,21,8F,BA,00,00,00,
1029972,000000AA,false,Rx,0,8,62,58,07,00,B8,0B,94,00,
1030197,000000A8,false,Rx,0,8,02,04,21,E0,21,1F,0F,04,
1030422,000000A9,false,Rx,0,8,ED,04,79,DF,1D,C7,E0,21,
1030650,000000BA,false,Rx,0,7,03,FF,0F,00,00,51,84,00,
1036961,000000C4,false,Rx,0,7,42,08,FC,00,00,FF,F1,00,
1036966,00000194,false,Rx,0,4,EA,F9,00,F0,00,00,00,00,
1037200,000001D6,false,Rx,0,2,FF,F3,00,00,00,00,00,00,
1039937,000000AA,false,Rx,0,8,64,5A,07,00,B8,0B,94,00,
1040347,000000A8,false,Rx,0,8,03,05,21,E0,21,1F,0F,04,
1040572,000000A9,false,Rx,0,8,EE,05,79,DF,1D,C7,E0,21,
1040814,000000BA,false,Rx,0,7,03,FF,0F,00,00,52,85,00,
1046792,000000B6,false,Rx,0,5,FF,00,80,00,C8,00,00,00,
1047030,000000C4,false,Rx,0,7,42,08,FC,00,00,FF,F1,00,
1047267,000000CE,false,Rx,0,8,00,00,00,00,00,00,00,00,
1047492,0000019E,false,Rx,0,8,00,E8,EF,FC,FE,00,00,74,
1047726,000001A0,false,Rx,0,8,00,80,00,60,01,17,00,9A,
1047957,000002B2,false,Rx,0,8,00,00,00,00,50,00,00,04,
1049119,00000316,false,Rx,0,2,FC,FF,00,00,00,00,00,00,
1050129,000000AA,false,Rx,0,8,66,5C,07,00,B8,0B,94,00,
1050359,000000A8,false,Rx,0,8,04,06,21,E0,21,1F,0F,04,
1050629,000000A9,false,Rx,0,8,EF,06,79,DF,1D,C7,E0,21,
1050635,000000BA,false,Rx,0,7,03,FF,0F,00,00,53,86,00,
1056740,000000C4,false,Rx,0,7,42,08,FC,00,00,FF,F1,00,
1059989,000000AA,false,Rx,0,8,68,5E,07,00,B8,0B,94,00,
1060212,000000A8,false,Rx,0,8,05,07,21,E0,21,1F,0F,04,
1060438,000000A9,false,Rx,0,8,F0,07,79,DF,1D,C7,E0,21,
1060668,000000BA,false,Rx,0,7,03,FF,0F,00,00,54,87,00,
1066849,000000B6,false,Rx,0,5,00,01,80,00,C8,00,00,00,
1067093,000000C4,false,Rx,0,7,42,08,FC,00,00,FF,F1,00,
1067328,000000CE,false,Rx,0,8,00,00,00,00,00,00,00,00,
1067559,0000019E,false,Rx,0,8,00,E8,EF,FC,FE,00,00,74,
1067803,000001A0,false,Rx,0,8,00,80,00,40,01,17,10,8A,
1068043,000002B2,false,Rx,0,8,00,00,00,00,50,00,00,04,
1068305,000004A9,false,Rx,0,8,30,42,FF,FF,FF,FF,FF,FF,
1070038,000000AA,false,Rx,0,8,5A,50,07,00,B8,0B,94,00,
1070264,000000A8,false,Rx,0,8,06,08,21,E0,21,1F,0F,04,
1070489,000000A9,false,Rx,0,8,F1,08,79,DF,1D,C7,E0,21,
1070716,000000BA,false,Rx,0,7,03,FF,0F,00,00,55,88,00,
1074513,000001D0,false,Rx,0,8,3C,76,67,C3,9C,9E,CD,82,
1076828,000000C4,false,Rx,0,7,42,08,FC,00,00,FF,F1,00,
1080059,000000AA,false,Rx,0,8,5C,52,07,00,B8,0B,94,00,
1080284,000000A8,false,Rx,0,8,07,09,21,E0,21,1F,0F,04,
1080508,000000A9,false,Rx,0,8,F2,09,79,DF,1D,C7,E0,21,
1080743,000000BA,false,Rx,0,7,03,FF,0F,00,00,56,89,00,
1086933,000000B6,false,Rx,0,5,02,02,80,00,C8,00,00,00,
1086940,000000C4,false,Rx,0,7,42,08,FC,00,00,FF,F1,00,
1087182,000000CE,false,Rx,0,8,00,00,00,00,00,00,00,00,
1087417,0000019E,false,Rx,0,8,00,E8,EF,FC,FE,00,00,74,
1087643,000001A0,false,Rx,0,8,00,80,00,40,01,14,20,97,
1087890,000002B2,false,Rx,0,8,00,00,00,00,50,00,00,04,
1088136,000001A6,false,Rx,0,8,00,00,00,00,00,00,00,FE,
1090089,000000AA,false,Rx,0,8,5E,54,07,00,B8,0B,94,00,
1090314,000000A8,false,Rx,0,8,08,0A,21,E0,21,1F,0F,04,
1090539,000000A9,false,Rx,0,8,F3,0A,79,DF,1D,C7,E0,21,
1090767,000000BA,false,Rx,0,7,03,FF,0F,00,00,57,8A,00,
1096847,000000C4,false,Rx,0,7,42,08,FC,00,00,FF,F1,00,
1100085,000000AA,false,Rx,0,8,60,56,07,00,B8,0B,94,00,
1100310,000000A8,false,Rx,0,8,09,0B,21,E0,21,1F,0F,04,
1100534,000000A9,false,Rx,0,8,F4,0B,79,DF,1D,C7,E0,21,
1100807,000000BA,false,Rx,0,7,03,FF,0F,00,00,58,8B,00,
1100812,000001FB,false,Rx,0,2,FA,FF,00,00,00,00,00,00,
1103478,000001B4,false,Rx,0,8,00,D0,E2,F3,44,32,FE,D2,
1107027,000000B6,false,Rx,0,5,03,03,80,00,C8,00,00,00,
1107033,000000C4,false,Rx,0,7,42,08,FC,00,00,FF,F1,00,
1107271,000000CE,false,Rx,0,8,00,00,00,00,00,00,00,00,
1107510,0000019E,false,Rx,0,8,00,E8,EF,FC,FE,00,00,74,
1107747,000001A0,false,Rx,0,8,00,80,00,40,01,17,30,AA,
1107983,000002B2,false,Rx,0,8,00,00,00,00,50,00,00,04,
1109957,000000AA,false,Rx,0,8,62,58,07,00,B8,0B,94,00,
1110180,000000A8,false,Rx,0,8,0A,0C,21,E0,21,1F,0F,04,
1110405,000000A9,false,Rx,0,8,F5,0C,79,DF,1D,C7,E0,21,
1110631,000000BA,false,Rx,0,7,03,FF,0F,00,00,59,8C,00,
1116725,000000C4,false,Rx,0,7,42,08,FC,00,00,FF,F1,00,
1119973,000000AA,false,Rx,0,8,64,5A,07,00,B8,0B,94,00,
1120198,000000A8,false,Rx,0,8,0B,0D,21,E0,21,1F,0F,04,
1120423,000000A9,false,Rx,0,8,F6,0D,79,DF,1D,C7,E0,21,
1120650,000000BA,false,Rx,0,7,03,FF,0F,00,00,5A,8D,00,
1127599,000000B6,false,Rx,0,5,04,04,80,00,C8,00,00,00,
1127605,000000C4,false,Rx,0,7,42,08,FC,00,00,FF,F1,00,
1127611,000000CE,false,Rx,0,8,00,00,00,00,00,00,00,00,
1127616,0000019E,false,Rx,0,8,00,E8,EF,FC,FE,00,00,74,
1127622,000001A0,false,Rx,0,8,00,80,00,60,01,17,40,DA,
1127866,000002B2,false,Rx,0,8,00,00,00,00,50,00,00,04,
1128311,00000130,false,Rx,0,5,45,43,21,8F,CB,00,00,00,
1129986,000000AA,false,Rx,0,8,66,5C,07,00,B8,0B,94,00,
1130211,000000A8,false,Rx,0,8,0C,0E,21,E0,21,1F,0F,04,
1130436,000000A9,false,Rx,0,8,F7,0E,79,DF,1D,C7,E0,21,
1130668,000000BA,false,Rx,0,7,03,FF,0F,00,00,5B,8E,00,
1130899,000001D2,false,Rx,0,5,E1,0C,8F,10,F0,00,00,00,
1136764,000000C4,false,Rx,0,7,42,08,FC,00,00,FF,F1,00,
1136995,000001D6,false,Rx,0,2,FF,F3,00,00,00,00,00,00,
1140044,000000AA,false,Rx,0,8,5A,50,07,00,B8,0B,94,00,
1140269,000000A8,false,Rx,0,8,FD,00,21,E0,21,1F,0F,04,
1140494,000000A9,false,Rx,0,8,E9,00,79,DF,1D,C7,E0,21,
1140722,000000BA,false,Rx,0,7,03,FF,0F,00,00,4D,80,00,
1147274,000000B6,false,Rx,0,5,05,05,80,00,C8,00,00,00,
1147280,000000C4,false,Rx,0,7,42,08,FC,00,00,FF,F1,00,
1147285,000000CE,false,Rx,0,8,00,00,00,00,00,00,00,00,
1147529,0000019E,false,Rx,0,8,00,E8,EF,FC,FE,00,00,74,
1147767,000001A0,false,Rx,0,8,00,80,00,60,01,17,50,EA,
1147999,000002B2,false,Rx,0,8,00,00,00,00,50,00,00,04,
1150021,000000AA,false,Rx,0,8,5C,52,07,00,B8,0B,94,00,
1150247,000000A8,false,Rx,0,8,FE,01,21,E0,21,1F,0F,04,
1150472,000000A9,false,Rx,0,8,EA,01,79,DF,1D,C7,E0,21,
1150704,000000BA,false,Rx,0,7,03,FF,0F,00,00,4E,81,00,
1156754,000000C4,false,Rx,0,7,42,08,FC,00,00,FF,F1,00,
1159240,000004B0,false,Rx,0,8,00,42,FE,01,FF,FF,FF,FF,
1160034,000000AA,false,Rx,0,8,5E,54,07,00,B8,0B,94,00,
1160259,000000A8,false,Rx,0,8,FF,02,21,E0,21,1F,0F,04,
1160484,000000A9,false,Rx,0,8,EB,02,79,DF,1D,C7,E0,21,
1160711,000000BA,false,Rx,0,7,03,FF,0F,00,00,4F,82,00,
1167454,000000B6,false,Rx,0,5,06,06,80,00,C8,00,00,00,
1167461,000000C4,false,Rx,0,7,42,08,FC,00,00,FF,F1,00,
1167466,000000CE,false,Rx,0,8,00,00,00,00,00,00,00,00,
1167471,0000019E,false,Rx,0,8,00,E8,EF,FC,FE,00,00,74,
1167714,000001A0,false,Rx,0,8,00,80,00,60,01,17,60,FA,
1167958,000002B2,false,Rx,0,8,00,00,00,00,50,00,00,04,
1168183,000000C8,false,Rx,0,6,38,08,7C,00,00,8C,00,00,
1170176,000000AA,false,Rx,0,8,60,56,07,00,B8,0B,94,00,
1170181,000000A8,false,Rx,0,8,00,03,21,E0,21,1F,0F,04,
1170450,000000A9,false,Rx,0,8,EC,03,79,DF,1D,C7,E0,21,
1170681,000000BA,false,Rx,0,7,03,FF,0F,00,00,50,83,00,
1174673,000001D0,false,Rx,0,8,3C,76,68,C3,9C,9E,CD,82,
1176789,000000C4,false,Rx,0,7,42,08,FC,00,00,FF,F1,00,
1180023,000000AA,false,Rx,0,8,62,58,07,00,B8,0B,94,00,
1180248,000000A8,false,Rx,0,8,02,04,21,E0,21,1F,0F,04,
1180473,000000A9,false,Rx,0,8,ED,04,79,DF,1D,C7,E0,21,
1180704,000000BA,false,Rx,0,7,03,FF,0F,00,00,51,84,00,
1187635,000000B6,false,Rx,0,5,07,07,80,00,C8,00,00,00,
1187641,000000C4,false,Rx,0,7,42,08,FC,00,00,FF,F1,00,
1187647,000000CE,false,Rx,0,8,00,00,00,00,00,00,00,00,
1187652,0000019E,false,Rx,0,8,00,E8,EF,FC,FE,00,00,74,
1187658,000001A0,false,Rx,0,8,00,80,00,60,01,14,70,08,
1187909,000002B2,false,Rx,0,8,00,00,00,00,50,00,00,04,
1188136,000001A6,false,Rx,0,8,00,00,00,00,00,00,90,FF,
1190094,000000AA,false,Rx,0,8,64,5A,07,00,B8,0B,94,00,
1190319,000000A8,false,Rx,0,8,03,05,21,E0,21,1F,0F,04,
1190543,000000A9,false,Rx,0,8,EE,05,79,DF,1D,C7,E0,21,
1190773,000000BA,false,Rx,0,7,03,FF,0F,00,00,52,85,00,
1196831,000000C4,false,Rx,0,7,42,08,FC,00,00,FF,F1,00,
1200067,000000AA,false,Rx,0,8,66,5C,07,00,B8,0B,94,00,
1200293,000000A8,false,Rx,0,8,04,06,21,E0,21,1F,0F,04,
1200518,000000A9,false,Rx,0,8,EF,06,79,DF,1D,C7,E0,21,
1200751,000000BA,false,Rx,0,7,03,FF,0F,00,00,53,86,00,
1203693,000001B4,false,Rx,0,8,00,D0,E2,F4,44,32,FE,D3,
1207897,000000B6,false,Rx,0,5,08,08,80,00,C8,00,00,00,
1207903,000000C4,false,Rx,0,7,42,08,FC,00,00,FF,F1,00,
1207908,000000CE,false,Rx,0,8,00,00,00,00,00,00,00,00,
1207914,0000019E,false,Rx,0,8,00,E8,EF,FC,FE,00,00,74,
1207919,000001A0,false,Rx,0,8,00,80,00,40,01,14,80,F7,
1207925,000002B2,false,Rx,0,8,00,00,00,00,50,00,00,04,
1209113,00000316,false,Rx,0,2,FC,FF,00,00,00,00,00,00,
1210111,000000AA,false,Rx,0,8,68,5E,07,00,B8,0B,94,00,
1210337,000000A8,false,Rx,0,8,05,07,21,E0,21,1F,0F,04,
1210571,000000A9,false,Rx,0,8,F0,07,79,DF,1D,C7,E0,21,
1210820,000000BA,false,Rx,0,7,03,FF,0F,00,00,54,87,00,
1216812,000000C4,false,Rx,0,7,42,08,FC,00,00,FF,F1,00,
1220049,000000AA,false,Rx,0,8,5A,50,07,00,B8,0B,94,00,
1220273,000000A8,false,Rx,0,8,06,08,21,E0,21,1F,0F,04,
1220498,000000A9,false,Rx,0,8,F1,08,79,DF,1D,C7,E0,21,
1220726,000000BA,false,Rx,0,7,03,FF,0F,00,00,55,88,00,
1220955,000002FA,false,Rx,0,5,FC,00,FF,FF,FF,00,00,00,
1227977,000000B6,false,Rx,0,5,09,09,80,00,C8,00,00,00,
1227983,000000C4,false,Rx,0,7,42,08,FC,00,00,FF,F1,00,
1227988,000000CE,false,Rx,0,8,00,00,00,00,00,00,00,00,
1227994,0000019E,false,Rx,0,8,00,E8,EF,FC,FE,00,00,74,
1227999,000001A0,false,Rx,0,8,00,80,00,60,01,14,90,28,
1228005,000002B2,false,Rx,0,8,00,00,00,00,50,00,00,04,
1228241,00000130,false,Rx,0,5,45,43,21,8F,DC,00,00,00,
1229269,0000034F,false,Rx,0,2,FE,FF,00,00,00,00,00,00,
1230094,000000AA,false,Rx,0,8,5C,52,07,00,B8,0B,94,00,
1230319,000000A8,false,Rx,0,8,07,09,21,E0,21,1F,0F,04,
1230544,000000A9,false,Rx,0,8,F2,09,79,DF,1D,C7,E0,21,
1230774,000000BA,false,Rx,0,7,03,FF,0F,00,00,56,89,00,
1236831,000000C4,false,Rx,0,7,42,08,FC,00,00,FF,F1,00,
1237055,00000194,false,Rx,0,4,EB,FA,00,F0,00,00,00,00,
1237312,000001D6,false,Rx,0,2,FF,F3,00,00,00,00,00,00,
1237317,000002A6,false,Rx,0,2,00,FC,00,00,00,00,00,00,
1239996,000000AA,false,Rx,0,8,5E,54,07,00,B8,0B,94,00,
1240220,000000A8,false,Rx,0,8,08,0A,21,E0,21,1F,0F,04,
1240445,000000A9,false,Rx,0,8,F3,0A,79,DF,1D,C7,E0,21,
1240676,000000BA,false,Rx,0,7,03,FF,0F,00,00,57,8A,00,
1248060,000000B6,false,Rx,0,5,0A,0A,80,00,C8,00,00,00,
1248066,000000C4,false,Rx,0,7,42,08,FC,00,00,FF,F1,00,
1248071,000000CE,false,Rx,0,8,00,00,00,00,00,00,00,00,
1248077,0000019E,false,Rx,0,8,00,E8,EF,FC,FE,00,00,74,
1248082,000001A0,false,Rx,0,8,00,80,00,60,01,17,A0,3B,
1248087,000002B2,false,Rx,0,8,00,00,00,00,50,00,00,04,
1250060,000000AA,false,Rx,0,8,60,56,07,00,B8,0B,94,00,
1250286,000000A8,false,Rx,0,8,09,0B,21,E0,21,1F,0F,04,
1250523,000000A9,false,Rx,0,8,F4,0B,79,DF,1D,C7,E0,21,
1250767,000000BA,false,Rx,0,7,03,FF,0F,00,00,58,8B,00,
1256873,000000C4,false,Rx,0,7,42,08,FC,00,00,FF,F1,00,
1259352,00000480,false,Rx,0,8,17,42,FD,FF,FF,FF,FF,FF,
1259959,000000AA,false,Rx,0,8,62,58,07,00,B8,0B,94,00,
1260184,000000A8,false,Rx,0,8,0A,0C,21,E0,21,1F,0F,04,
1260409,000000A9,false,Rx,0,8,F5,0C,79,DF,1D,C7,E0,21,
1260634,000000BA,false,Rx,0,7,03,FF,0F,00,00,59,8C,00,
1268245,000000B6,false,Rx,0,5,0B,0B,80,00,C8,00,00,00,
1268251,000000C4,false,Rx,0,7,42,08,FC,00,00,FF,F1,00,
1268257,000000CE,false,Rx,0,8,00,00,00,00,00,00,00,00,
1268262,0000019E,false,Rx,0,8,00,E8,0F,FC,FE,00,00,93,
1268267,000001A0,false,Rx,0,8,00,80,00,60,01,17,B0,4B,
1268272,000002B2,false,Rx,0,8,00,00,00,00,50,00,00,04,
1270112,000000AA,false,Rx,0,8,64,5A,07,00,B8,0B,94,00,
1270338,000000A8,false,Rx,0,8,0B,0D,21,E0,21,1F,0F,04,
1270563,000000A9,false,Rx,0,8,F6,0D,79,DF,1D,C7,E0,21,
1270804,000000BA,false,Rx,0,7,03,FF,0F,00,00,5A,8D,00,
1274602,000001D0,false,Rx,0,8,3C,76,68,C3,9C,9E,CD,82,
1276922,000000C4,false,Rx,0,7,42,08,FC,00,00,FF,F1,00,
1279975,000000AA,false,Rx,0,8,66,5C,07,00,B8,0B,94,00,
1280200,000000A8,false,Rx,0,8,0C,0E,21,E0,21,1F,0F,04,
1280424,000000A9,false,Rx,0,8,F7,0E,79,DF,1D,C7,E0,21,
1280650,000000BA,false,Rx,0,7,03,FF,0F,00,00,5B,8E,00,
1288212,000000B6,false,Rx,0,5,0C,0C,80,00,C8,00,00,00,
1288219,000000C4,false,Rx,0,7,42,08,FC,00,00,FF,F1,00,
1288224,000000CE,false,Rx,0,8,00,00,00,00,00,00,00,00,
1288229,0000019E,false,Rx,0,8,00,E8,0F,FC,FE,00,00,93,
1288235,000001A0,false,Rx,0,8,00,80,00,60,01,14,C0,58,
1288240,000002B2,false,Rx,0,8,00,00,00,00,50,00,00,04,
1288245,000001A6,false,Rx,0,8,00,00,00,00,00,00,20,F1,
1288477,00000374,false,Rx,0,5,00,00,00,00,FC,00,00,00,
1289291,000001FB,false,Rx,0,2,FB,FF,00,00,00,00,00,00,
1290116,000000AA,false,Rx,0,8,5A,50,07,00,B8,0B,94,00,
1290356,000000A8,false,Rx,0,8,FD,00,21,E0,21,1F,0F,04,
1290582,000000A9,false,Rx,0,8,E9,00,79,DF,1D,C7,E0,21,
1290822,000000BA,false,Rx,0,7,03,FF,0F,00,00,4D,80,00,
1296879,000000C4,false,Rx,0,7,42,08,FC,00,00,FF,F1,00,
1300120,000000AA,false,Rx,0,8,5C,52,07,00,B8,0B,94,00,
1300345,000000A8,false,Rx,0,8,FE,01,21,E0,21,1F,0F,04,
1300570,000000A9,false,Rx,0,8,EA,01,79,DF,1D,C7,E0,21,
1300809,000000BA,false,Rx,0,7,03,FF,0F,00,00,4E,81,00,
1303474,000001B4,false,Rx,0,8,00,D0,E2,F5,44,32,FE,D4,
1308253,000000B6,false,Rx,0,5,0D,0D,80,00,C8,00,00,00,
1308259,000000C4,false,Rx,0,7,42,08,FC,00,00,FF,F1,00,
1308264,000000CE,false,Rx,0,8,00,00,00,00,00,00,00,00,
1308270,0000019E,false,Rx,0,8,00,E8,0F,FC,FE,00,00,93,
1308275,000001A0,false,Rx,0,8,00,80,00,60,01,17,D0,6B,
1308280,000002B2,false,Rx,0,8,00,00,00,00,50,00,00,04,
1310069,000000AA,false,Rx,0,8,5E,54,07,00,B8,0B,94,00,
1310310,000000A8,false,Rx,0,8,FF,02,21,E0,21,1F,0F,04,
1310550,000000A9,false,Rx,0,8,EB,02,79,DF,1D,C7,E0,21,
1310789,000000BA,false,Rx,0,7,03,FF,0F,00,00,4F,82,00,
1316873,000000C4,false,Rx,0,7,42,08,FC,00,00,FF,F1,00,
1320118,000000AA,false,Rx,0,8,60,56,07,00,B8,0B,94,00,
1320343,000000A8,false,Rx,0,8,00,03,21,E0,21,1F,0F,04,
1320568,000000A9,false,Rx,0,8,EC,03,79,DF,1D,C7,E0,21,
1320809,000000BA,false,Rx,0,7,03,FF,0F,00,00,50,83,00,
1326677,000000B6,false,Rx,0,5,0E,0E,80,00,C8,00,00,00,
1328449,000000C4,false,Rx,0,7,42,08,FC,00,00,FF,F1,00,
1328455,000000CE,false,Rx,0,8,00,00,00,00,00,00,00,00,
1328461,0000019E,false,Rx,0,8,00,E8,0F,FC,FE,00,00,93,
1328466,000001A0,false,Rx,0,8,00,80,00,40,01,14,E0,58,
1328471,000002B2,false,Rx,0,8,00,00,00,00,50,00,00,04,
1328477,00000130,false,Rx,0,5,45,43,21,8F,ED,00,00,00,
1330117,000000AA,false,Rx,0,8,62,58,07,00,B8,0B,94,00,
1330344,000000A8,false,Rx,0,8,02,04,21,E0,21,1F,0F,04,
1330569,000000A9,false,Rx,0,8,ED,04,79,DF,1D,C7,E0,21,
1330838,000000BA,false,Rx,0,7,03,FF,0F,00,00,51,84,00,
1330843,000001D2,false,Rx,0,5,E1,0C,8F,20,F0,00,00,00,
1336932,000000C4,false,Rx,0,7,42,08,FC,00,00,FF,F1,00,
1336937,000001D6,false,Rx,0,2,FF,F3,00,00,00,00,00,00,
1339989,000000AA,false,Rx,0,8,64,5A,07,00,B8,0B,94,00,
1340214,000000A8,false,Rx,0,8,03,05,21,E0,21,1F,0F,04,
1340439,000000A9,false,Rx,0,8,EE,05,79,DF,1D,C7,E0,21,
1340668,000000BA,false,Rx,0,7,03,FF,0F,00,00,52,85,00,
1348490,000000B6,false,Rx,0,5,FF,00,80,00,C8,00,00,00,
1348496,000000C4,false,Rx,0,7,42,08,FC,00,00,FF,F1,00,
1348501,000000CE,false,Rx,0,8,00,00,00,00,00,00,00,00,
1348507,0000019E,false,Rx,0,8,00,E8,0F,FC,FE,00,00,93,
1348512,000001A0,false,Rx,0,8,00,80,00,60,01,17,00,9A,
1348517,000002B2,false,Rx,0,8,00,00,00,00,50,00,00,04,
1350131,000000AA,false,Rx,0,8,66,5C,07,00,B8,0B,94,00,
1350365,000000A8,false,Rx,0,8,04,06,21,E0,21,1F,0F,04,
1350590,000000A9,false,Rx,0,8,EF,06,79,DF,1D,C7,E0,21,
1350630,000000BA,false,Rx,0,7,03,FF,0F,00,00,53,86,00,
1352938,00000497,false,Rx,0,8,29,42,FF,FF,FF,FF,FF,FF,
1356933,000000C4,false,Rx,0,7,42,08,FC,00,00,FF,F1,00,
1359988,000000AA,false,Rx,0,8,68,5E,07,00,B8,0B,94,00,
1360213,000000A8,false,Rx,0,8,05,07,21,E0,21,1F,0F,04,
1360438,000000A9,false,Rx,0,8,F0,07,79,DF,1D,C7,E0,21,
1360668,000000BA,false,Rx,0,7,03,FF,0F,00,00,54,87,00,
1366738,000000B6,false,Rx,0,5,00,01,80,00,C8,00,00,00,
1368491,000000C4,false,Rx,0,7,42,08,FC,00,00,FF,F1,00,
1368497,000000CE,false,Rx,0,8,00,00,00,00,00,00,00,00,
1368502,0000019E,false,Rx,0,8,00,E8,0F,FC,FE,00,00,93,
1368508,000001A0,false,Rx,0,8,00,80,00,60,01,14,10,A7,
1368513,000002B2,false,Rx,0,8,00,00,00,00,50,00,00,04,
1368518,000000C8,false,Rx,0,6,38,08,CC,00,00,9C,00,00,
1368523,00000310,false,Rx,0,7,6E,55,DB,2D,01,40,23,00,
1369937,000000AA,false,Rx,0,8,5A,50,07,00,B8,0B,94,00,
1370201,000000A8,false,Rx,0,8,06,08,21,E0,21,1F,0F,04,
1370427,000000A9,false,Rx,0,8,F1,08,79,DF,1D,C7,E0,21,
1370655,000000BA,false,Rx,0,7,03,FF,0F,00,00,55,88,00,
1374643,000001D0,false,Rx,0,8,3C,76,69,C3,9C,9E,CD,82,
1376751,000000C4,false,Rx,0,7,42,08,FC,00,00,FF,F1,00,
1379994,000000AA,false,Rx,0,8,5C,52,07,00,B8,0B,94,00,
1380219,000000A8,false,Rx,0,8,07,09,21,E0,21,1F,0F,04,
1380458,000000A9,false,Rx,0,8,F2,09,79,DF,1D,C7,E0,21,
1380734,000000BA,false,Rx,0,7,03,FF,0F,00,00,56,89,00,
1386690,000000B6,false,Rx,0,5,02,02,80,00,C8,00,00,00,
1386923,000000C4,false,Rx,0,7,42,08,FC,00,00,FF,F1,00,
1388643,000000CE,false,Rx,0,8,00,00,00,00,00,00,00,00,
1388650,0000019E,false,Rx,0,8,00,E8,0F,FC,FE,00,00,93,
1388656,000001A0,false,Rx,0,8,00,80,00,40,01,17,20,9A,
1388661,000002B2,false,Rx,0,8,00,00,00,00,50,00,00,04,
1388666,000001A6,false,Rx,0,8,00,00,00,00,00,00,B0,F2,
1390033,000000AA,false,Rx,0,8,5E,54,07,00,B8,0B,94,00,
1390259,000000A8,false,Rx,0,8,08,0A,21,E0,21,1F,0F,04,
1390488,000000A9,false,Rx,0,8,F3,0A,79,DF,1D,C7,E0,21,
1390723,000000BA,false,Rx,0,7,03,FF,0F,00,00,57,8A,00,
1396836,000000C4,false,Rx,0,7,42,08,FC,00,00,FF,F1,00,
1400080,000000AA,false,Rx,0,8,60,56,07,00,B8,0B,94,00,
1400305,000000A8,false,Rx,0,8,09,0B,21,E0,21,1F,0F,04,
1400530,000000A9,false,Rx,0,8,F4,0B,79,DF,1D,C7,E0,21,
1400761,000000BA,false,Rx,0,7,03,FF,0F,00,00,58,8B,00,
1403616,000001B4,false,Rx,0,8,00,D0,E2,F6,44,32,FE,D5,
1406672,000000B6,false,Rx,0,5,03,03,80,00,C8,00,00,00,
1406905,000000C4,false,Rx,0,7,42,08,FC,00,00,FF,F1,00,
1407130,000000CE,false,Rx,0,8,00,00,00,00,00,00,00,00,
1408870,0000019E,false,Rx,0,8,00,E8,0F,FC,FE,00,00,93,
1408876,000001A0,false,Rx,0,8,00,80,00,60,01,14,30,C7,
1408882,000002B2,false,Rx,0,8,00,00,00,00,50,00,00,04,
1410105,000000AA,false,Rx,0,8,62,58,07,00,B8,0B,94,00,
1410415,000000A8,false,Rx,0,8,0A,0C,21,E0,21,1F,0F,04,
1410420,000000A9,false,Rx,0,8,F5,0C,79,DF,1D,C7,E0,21,
1410646,000000BA,false,Rx,0,7,03,FF,0F,00,00,59,8C,00,
1416704,000000C4,false,Rx,0,7,42,08,FC,00,00,FF,F1,00,
1419973,000000AA,false,Rx,0,8,64,5A,07,00,B8,0B,94,00,
1420205,000000A8,false,Rx,0,8,0B,0D,21,E0,21,1F,0F,04,
1420430,000000A9,false,Rx,0,8,F6,0D,79,DF,1D,C7,E0,21,
1420665,000000BA,false,Rx,0,7,03,FF,0F,00,00,5A,8D,00,
1426721,000000B6,false,Rx,0,5,04,04,80,00,C8,00,00,00,
1426952,000000C4,false,Rx,0,7,42,08,FC,00,00,FF,F1,00,
1427177,000000CE,false,Rx,0,8,00,00,00,00,00,00,00,00,
1428980,0000019E,false,Rx,0,8,00,E8,0F,FC,FE,00,00,93,
1428986,000001A0,false,Rx,0,8,00,80,00,40,01,17,40,BA,
1428991,000002B2,false,Rx,0,8,00,00,00,00,50,00,00,04,
1428997,00000130,false,Rx,0,5,45,43,21,8F,FE,00,00,00,
1430029,000000AA,false,Rx,0,8,66,5C,07,00,B8,0B,94,00,
1430265,000000A8,false,Rx,0,8,0C,0E,21,E0,21,1F,0F,04,
1430512,000000A9,false,Rx,0,8,F7,0E,79,DF,1D,C7,E0,21,
1430745,000000BA,false,Rx,0,7,03,FF,0F,00,00,5B,8E,00,
1436817,000000C4,false,Rx,0,7,42,08,FC,00,00,FF,F1,00,
1437041,00000194,false,Rx,0,4,EC,FB,00,F0,00,00,00,00,
1437266,000001D6,false,Rx,0,2,FF,F3,00,00,00,00,00,00,
1439940,000000AA,false,Rx,0,8,5A,50,07,00,B8,0B,94,00,
1440351,000000A8,false,Rx,0,8,FD,00,21,E0,21,1F,0F,04,
1440576,000000A9,false,Rx,0,8,E9,00,79,DF,1D,C7,E0,21,
1440814,000000BA,false,Rx,0,7,03,FF,0F,00,00,4D,80,00,
1446882,000000B6,false,Rx,0,5,05,05,80,00,C8,00,00,00,
1447106,000000C4,false,Rx,0,7,42,08,FC,00,00,FF,F1,00,
1447331,000000CE,false,Rx,0,8,00,00,00,00,00,00,00,00,
1449094,0000019E,false,Rx,0,8,00,E8,0F,FC,FE,00,00,93,
1449100,000001A0,false,Rx,0,8,00,80,00,40,01,14,50,C7,
1449105,000002B2,false,Rx,0,8,00,00,00,00,50,00,00,04,
1449111,000004A9,false,Rx,0,8,30,42,FF,FF,FF,FF,FF,FF,
1450128,000000AA,false,Rx,0,8,5C,52,07,00,B8,0B,94,00,
1450417,000000A8,false,Rx,0,8,FE,01,21,E0,21,1F,0F,04,
1450422,000000A9,false,Rx,0,8,EA,01,79,DF,1D,C7,E0,21,
1450682,000000BA,false,Rx,0,7,03,FF,0F,00,00,4E,81,00,
1456766,000000C4,false,Rx,0,7,42,08,FC,00,00,FF,F1,00,
1460007,000000AA,false,Rx,0,8,5E,54,07,00,B8,0B,94,00,
1460232,000000A8,false,Rx,0,8,FF,02,21,E0,21,1F,0F,04,
1460457,000000A9,false,Rx,0,8,EB,02,79,DF,1D,C7,E0,21,
1460690,000000BA,false,Rx,0,7,03,FF,0F,00,00,4F,82,00,
1466747,000000B6,false,Rx,0,5,06,06,80,00,C8,00,00,00,
1466979,000000C4,false,Rx,0,7,42,08,FC,00,00,FF,F1,00,
1467204,000000CE,false,Rx,0,8,00,00,00,00,00,00,00,00,
1469162,0000019E,false,Rx,0,8,00,E8,1F,FC,FE,00,00,A3,
1469169,000001A0,false,Rx,0,8,00,80,00,60,01,17,60,FA,
1469174,000002B2,false,Rx,0,8,00,00,00,00,50,00,00,04,
1469999,000000AA,false,Rx,0,8,60,56,07,00,B8,0B,94,00,
1470236,000000A8,false,Rx,0,8,00,03,21,E0,21,1F,0F,04,
1470478,000000A9,false,Rx,0,8,EC,03,79,DF,1D,C7,E0,21,
1470745,000000BA,false,Rx,0,7,03,FF,0F,00,00,50,83,00,
1474546,000001D0,false,Rx,0,8,3C,76,69,C3,9C,9E,CD,82,
1476866,000000C4,false,Rx,0,7,42,08,FC,00,00,FF,F1,00,
1480106,000000AA,false,Rx,0,8,62,58,07,00,B8,0B,94,00,
1480331,000000A8,false,Rx,0,8,02,04,21,E0,21,1F,0F,04,
1480556,000000A9,false,Rx,0,8,ED,04,79,DF,1D,C7,E0,21,
1480829,000000BA,false,Rx,0,7,03,FF,0F,00,00,51,84,00,
1480835,000001FB,false,Rx,0,2,FC,FF,00,00,00,00,00,00,
1486694,000000B6,false,Rx,0,5,07,07,80,00,C8,00,00,00,
1486925,000000C4,false,Rx,0,7,42,08,FC,00,00,FF,F1,00,
1487151,000000CE,false,Rx,0,8,00,00,00,00,00,00,00,00,
1487376,0000019E,false,Rx,0,8,00,E8,1F,FC,FE,00,00,A3,
1487600,000001A0,false,Rx,0,8,00,80,00,60,01,14,70,08,
1489315,000002B2,false,Rx,0,8,00,00,00,00,50,00,00,04,
1489322,000001A6,false,Rx,0,8,00,00,00,00,00,00,40,F4,
1489955,000000AA,false,Rx,0,8,64,5A,07,00,B8,0B,94,00,
1490181,000000A8,false,Rx,0,8,03,05,21,E0,21,1F,0F,04,
1490637,000000A9,false,Rx,0,8,EE,05,79,DF,1D,C7,E0,21,
1490643,000000BA,false,Rx,0,7,03,FF,0F,00,00,52,85,00,
1496803,000000C4,false,Rx,0,7,42,08,FC,00,00,FF,F1,00,
1500051,000000AA,false,Rx,0,8,66,5C,07,00,B8,0B,94,00,
1500276,000000A8,false,Rx,0,8,04,06,21,E0,21,1F,0F,04,
1500500,000000A9,false,Rx,0,8,EF,06,79,DF,1D,C7,E0,21,
1500730,000000BA,false,Rx,0,7,03,FF,0F,00,00,53,86,00,
1500956,000003B0,false,Rx,0,2,FD,FF,00,00,00,00,00,00,
1501746,0000021A,false,Rx,0,3,00,20,FC,00,00,00,00,00,
1503668,000001B4,false,Rx,0,8,00,D0,E2,F7,44,32,FE,D6,
1506722,000000B6,false,Rx,0,5,08,08,80,00,C8,00,00,00,
1506954,000000C4,false,Rx,0,7,42,08,FC,00,00,FF,F1,00,
1507179,000000CE,false,Rx,0,8,00,00,00,00,00,00,00,00,
1507590,0000019E,false,Rx,0,8,00,E8,1F,FC,FE,00,00,A3,
1509309,000001A0,false,Rx,0,8,00,80,00,60,01,17,80,1B,
1509316,000002B2,false,Rx,0,8,00,00,00,00,50,00,00,04,
1509940,000000AA,false,Rx,0,8,68,5E,07,00,B8,0B,94,00,
1510365,000000A8,false,Rx,0,8,05,07,21,E0,21,1F,0F,04,
1510646,000000A9,false,Rx,0,8,F0,07,79,DF,1D,C7,E0,21,
1510651,000000BA,false,Rx,0,7,03,FF,0F,00,00,54,87,00,
1516737,000000C4,false,Rx,0,7,42,08,FC,00,00,FF,F1,00,
1519975,000000AA,false,Rx,0,8,5A,50,07,00,B8,0B,94,00,
1520208,000000A8,false,Rx,0,8,06,08,21,E0,21,1F,0F,04,
1520445,000000A9,false,Rx,0,8,F1,08,79,DF,1D,C7,E0,21,
1520677,000000BA,false,Rx,0,7,03,FF,0F,00,00,55,88,00,
1526750,000000B6,false,Rx,0,5,09,09,80,00,C8,00,00,00,
1526982,000000C4,false,Rx,0,7,42,08,FC,00,00,FF,F1,00,
1527207,000000CE,false,Rx,0,8,00,00,00,00,00,00,00,00,
1527432,0000019E,false,Rx,0,8,00,E8,1F,FC,FE,00,00,A3,
1527664,000001A0,false,Rx,0,8,00,80,00,60,01,17,90,2B,
1529395,000002B2,false,Rx,0,8,00,00,00,00,50,00,00,04,
1529402,00000130,false,Rx,0,5,45,43,21,8F,00,00,00,00,
1530032,000000AA,false,Rx,0,8,5C,52,07,00,B8,0B,94,00,
1530271,000000A8,false,Rx,0,8,07,09,21,E0,21,1F,0F,04,
1530509,000000A9,false,Rx,0,8,F2,09,79,DF,1D,C7,E0,21,
1530748,000000BA,false,Rx,0,7,03,FF,0F,00,00,56,89,00,
1531005,000001D2,false,Rx,0,5,E1,0C,8F,30,F0,00,00,00,
1536868,000000C4,false,Rx,0,7,42,08,FC,00,00,FF,F1,00,
1537092,000001D6,false,Rx,0,2,FF,F3,00,00,00,00,00,00,
1539196,000004B0,false,Rx,0,8,00,42,FE,01,FF,FF,FF,FF,
1539996,000000AA,false,Rx,0,8,5E,54,07,00,B8,0B,94,00,
1540221,000000A8,false,Rx,0,8,08,0A,21,E0,21,1F,0F,04,
1540446,000000A9,false,Rx,0,8,F3,0A,79,DF,1D,C7,E0,21,
1540676,000000BA,false,Rx,0,7,03,FF,0F,00,00,57,8A,00,
1546925,000000B6,false,Rx,0,5,0A,0A,80,00,C8,00,00,00,
1547149,000000C4,false,Rx,0,7,42,08,FC,00,00,FF,F1,00,
1547373,000000CE,false,Rx,0,8,00,00,00,00,00,00,00,00,
1547599,0000019E,false,Rx,0,8,00,E8,1F,FC,FE,00,00,A3,
1547838,000001A0,false,Rx,0,8,00,80,00,60,01,17,A0,3B,
1549494,000002B2,false,Rx,0,8,00,00,00,00,50,00,00,04,
1550125,000000AA,false,Rx,0,8,60,56,07,00,B8,0B,94,00,
1550363,000000A8,false,Rx,0,8,09,0B,21,E0,21,1F,0F,04,
1550646,000000A9,false,Rx,0,8,F4,0B,79,DF,1D,C7,E0,21,
1550652,000000BA,false,Rx,0,7,03,FF,0F,00,00,58,8B,00,
1556939,000000C4,false,Rx,0,7,42,08,FC,00,00,FF,F1,00,
1559991,000000AA,false,Rx,0,8,62,58,07,00,B8,0B,94,00,
1560216,000000A8,false,Rx,0,8,0A,0C,21,E0,21,1F,0F,04,
1560441,000000A9,false,Rx,0,8,F5,0C,79,DF,1D,C7,E0,21,
1560673,000000BA,false,Rx,0,7,03,FF,0F,00,00,59,8C,00,
1566930,000000B6,false,Rx,0,5,0B,0B,80,00,C8,00,00,00,
1567155,000000C4,false,Rx,0,7,42,08,FC,00,00,FF,F1,00,
1567379,000000CE,false,Rx,0,8,00,00,00,00,00,00,00,00,
1567604,0000019E,false,Rx,0,8,00,E8,1F,FC,FE,00,00,A3,
1567844,000001A0,false,Rx,0,8,00,80,00,40,01,17,B0,2B,
1569548,000002B2,false,Rx,0,8,00,00,00,00,50,00,00,04,
1569554,000000C8,false,Rx,0,6,38,08,3C,00,00,5C,00,00,
1570003,000000AA,false,Rx,0,8,64,5A,07,00,B8,0B,94,00,
1570229,000000A8,false,Rx,0,8,0B,0D,21,E0,21,1F,0F,04,
1570467,000000A9,false,Rx,0,8,F6,0D,79,DF,1D,C7,E0,21,
1570709,000000BA,false,Rx,0,7,03,FF,0F,00,00,5A,8D,00,
1574552,000001D0,false,Rx,0,8,3C,76,6A,C3,9C,9E,CD,82,
1576768,000000C4,false,Rx,0,7,42,08,FC,00,00,FF,F1,00,
1580029,000000AA,false,Rx,0,8,66,5C,07,00,B8,0B,94,00,
1580253,000000A8,false,Rx,0,8,0C,0E,21,E0,21,1F,0F,04,
1580479,000000A9,false,Rx,0,8,F7,0E,79,DF,1D,C7,E0,21,
1580706,000000BA,false,Rx,0,7,03,FF,0F,00,00,5B,8E,00,
1586761,000000B6,false,Rx,0,5,0C,0C,80,00,C8,00,00,00,
1586992,000000C4,false,Rx,0,7,42,08,FC,00,00,FF,F1,00,
1587217,000000CE,false,Rx,0,8,00,00,00,00,00,00,00,00,
1587442,0000019E,false,Rx,0,8,00,E8,1F,FC,FE,00,00,A3,
1587672,000001A0,false,Rx,0,8,00,80,00,40,01,17,C0,3B,
1587905,000002B2,false,Rx,0,8,00,00,00,00,50,00,00,04,
1589560,000001A6,false,Rx,0,8,00,00,00,00,00,00,D0,F5,
1590006,000000AA,false,Rx,0,8,5A,50,07,00,B8,0B,94,00,
1590233,000000A8,false,Rx,0,8,FD,00,21,E0,21,1F,0F,04,
1590458,000000A9,false,Rx,0,8,E9,00,79,DF,1D,C7,E0,21,
1590691,000000BA,false,Rx,0,7,03,FF,0F,00,00,4D,80,00,
1596873,000000C4,false,Rx,0,7,42,08,FC,00,00,FF,F1,00,
1600118,000000AA,false,Rx,0,8,5C,52,07,00,B8,0B,94,00,
1600343,000000A8,false,Rx,0,8,FE,01,21,E0,21,1F,0F,04,
1600568,000000A9,false,Rx,0,8,EA,01,79,DF,1D,C7,E0,21,
1600809,000000BA,false,Rx,0,7,03,FF,0F,00,00,4E,81,00,
1603859,000001B4,false,Rx,0,8,00,D0,E2,F8,44,32,FE,D7,
1606715,000000B6,false,Rx,0,5,0D,0D,80,00,C8,00,00,00,
1606947,000000C4,false,Rx,0,7,42,08,FC,00,00,FF,F1,00,
1607172,000000CE,false,Rx,0,8,00,00,00,00,00,00,00,00,
1607397,0000019E,false,Rx,0,8,00,E8,1F,FC,FE,00,00,A3,
1607620,000001A0,false,Rx,0,8,00,80,00,60,01,17,D0,6B,
1607859,000002B2,false,Rx,0,8,00,00,00,00,50,00,00,04,
1610105,000000AA,false,Rx,0,8,5E,54,07,00,B8,0B,94,00,
1610333,000000A8,false,Rx,0,8,FF,02,21,E0,21,1F,0F,04,
1610559,000000A9,false,Rx,0,8,EB,02,79,DF,1D,C7,E0,21,
1610809,000000BA,false,Rx,0,7,03,FF,0F,00,00,4F,82,00,
1616740,000000C4,false,Rx,0,7,42,08,FC,00,00,FF,F1,00,
1619989,000000AA,false,Rx,0,8,60,56,07,00,B8,0B,94,00,
1620213,000000A8,false,Rx,0,8,00,03,21,E0,21,1F,0F,04,
1620438,000000A9,false,Rx,0,8,EC,03,79,DF,1D,C7,E0,21,
1620668,000000BA,false,Rx,0,7,03,FF,0F,00,00,50,83,00,
1626757,000000B6,false,Rx,0,5,0E,0E,80,00,C8,00,00,00,
1626989,000000C4,false,Rx,0,7,42,08,FC,00,00,FF,F1,00,
1627213,000000CE,false,Rx,0,8,00,00,00,00,00,00,00,00,
1627438,0000019E,false,Rx,0,8,00,E8,1F,FC,FE,00,00,A3,
1627668,000001A0,false,Rx,0,8,00,80,00,40,01,17,E0,5B,
1627900,000002B2,false,Rx,0,8,00,00,00,00,50,00,00,04,
1629788,00000130,false,Rx,0,5,45,43,21,8F,11,00,00,00,
1630036,000000AA,false,Rx,0,8,62,58,07,00,B8,0B,94,00,
1630262,000000A8,false,Rx,0,8,02,04,21,E0,21,1F,0F,04,
1630491,000000A9,false,Rx,0,8,ED,04,79,DF,1D,C7,E0,21,
1630726,000000BA,false,Rx,0,7,03,FF,0F,00,00,51,84,00,
1637006,000000C4,false,Rx,0,7,42,08,FC,00,00,FF,F1,00,
1637011,00000194,false,Rx,0,4,ED,FC,00,F0,00,00,00,00,
1637236,000001D6,false,Rx,0,2,FF,F3,00,00,00,00,00,00,
1639532,00000480,false,Rx,0,8,17,42,FD,FF,FF,FF,FF,FF,
1639953,000000AA,false,Rx,0,8,64,5A,07,00,B8,0B,94,00,
1640177,000000A8,false,Rx,0,8,03,05,21,E0,21,1F,0F,04,
1640588,000000A9,false,Rx,0,8,EE,05,79,DF,1D,C7,E0,21,
1640828,000000BA,false,Rx,0,7,03,FF,0F,00,00,52,85,00,
1646879,000000B6,false,Rx,0,5,FF,00,80,00,C8,00,00,00,
1647103,000000C4,false,Rx,0,7,42,08,FC,00,00,FF,F1,00,
1647328,000000CE,false,Rx,0,8,00,00,00,00,00,00,00,00,
1647554,0000019E,false,Rx,0,8,00,E8,1F,FC,FE,00,00,A3,
1647793,000001A0,false,Rx,0,8,00,80,00,60,01,17,00,9A,
1648018,000002B2,false,Rx,0,8,00,00,00,00,50,00,00,04,
1650067,000000AA,false,Rx,0,8,66,5C,07,00,B8,0B,94,00,
1650307,000000A8,false,Rx,0,8,04,06,21,E0,21,1F,0F,04,
1650532,000000A9,false,Rx,0,8,EF,06,79,DF,1D,C7,E0,21,
1650770,000000BA,false,Rx,0,7,03,FF,0F,00,00,53,86,00,
1653295,000001B5,false,Rx,0,7,C8,FF,04,00,88,FF,FF,00,
1656917,000000C4,false,Rx,0,7,42,08,FC,00,00,FF,F1,00,
1659967,000000AA,false,Rx,0,8,68,5E,07,00,B8,0B,94,00,
1660192,000000A8,false,Rx,0,8,05,07,21,E0,21,1F,0F,04,
1660417,000000A9,false,Rx,0,8,F0,07,79,DF,1D,C7,E0,21,
1660642,000000BA,false,Rx,0,7,03,FF,0F,00,00,54,87,00,
1666882,000000B6,false,Rx,0,5,00,01,80,00,C8,00,00,00,
1667107,000000C4,false,Rx,0,7,42,08,FC,00,00,FF,F1,00,
1667331,000000CE,false,Rx,0,8,00,00,00,00,00,00,00,00,
1667556,0000019E,false,Rx,0,8,00,E8,1F,FC,FE,00,00,A3,
1667791,000001A0,false,Rx,0,8,00,80,00,60,01,17,10,AA,
1668016,000002B2,false,Rx,0,8,00,00,00,00,50,00,00,04,
1670033,000000AA,false,Rx,0,8,5A,50,07,00,B8,0B,94,00,
1670271,000000A8,false,Rx,0,8,06,08,21,E0,21,1F,0F,04,
1670505,000000A9,false,Rx,0,8,F1,08,79,DF,1D,C7,E0,21,
1670770,000000BA,false,Rx,0,7,03,FF,0F,00,00,55,88,00,
1670776,000001FB,false,Rx,0,2,FD,FF,00,00,00,00,00,00,
1674643,000001D0,false,Rx,0,8,3C,76,6A,C3,9C,9E,CD,82,
1676767,000000C4,false,Rx,0,7,42,08,FC,00,00,FF,F1,00,
1680007,000000AA,false,Rx,0,8,5C,52,07,00,B8,0B,94,00,
1680232,000000A8,false,Rx,0,8,07,09,21,E0,21,1F,0F,04,
1680458,000000A9,false,Rx,0,8,F2,09,79,DF,1D,C7,E0,21,
1680691,000000BA,false,Rx,0,7,03,FF,0F,00,00,56,89,00,
1686751,000000B6,false,Rx,0,5,02,02,80,00,C8,00,00,00,
1686982,000000C4,false,Rx,0,7,42,08,FC,00,00,FF,F1,00,
1687207,000000CE,false,Rx,0,8,00,00,00,00,00,00,00,00,
1687432,0000019E,false,Rx,0,8,00,E8,2F,FC,FE,00,00,B3,
1687664,000001A0,false,Rx,0,8,00,80,00,60,01,14,20,B7,
1687897,000002B2,false,Rx,0,8,00,00,00,00,50,00,00,04,
1688122,000001A6,false,Rx,0,8,00,00,00,00,00,00,60,F7,
1690184,000000AA,false,Rx,0,8,5E,54,07,00,B8,0B,94,00,
1690191,000000A8,false,Rx,0,8,08,0A,21,E0,21,1F,0F,04,
1690440,000000A9,false,Rx,0,8,F3,0A,79,DF,1D,C7,E0,21,
1690674,000000BA,false,Rx,0,7,03,FF,0F,00,00,57,8A,00,
1696815,000000C4,false,Rx,0,7,42,08,FC,00,00,FF,F1,00,
1700061,000000AA,false,Rx,0,8,60,56,07,00,B8,0B,94,00,
1700286,000000A8,false,Rx,0,8,09,0B,21,E0,21,1F,0F,04,
1700511,000000A9,false,Rx,0,8,F4,0B,79,DF,1D,C7,E0,21,
1700743,000000BA,false,Rx,0,7,03,FF,0F,00,00,58,8B,00,
1703527,000001B4,false,Rx,0,8,00,D0,E2,F9,44,32,FE,D8,
1706763,000000B6,false,Rx,0,5,03,03,80,00,C8,00,00,00,
1706995,000000C4,false,Rx,0,7,42,08,FC,00,00,FF,F1,00,
1707220,000000CE,false,Rx,0,8,00,00,00,00,00,00,00,00,
1707445,0000019E,false,Rx,0,8,00,E8,2F,FC,FE,00,00,B3,
1707676,000001A0,false,Rx,0,8,00,80,00,60,01,17,30,CA,
1707908,000002B2,false,Rx,0,8,00,00,00,00,50,00,00,04,
1710330,000000AA,false,Rx,0,8,62,58,07,00,B8,0B,94,00,
1710337,000000A8,false,Rx,0,8,0A,0C,21,E0,21,1F,0F,04,
1710574,000000A9,false,Rx,0,8,F5,0C,79,DF,1D,C7,E0,21,
1710827,000000BA,false,Rx,0,7,03,FF,0F,00,00,59,8C,00,
1716787,000000C4,false,Rx,0,7,42,08,FC,00,00,FF,F1,00,
1720023,000000AA,false,Rx,0,8,64,5A,07,00,B8,0B,94,00,
1720249,000000A8,false,Rx,0,8,0B,0D,21,E0,21,1F,0F,04,
1720474,000000A9,false,Rx,0,8,F6,0D,79,DF,1D,C7,E0,21,
1720707,000000BA,false,Rx,0,7,03,FF,0F,00,00,5A,8D,00,
1726799,000000B6,false,Rx,0,5,04,04,80,00,C8,00,00,00,
1727024,000000C4,false,Rx,0,7,42,08,FC,00,00,FF,F1,00,
1727249,000000CE,false,Rx,0,8,00,00,00,00,00,00,00,00,
1727481,0000019E,false,Rx,0,8,00,E8,2F,FC,FE,00,00,B3,
1727709,000001A0,false,Rx,0,8,00,80,00,70,01,14,40,E7,
1727941,000002B2,false,Rx,0,8,00,00,00,00,50,00,00,04,
1728166,00000130,false,Rx,0,5,45,43,21,8F,22,00,00,00,
1730436,000000AA,false,Rx,0,8,66,5C,07,00,B8,0B,94,00,
1730442,000000A8,false,Rx,0,8,0C,0E,21,E0,21,1F,0F,04,
1730448,000000A9,false,Rx,0,8,F7,0E,79,DF,1D,C7,E0,21,
1730696,000000BA,false,Rx,0,7,03,FF,0F,00,00,5B,8E,00,
1730923,000001D2,false,Rx,0,5,E1,0C,8F,40,F0,00,00,00,
1733113,00000497,false,Rx,0,8,29,42,FF,FF,FF,FF,FF,FF,
1736965,000000C4,false,Rx,0,7,42,08,FC,00,00,FF,F1,00,
1736970,000001D6,false,Rx,0,2,FF,F3,00,00,00,00,00,00,
1740016,000000AA,false,Rx,0,8,5A,50,07,00,B8,0B,94,00,
1740241,000000A8,false,Rx,0,8,FD,00,21,E0,21,1F,0F,04,
1740467,000000A9,false,Rx,0,8,E9,00,79,DF,1D,C7,E0,21,
1740702,000000BA,false,Rx,0,7,03,FF,0F,00,00,4D,80,00,
1746947,000000B6,false,Rx,0,5,05,05,80,00,C8,00,00,00,
1747171,000000C4,false,Rx,0,7,42,08,FC,00,00,FF,F1,00,
1747396,000000CE,false,Rx,0,8,00,00,00,00,00,00,00,00,
1747622,0000019E,false,Rx,0,8,00,E8,2F,FC,FE,00,00,B3,
1747862,000001A0,false,Rx,0,8,00,80,00,40,01,17,50,CA,
1748087,000002B2,false,Rx,0,8,00,00,00,00,50,00,00,04,
1750486,000000AA,false,Rx,0,8,5C,52,07,00,B8,0B,94,00,
1750493,000000A8,false,Rx,0,8,FE,01,21,E0,21,1F,0F,04,
1750498,000000A9,false,Rx,0,8,EA,01,79,DF,1D,C7,E0,21,
1750743,000000BA,false,Rx,0,7,03,FF,0F,00,00,4E,81,00,
1756904,000000C4,false,Rx,0,7,42,08,FC,00,00,FF,F1,00,
1759947,000000AA,false,Rx,0,8,5E,54,07,00,B8,0B,94,00,
1760358,000000A8,false,Rx,0,8,FF,02,21,E0,21,1F,0F,04,
1760583,000000A9,false,Rx,0,8,EB,02,79,DF,1D,C7,E0,21,
1760821,000000BA,false,Rx,0,7,03,FF,0F,00,00,4F,82,00,
1766879,000000B6,false,Rx,0,5,06,06,80,00,C8,00,00,00,
1767103,000000C4,false,Rx,0,7,42,08,FC,00,00,FF,F1,00,
1767328,000000CE,false,Rx,0,8,00,00,00,00,00,00,00,00,
1767553,0000019E,false,Rx,0,8,00,E8,2F,FC,FE,00,00,B3,
1767792,000001A0,false,Rx,0,8,00,80,00,60,01,17,60,FA,
1768018,000002B2,false,Rx,0,8,00,00,00,00,50,00,00,04,
1768243,000000C8,false,Rx,0,6,38,08,7C,00,00,CC,00,00,
1770657,000000AA,false,Rx,0,8,60,56,07,00,B8,0B,94,00,
1770664,000000A8,false,Rx,0,8,00,03,21,E0,21,1F,0F,04,
1770670,000000A9,false,Rx,0,8,EC,03,79,DF,1D,C7,E0,21,
1770675,000000BA,false,Rx,0,7,03,FF,0F,00,00,50,83,00,
1774564,000001D0,false,Rx,0,8,3C,76,6B,C3,9C,9E,CD,82,
1776870,000000C4,false,Rx,0,7,42,08,FC,00,00,FF,F1,00,
1780111,000000AA,false,Rx,0,8,62,58,07,00,B8,0B,94,00,
1780336,000000A8,false,Rx,0,8,02,04,21,E0,21,1F,0F,04,
1780561,000000A9,false,Rx,0,8,ED,04,79,DF,1D,C7,E0,21,
1780797,000000BA,false,Rx,0,7,03,FF,0F,00,00,51,84,00,
1786859,000000B6,false,Rx,0,5,07,07,80,00,C8,00,00,00,
1787084,000000C4,false,Rx,0,7,42,08,FC,00,00,FF,F1,00,
1787309,000000CE,false,Rx,0,8,00,00,00,00,00,00,00,00,
1787534,0000019E,false,Rx,0,8,00,E8,2F,FC,FE,00,00,B3,
1787763,000001A0,false,Rx,0,8,00,80,00,40,01,17,70,EA,
1787995,000002B2,false,Rx,0,8,00,00,00,00,50,00,00,04,
1788220,000001A6,false,Rx,0,8,00,00,00,00,00,00,F0,F8,
1790810,000000AA,false,Rx,0,8,64,5A,07,00,B8,0B,94,00,
1790817,000000A8,false,Rx,0,8,03,05,21,E0,21,1F,0F,04,
1790822,000000A9,false,Rx,0,8,EE,05,79,DF,1D,C7,E0,21,
1790827,000000BA,false,Rx,0,7,03,FF,0F,00,00,52,85,00,
1796947,000000C4,false,Rx,0,7,42,08,FC,00,00,FF,F1,00,
1800010,000000AA,false,Rx,0,8,66,5C,07,00,B8,0B,94,00,
1800235,000000A8,false,Rx,0,8,04,06,21,E0,21,1F,0F,04,
1800460,000000A9,false,Rx,0,8,EF,06,79,DF,1D,C7,E0,21,
1800694,000000BA,false,Rx,0,7,03,FF,0F,00,00,53,86,00,
1803745,000001B4,false,Rx,0,8,00,D0,E2,FA,44,32,FE,D9,
1806806,000000B6,false,Rx,0,5,08,08,80,00,C8,00,00,00,
1807031,000000C4,false,Rx,0,7,42,08,FC,00,00,FF,F1,00,
1807256,000000CE,false,Rx,0,8,00,00,00,00,00,00,00,00,
1807481,0000019E,false,Rx,0,8,00,E8,2F,FC,FE,00,00,B3,
1807715,000001A0,false,Rx,0,8,00,80,00,40,01,17,80,FA,
1807947,000002B2,false,Rx,0,8,00,00,00,00,50,00,00,04,
1810940,000000AA,false,Rx,0,8,68,5E,07,00,B8,0B,94,00,
1810947,000000A8,false,Rx,0,8,05,07,21,E0,21,1F,0F,04,
1810952,000000A9,false,Rx,0,8,F0,07,79,DF,1D,C7,E0,21,
1810958,000000BA,false,Rx,0,7,03,FF,0F,00,00,54,87,00,
1816934,000000C4,false,Rx,0,7,42,08,FC,00,00,FF,F1,00,
1819989,000000AA,false,Rx,0,8,5A,50,07,00,B8,0B,94,00,
1820214,000000A8,false,Rx,0,8,06,08,21,E0,21,1F,0F,04,
1820438,000000A9,false,Rx,0,8,F1,08,79,DF,1D,C7,E0,21,
1820669,000000BA,false,Rx,0,7,03,FF,0F,00,00,55,88,00,
1826738,000000B6,false,Rx,0,5,09,09,80,00,C8,00,00,00,
1826970,000000C4,false,Rx,0,7,42,08,FC,00,00,FF,F1,00,
1827195,000000CE,false,Rx,0,8,00,00,00,00,00,00,00,00,
1827617,0000019E,false,Rx,0,8,00,E8,2F,FC,FE,00,00,B3,
1827862,000001A0,false,Rx,0,8,00,80,00,60,01,14,90,28,
1828087,000002B2,false,Rx,0,8,00,00,00,00,50,00,00,04,
1828344,000004A9,false,Rx,0,8,30,42,FF,FF,FF,FF,FF,FF,
1828350,00000130,false,Rx,0,5,45,43,21,8F,33,00,00,00,
1831019,000000AA,false,Rx,0,8,5C,52,07,00,B8,0B,94,00,
1831025,000000A8,false,Rx,0,8,07,09,21,E0,21,1F,0F,04,
1831031,000000A9,false,Rx,0,8,F2,09,79,DF,1D,C7,E0,21,
1831036,000000BA,false,Rx,0,7,03,FF,0F,00,00,56,89,00,
1837043,000000C4,false,Rx,0,7,42,08,FC,00,00,FF,F1,00,
1837049,00000194,false,Rx,0,4,EE,FD,00,F0,00,00,00,00,
1837274,000001D6,false,Rx,0,2,FF,F3,00,00,00,00,00,00,
1839948,000000AA,false,Rx,0,8,5E,54,07,00,B8,0B,94,00,
1840359,000000A8,false,Rx,0,8,08,0A,21,E0,21,1F,0F,04,
1840584,000000A9,false,Rx,0,8,F3,0A,79,DF,1D,C7,E0,21,
1840825,000000BA,false,Rx,0,7,03,FF,0F,00,00,57,8A,00,
1846891,000000B6,false,Rx,0,5,0A,0A,80,00,C8,00,00,00,
1847115,000000C4,false,Rx,0,7,42,08,FC,00,00,FF,F1,00,
1847340,000000CE,false,Rx,0,8,00,00,00,00,00,00,00,00,
1847566,0000019E,false,Rx,0,8,00,E8,2F,FC,FE,00,00,B3,
1847806,000001A0,false,Rx,0,8,00,80,00,40,01,17,A0,1B,
1848031,000002B2,false,Rx,0,8,00,00,00,00,50,00,00,04,
1851041,000000AA,false,Rx,0,8,60,56,07,00,B8,0B,94,00,
1851048,000000A8,false,Rx,0,8,09,0B,21,E0,21,1F,0F,04,
1851053,000000A9,false,Rx,0,8,F4,0B,79,DF,1D,C7,E0,21,
1851058,000000BA,false,Rx,0,7,03,FF,0F,00,00,58,8B,00,
1856831,000000C4,false,Rx,0,7,42,08,FC,00,00,FF,F1,00,
1857999,00000335,false,Rx,0,8,00,CC,10,00,00,99,00,00,
1860109,000000AA,false,Rx,0,8,62,58,07,00,B8,0B,94,00,
1860334,000000A8,false,Rx,0,8,0A,0C,21,E0,21,1F,0F,04,
1860559,000000A9,false,Rx,0,8,F5,0C,79,DF,1D,C7,E0,21,
1860829,000000BA,false,Rx,0,7,03,FF,0F,00,00,59,8C,00,
1860835,000001FB,false,Rx,0,2,FE,FF,00,00,00,00,00,00,
1866882,000000B6,false,Rx,0,5,0B,0B,80,00,C8,00,00,00,
1867106,000000C4,false,Rx,0,7,42,08,FC,00,00,FF,F1,00,
1867331,000000CE,false,Rx,0,8,00,00,00,00,00,00,00,00,
1867556,0000019E,false,Rx,0,8,00,E8,2F,FC,FE,00,00,B3,
1867795,000001A0,false,Rx,0,8,00,80,00,60,01,14,B0,48,
1868020,000002B2,false,Rx,0,8,00,00,00,00,50,00,00,04,
1871241,000000AA,false,Rx,0,8,64,5A,07,00,B8,0B,94,00,
1871248,000000A8,false,Rx,0,8,0B,0D,21,E0,21,1F,0F,04,
1871253,000000A9,false,Rx,0,8,F6,0D,79,DF,1D,C7,E0,21,
1871258,000000BA,false,Rx,0,7,03,FF,0F,00,00,5A,8D,00,
1874606,000001D0,false,Rx,0,8,3C,76,6B,C3,9C,9E,CD,82,
1876922,000000C4,false,Rx,0,7,42,08,FC,00,00,FF,F1,00,
1879975,000000AA,false,Rx,0,8,66,5C,07,00,B8,0B,94,00,
1880198,000000A8,false,Rx,0,8,0C,0E,21,E0,21,1F,0F,04,
1880423,000000A9,false,Rx,0,8,F7,0E,79,DF,1D,C7,E0,21,
1880650,000000BA,false,Rx,0,7,03,FF,0F,00,00,5B,8E,00,
1886707,000000B6,false,Rx,0,5,0C,0C,80,00,C8,00,00,00,
1886938,000000C4,false,Rx,0,7,42,08,FC,00,00,FF,F1,00,
1887161,000000CE,false,Rx,0,8,00,00,00,00,00,00,00,00,
1887385,0000019E,false,Rx,0,8,00,E8,3F,FC,FE,00,00,C3,
1887810,000001A0,false,Rx,0,8,00,80,00,60,01,17,C0,5B,
1888035,000002B2,false,Rx,0,8,00,00,00,00,50,00,00,04,
1888260,000001A6,false,Rx,0,8,00,00,00,00,00,00,80,FA,
1891296,000000AA,false,Rx,0,8,5A,50,07,00,B8,0B,94,00,
1891302,000000A8,false,Rx,0,8,FD,00,21,E0,21,1F,0F,04,
1891308,000000A9,false,Rx,0,8,E9,00,79,DF,1D,C7,E0,21,
1891313,000000BA,false,Rx,0,7,03,FF,0F,00,00,4D,80,00,
1896764,000000C4,false,Rx,0,7,42,08,FC,00,00,FF,F1,00,
1900010,000000AA,false,Rx,0,8,5C,52,07,00,B8,0B,94,00,
1900235,000000A8,false,Rx,0,8,FE,01,21,E0,21,1F,0F,04,
1900461,000000A9,false,Rx,0,8,EA,01,79,DF,1D,C7,E0,21,
1900694,000000BA,false,Rx,0,7,03,FF,0F,00,00,4E,81,00,
1903550,000001B4,false,Rx,0,8,00,D0,E2,FB,44,32,FE,DA,
1906797,000000B6,false,Rx,0,5,0D,0D,80,00,C8,00,00,00,
1907022,000000C4,false,Rx,0,7,42,08,FC,00,00,FF,F1,00,
1907246,000000CE,false,Rx,0,8,00,00,00,00,00,00,00,00,
1907472,0000019E,false,Rx,0,8,00,E8,3F,FC,FE,00,00,C3,
1907704,000001A0,false,Rx,0,8,00,80,00,40,01,17,D0,4B,
1907935,000002B2,false,Rx,0,8,00,00,00,00,50,00,00,04,
1911378,000000AA,false,Rx,0,8,5E,54,07,00,B8,0B,94,00,
1911385,000000A8,false,Rx,0,8,FF,02,21,E0,21,1F,0F,04,
1911390,000000A9,false,Rx,0,8,EB,02,79,DF,1D,C7,E0,21,
1911395,000000BA,false,Rx,0,7,03,FF,0F,00,00,4F,82,00,
1916815,000000C4,false,Rx,0,7,42,08,FC,00,00,FF,F1,00,
1919295,000004B0,false,Rx,0,8,00,42,FE,01,FF,FF,FF,FF,
1920088,000000AA,false,Rx,0,8,60,56,07,00,B8,0B,94,00,
1920313,000000A8,false,Rx,0,8,00,03,21,E0,21,1F,0F,04,
1920538,000000A9,false,Rx,0,8,EC,03,79,DF,1D,C7,E0,21,
1920769,000000BA,false,Rx,0,7,03,FF,0F,00,00,50,83,00,
1926836,000000B6,false,Rx,0,5,0E,0E,80,00,C8,00,00,00,
1927060,000000C4,false,Rx,0,7,42,08,FC,00,00,FF,F1,00,
1927284,000000CE,false,Rx,0,8,00,00,00,00,00,00,00,00,
1927509,0000019E,false,Rx,0,8,00,E8,3F,FC,FE,00,00,C3,
1927743,000001A0,false,Rx,0,8,00,80,00,60,01,14,E0,78,
1927975,000002B2,false,Rx,0,8,00,00,00,00,50,00,00,04,
1928200,00000130,false,Rx,0,5,45,43,21,8F,44,00,00,00,
1931487,000000AA,false,Rx,0,8,62,58,07,00,B8,0B,94,00,
1931494,000000A8,false,Rx,0,8,02,04,21,E0,21,1F,0F,04,
1931499,000000A9,false,Rx,0,8,ED,04,79,DF,1D,C7,E0,21,
1931504,000000BA,false,Rx,0,7,03,FF,0F,00,00,51,84,00,
1931509,000001D2,false,Rx,0,5,E1,0C,8F,50,F0,00,00,00,
1936936,000000C4,false,Rx,0,7,42,08,FC,00,00,FF,F1,00,
1936943,000001D6,false,Rx,0,2,FF,F3,00,00,00,00,00,00,
1939994,000000AA,false,Rx,0,8,64,5A,07,00,B8,0B,94,00,
1940218,000000A8,false,Rx,0,8,03,05,21,E0,21,1F,0F,04,
1940443,000000A9,false,Rx,0,8,EE,05,79,DF,1D,C7,E0,21,
1940676,000000BA,false,Rx,0,7,03,FF,0F,00,00,52,85,00,
1946932,000000B6,false,Rx,0,5,FF,00,80,00,C8,00,00,00,
1947157,000000C4,false,Rx,0,7,42,08,FC,00,00,FF,F1,00,
1947382,000000CE,false,Rx,0,8,00,00,00,00,00,00,00,00,
1947607,0000019E,false,Rx,0,8,00,E8,3F,FC,FE,00,00,C3,
1947848,000001A0,false,Rx,0,8,00,80,00,60,01,14,00,97,
1948074,000002B2,false,Rx,0,8,00,00,00,00,50,00,00,04,
1951512,000000AA,false,Rx,0,8,66,5C,07,00,B8,0B,94,00,
1951518,000000A8,false,Rx,0,8,04,06,21,E0,21,1F,0F,04,
1951524,000000A9,false,Rx,0,8,EF,06,79,DF,1D,C7,E0,21,
1951529,000000BA,false,Rx,0,7,03,FF,0F,00,00,53,86,00,
1956919,000000C4,false,Rx,0,7,42,08,FC,00,00,FF,F1,00,
1959973,000000AA,false,Rx,0,8,68,5E,07,00,B8,0B,94,00,
1960197,000000A8,false,Rx,0,8,05,07,21,E0,21,1F,0F,04,
1960422,000000A9,false,Rx,0,8,F0,07,79,DF,1D,C7,E0,21,
1960650,000000BA,false,Rx,0,7,03,FF,0F,00,00,54,87,00,
1966898,000000B6,false,Rx,0,5,00,01,80,00,C8,00,00,00,
1967123,000000C4,false,Rx,0,7,42,08,FC,00,00,FF,F1,00,
1967348,000000CE,false,Rx,0,8,00,00,00,00,00,00,00,00,
1967573,0000019E,false,Rx,0,8,00,E8,3F,FC,FE,00,00,C3,
1967807,000001A0,false,Rx,0,8,00,80,00,40,01,17,10,8A,
1968032,000002B2,false,Rx,0,8,00,00,00,00,50,00,00,04,
1968257,000000C8,false,Rx,0,6,38,08,CC,00,00,EC,00,00,
1969994,000000AA,false,Rx,0,8,5A,50,07,00,B8,0B,94,00,
1971837,000000A8,false,Rx,0,8,06,08,21,E0,21,1F,0F,04,
1971843,000000A9,false,Rx,0,8,F1,08,79,DF,1D,C7,E0,21,
1971849,000000BA,false,Rx,0,7,03,FF,0F,00,00,55,88,00,
1974551,000001D0,false,Rx,0,8,3C,76,6C,C3,9C,9E,CD,82,
1976921,000000C4,false,Rx,0,7,42,08,FC,00,00,FF,F1,00,
1979975,000000AA,false,Rx,0,8,5C,52,07,00,B8,0B,94,00,
1980200,000000A8,false,Rx,0,8,07,09,21,E0,21,1F,0F,04,
1980425,000000A9,false,Rx,0,8,F2,09,79,DF,1D,C7,E0,21,
1980651,000000BA,false,Rx,0,7,03,FF,0F,00,00,56,89,00,
1986706,000000B6,false,Rx,0,5,02,02,80,00,C8,00,00,00,
1986938,000000C4,false,Rx,0,7,42,08,FC,00,00,FF,F1,00,
1987162,000000CE,false,Rx,0,8,00,00,00,00,00,00,00,00,
1987573,0000019E,false,Rx,0,8,00,E8,3F,FC,FE,00,00,C3,
1987815,000001A0,false,Rx,0,8,00,80,00,60,01,17,20,BA,
1988040,000002B2,false,Rx,0,8,00,00,00,00,50,00,00,04,
1988265,000001A6,false,Rx,0,8,00,00,00,00,00,00,10,FC,
1990003,000000AA,false,Rx,0,8,5E,54,07,00,B8,0B,94,00,
1991767,000000A8,false,Rx,0,8,08,0A,21,E0,21,1F,0F,04,
1991773,000000A9,false,Rx,0,8,F3,0A,79,DF,1D,C7,E0,21,
1991778,000000BA,false,Rx,0,7,03,FF,0F,00,00,57,8A,00,
1996807,000000C4,false,Rx,0,7,42,08,FC,00,00,FF,F1,00,
1999672,00000480,false,Rx,0,8,17,42,FD,FF,FF,FF,FF,FF,
2000089,000000AA,false,Rx,0,8,60,56,07,00,B8,0B,94,00,
2000315,000000A8,false,Rx,0,8,09,0B,21,E0,21,1F,0F,04,
2000540,000000A9,false,Rx,0,8,F4,0B,79,DF,1D,C7,E0,21,
2000774,000000BA,false,Rx,0,7,03,FF,0F,00,00,58,8B,00,
2003625,000001B4,false,Rx,0,8,00,D0,E2,FC,44,32,FE,DB,
2006905,000000B6,false,Rx,0,5,03,03,80,00,C8,00,00,00,
2006910,000000C4,false,Rx,0,7,42,08,FC,00,00,FF,F1,00,
2007319,000000CE,false,Rx,0,8,00,00,00,00,00,00,00,00,
2007545,0000019E,false,Rx,0,8,00,E8,3F,FC,FE,00,00,C3,
2007776,000001A0,false,Rx,0,8,00,80,00,60,01,17,30,CA,
2008008,000002B2,false,Rx,0,8,00,00,00,00,50,00,00,04,
2010119,000000AA,false,Rx,0,8,62,58,07,00,B8,0B,94,00,
2011868,000000A8,false,Rx,0,8,0A,0C,21,E0,21,1F,0F,04,
2011875,000000A9,false,Rx,0,8,F5,0C,79,DF,1D,C7,E0,21,
2011880,000000BA,false,Rx,0,7,03,FF,0F,00,00,59,8C,00,
2016898,000000C4,false,Rx,0,7,42,08,FC,00,00,FF,F1,00,
2019947,000000AA,false,Rx,0,8,64,5A,07,00,B8,0B,94,00,
2020358,000000A8,false,Rx,0,8,0B,0D,21,E0,21,1F,0F,04,
2020583,000000A9,false,Rx,0,8,F6,0D,79,DF,1D,C7,E0,21,
2020821,000000BA,false,Rx,0,7,03,FF,0F,00,00,5A,8D,00,
2026913,000000B6,false,Rx,0,5,04,04,80,00,C8,00,00,00,
2026918,000000C4,false,Rx,0,7,42,08,FC,00,00,FF,F1,00,
2027328,000000CE,false,Rx,0,8,00,00,00,00,00,00,00,00,
2027553,0000019E,false,Rx,0,8,00,E8,3F,FC,FE,00,00,C3,
2027794,000001A0,false,Rx,0,8,00,80,00,60,01,17,40,DA,
2028018,000002B2,false,Rx,0,8,00,00,00,00,50,00,00,04,
2028243,00000130,false,Rx,0,5,45,43,21,8F,55,00,00,00,
2029981,000000AA,false,Rx,0,8,66,5C,07,00,B8,0B,94,00,
2030206,000000A8,false,Rx,0,8,0C,0E,21,E0,21,1F,0F,04,
2032332,000000A9,false,Rx,0,8,F7,0E,79,DF,1D,C7,E0,21,
2032339,000000BA,false,Rx,0,7,03,FF,0F,00,00,5B,8E,00,
2037015,000000C4,false,Rx,0,7,42,08,FC,00,00,FF,F1,00,
2037021,00000194,false,Rx,0,4,EF,FE,00,F0,00,00,00,00,
2037245,000001D6,false,Rx,0,2,FF,F3,00,00,00,00,00,00,
2040109,000000AA,false,Rx,0,8,5A,50,07,00,B8,0B,94,00,
2040334,000000A8,false,Rx,0,8,FD,00,21,E0,21,1F,0F,04,
2040559,000000A9,false,Rx,0,8,E9,00,79,DF,1D,C7,E0,21,
2040798,000000BA,false,Rx,0,7,03,FF,0F,00,00,4D,80,00,
2046854,000000B6,false,Rx,0,5,05,05,80,00,C8,00,00,00,
2047078,000000C4,false,Rx,0,7,42,08,FC,00,00,FF,F1,00,
2047303,000000CE,false,Rx,0,8,00,00,00,00,00,00,00,00,
2047716,0000019E,false,Rx,0,8,00,E8,3F,FC,FE,00,00,C3,
2047948,000001A0,false,Rx,0,8,00,80,00,60,01,17,50,EA,
2048173,000002B2,false,Rx,0,8,00,00,00,00,50,00,00,04,
2049341,000001FB,false,Rx,0,2,F0,FF,00,00,00,00,00,00,
2049946,000000AA,false,Rx,0,8,5C,52,07,00,B8,0B,94,00,
2050357,000000A8,false,Rx,0,8,FE,01,21,E0,21,1F,0F,04,
2052076,000000A9,false,Rx,0,8,EA,01,79,DF,1D,C7,E0,21,
2052083,000000BA,false,Rx,0,7,03,FF,0F,00,00,4E,81,00,
2056927,000000C4,false,Rx,0,7,42,08,FC,00,00,FF,F1,00,
2059975,000000AA,false,Rx,0,8,5E,54,07,00,B8,0B,94,00,
2060200,000000A8,false,Rx,0,8,FF,02,21,E0,21,1F,0F,04,
2060425,000000A9,false,Rx,0,8,EB,02,79,DF,1D,C7,E0,21,
2060653,000000BA,false,Rx,0,7,03,FF,0F,00,00,4F,82,00,
2066903,000000B6,false,Rx,0,5,06,06,80,00,C8,00,00,00,
2067128,000000C4,false,Rx,0,7,42,08,FC,00,00,FF,F1,00,
2067353,000000CE,false,Rx,0,8,00,00,00,00,00,00,00,00,
2067578,0000019E,false,Rx,0,8,00,E8,3F,FC,FE,00,00,C3,
2067817,000001A0,false,Rx,0,8,00,80,00,60,01,17,60,FA,
2068043,000002B2,false,Rx,0,8,00,00,00,00,50,00,00,04,
2068268,000005A9,false,Rx,0,8,40,32,00,21,FF,FF,FF,FF,
2070007,000000AA,false,Rx,0,8,60,56,07,00,B8,0B,94,00,
2070232,000000A8,false,Rx,0,8,00,03,21,E0,21,1F,0F,04,
2070457,000000A9,false,Rx,0,8,EC,03,79,DF,1D,C7,E0,21,
2072131,000000BA,false,Rx,0,7,03,FF,0F,00,00,50,83,00,
2074545,000001D0,false,Rx,0,8,3C,76,6C,C3,9C,9E,CD,82,
2076867,000000C4,false,Rx,0,7,42,08,FC,00,00,FF,F1,00,
2080102,000000AA,false,Rx,0,8,62,58,07,00,B8,0B,94,00,
2080327,000000A8,false,Rx,0,8,02,04,21,E0,21,1F,0F,04,
2080553,000000A9,false,Rx,0,8,ED,04,79,DF,1D,C7,E0,21,
2080790,000000BA,false,Rx,0,7,03,FF,0F,00,00,51,84,00,
2086847,000000B6,false,Rx,0,5,07,07,80,00,C8,00,00,00,
2087072,000000C4,false,Rx,0,7,42,08,FC,00,00,FF,F1,00,
2087297,000000CE,false,Rx,0,8,00,00,00,00,00,00,00,00,
2087521,0000019E,false,Rx,0,8,00,E8,3F,FC,FE,00,00,C3,
2087749,000001A0,false,Rx,0,8,00,80,00,40,01,17,70,EA,
2087982,000002B2,false,Rx,0,8,00,00,00,00,50,00,00,04,
2088207,000001A6,false,Rx,0,8,00,00,00,00,00,00,A0,FD,
2090126,000000AA,false,Rx,0,8,64,5A,07,00,B8,0B,94,00,
2090351,000000A8,false,Rx,0,8,03,05,21,E0,21,1F,0F,04,
2090576,000000A9,false,Rx,0,8,EE,05,79,DF,1D,C7,E0,21,
2092245,000000BA,false,Rx,0,7,03,FF,0F,00,00,52,85,00,
2093083,00000497,false,Rx,0,8,29,42,FF,FF,FF,FF,FF,FF,
2096956,000000C4,false,Rx,0,7,42,08,FC,00,00,FF,F1,00,
2100010,000000AA,false,Rx,0,8,66,5C,07,00,B8,0B,94,00,
2100235,000000A8,false,Rx,0,8,04,06,21,E0,21,1F,0F,04,
2100461,000000A9,false,Rx,0,8,EF,06,79,DF,1D,C7,E0,21,
2100694,000000BA,false,Rx,0,7,03,FF,0F,00,00,53,86,00,
2103551,000001B4,false,Rx,0,8,00,D0,E2,FD,44,32,FE,DC,
2106803,000000B6,false,Rx,0,5,08,08,80,00,C8,00,00,00,
2107028,000000C4,false,Rx,0,7,42,08,FC,00,00,FF,F1,00,
2107252,000000CE,false,Rx,0,8,00,00,00,00,00,00,00,00,
2107478,0000019E,false,Rx,0,8,00,E8,4F,FC,FE,00,00,D3,
2107704,000001A0,false,Rx,0,8,00,80,00,40,01,17,80,FA,
2107937,000002B2,false,Rx,0,8,00,00,00,00,50,00,00,04,
2110045,000000AA,false,Rx,0,8,68,5E,07,00,B8,0B,94,00,
2110270,000000A8,false,Rx,0,8,05,07,21,E0,21,1F,0F,04,
2110495,000000A9,false,Rx,0,8,F0,07,79,DF,1D,C7,E0,21,
2110723,000000BA,false,Rx,0,7,03,FF,0F,00,00,54,87,00,
2116824,000000C4,false,Rx,0,7,42,08,FC,00,00,FF,F1,00,
2120059,000000AA,false,Rx,0,8,5A,50,07,00,B8,0B,94,00,
2120285,000000A8,false,Rx,0,8,06,08,21,E0,21,1F,0F,04,
2120510,000000A9,false,Rx,0,8,F1,08,79,DF,1D,C7,E0,21,
2120743,000000BA,false,Rx,0,7,03,FF,0F,00,00,55,88,00,
2126815,000000B6,false,Rx,0,5,09,09,80,00,C8,00,00,00,
2127040,000000C4,false,Rx,0,7,42,08,FC,00,00,FF,F1,00,
2127265,000000CE,false,Rx,0,8,00,00,00,00,00,00,00,00,
2127490,0000019E,false,Rx,0,8,00,E8,4F,FC,FE,00,00,D3,
2127717,000001A0,false,Rx,0,8,00,80,00,60,01,14,90,28,
2127950,000002B2,false,Rx,0,8,00,00,00,00,50,00,00,04,
2128175,00000130,false,Rx,0,5,45,43,21,8F,76,00,00,00,
2129999,000000AA,false,Rx,0,8,5C,52,07,00,B8,0B,94,00,
2130238,000000A8,false,Rx,0,8,07,09,21,E0,21,1F,0F,04,
2130472,000000A9,false,Rx,0,8,F2,09,79,DF,1D,C7,E0,21,
2130700,000000BA,false,Rx,0,7,03,FF,0F,00,00,56,89,00,
2132351,000001D2,false,Rx,0,5,E1,0C,8F,60,F0,00,00,00,
2136840,000000C4,false,Rx,0,7,42,08,FC,00,00,FF,F1,00,
2137073,000001D6,false,Rx,0,2,FF,F3,00,00,00,00,00,00,
2140118,000000AA,false,Rx,0,8,5E,54,07,00,B8,0B,94,00,
2140343,000000A8,false,Rx,0,8,08,0A,21,E0,21,1F,0F,04,
2140573,000000A9,false,Rx,0,8,F3,0A,79,DF,1D,C7,E0,21,
2140815,000000BA,false,Rx,0,7,03,FF,0F,00,00,57,8A,00,
2146872,000000B6,false,Rx,0,5,0A,0A,80,00,C8,00,00,00,
2147097,000000C4,false,Rx,0,7,42,08,FC,00,00,FF,F1,00,
2147322,000000CE,false,Rx,0,8,00,00,00,00,00,00,00,00,
2147547,0000019E,false,Rx,0,8,00,E8,4F,FC,FE,00,00,D3,
2147786,000001A0,false,Rx,0,8,00,80,00,60,01,17,A0,3B,
2148011,000002B2,false,Rx,0,8,00,00,00,00,50,00,00,04,
2150118,000000AA,false,Rx,0,8,60,56,07,00,B8,0B,94,00,
2150344,000000A8,false,Rx,0,8,09,0B,21,E0,21,1F,0F,04,
2150569,000000A9,false,Rx,0,8,F4,0B,79,DF,1D,C7,E0,21,
2150809,000000BA,false,Rx,0,7,03,FF,0F,00,00,58,8B,00,
2156944,000000C4,false,Rx,0,7,42,08,FC,00,00,FF,F1,00,
2159994,000000AA,false,Rx,0,8,62,58,07,00,B8,0B,94,00,
2160219,000000A8,false,Rx,0,8,0A,0C,21,E0,21,1F,0F,04,
2160444,000000A9,false,Rx,0,8,F5,0C,79,DF,1D,C7,E0,21,
2160677,000000BA,false,Rx,0,7,03,FF,0F,00,00,59,8C,00,
2166933,000000B6,false,Rx,0,5,0B,0B,80,00,C8,00,00,00,
2167158,000000C4,false,Rx,0,7,42,08,FC,00,00,FF,F1,00,
2167383,000000CE,false,Rx,0,8,00,00,00,00,00,00,00,00,
2167608,0000019E,false,Rx,0,8,00,E8,4F,FC,FE,00,00,D3,
2167849,000001A0,false,Rx,0,8,00,80,00,40,01,17,B0,2B,
2168074,000002B2,false,Rx,0,8,00,00,00,00,50,00,00,04,
2168299,000000C8,false,Rx,0,6,38,08,2C,00,00,0C,00,00,
2170034,000000AA,false,Rx,0,8,64,5A,07,00,B8,0B,94,00,
2170259,000000A8,false,Rx,0,8,0B,0D,21,E0,21,1F,0F,04,
2170484,000000A9,false,Rx,0,8,F6,0D,79,DF,1D,C7,E0,21,
2170712,000000BA,false,Rx,0,7,03,FF,0F,00,00,5A,8D,00,
2174511,000001D0,false,Rx,0,8,3C,76,6D,C3,9C,9E,CD,82,
2176821,000000C4,false,Rx,0,7,42,08,FC,00,00,FF,F1,00,
2180059,000000AA,false,Rx,0,8,66,5C,07,00,B8,0B,94,00,
2180284,000000A8,false,Rx,0,8,0C,0E,21,E0,21,1F,0F,04,
2180509,000000A9,false,Rx,0,8,F7,0E,79,DF,1D,C7,E0,21,
2180743,000000BA,false,Rx,0,7,03,FF,0F,00,00,5B,8E,00,
2186815,000000B6,false,Rx,0,5,0C,0C,80,00,C8,00,00,00,
2187040,000000C4,false,Rx,0,7,42,08,FC,00,00,FF,F1,00,
2187265,000000CE,false,Rx,0,8,00,00,00,00,00,00,00,00,
2187490,0000019E,false,Rx,0,8,00,E8,4F,FC,FE,00,00,D3,
2187723,000001A0,false,Rx,0,8,00,80,00,40,01,17,C0,3B,
2187955,000002B2,false,Rx,0,8,00,00,00,00,50,00,00,04,
2188180,000001A6,false,Rx,0,8,00,00,00,00,00,00,30,FF,
2188405,000004A9,false,Rx,0,8,30,42,FF,FF,FF,FF,FF,FF,
2189957,000000AA,false,Rx,0,8,5A,50,07,00,B8,0B,94,00,
2190368,000000A8,false,Rx,0,8,FD,00,21,E0,21,1F,0F,04,
2190593,000000A9,false,Rx,0,8,E9,00,79,DF,1D,C7,E0,21,
2190837,000000BA,false,Rx,0,7,03,FF,0F,00,00,4D,80,00,
2196899,000000C4,false,Rx,0,7,42,08,FC,00,00,FF,F1,00,
2199957,000000AA,false,Rx,0,8,5C,52,07,00,B8,0B,94,00,
2200181,000000A8,false,Rx,0,8,FE,01,21,E0,21,1F,0F,04,
2200592,000000A9,false,Rx,0,8,EA,01,79,DF,1D,C7,E0,21,
2200834,000000BA,false,Rx,0,7,03,FF,0F,00,00,4E,81,00,
2203736,000001B4,false,Rx,0,8,00,D0,E2,FE,44,32,FE,DD,
2206786,000000B6,false,Rx,0,5,0D,0D,80,00,C8,00,00,00,
2207011,000000C4,false,Rx,0,7,42,08,FC,00,00,FF,F1,00,
2207236,000000CE,false,Rx,0,8,00,00,00,00,00,00,00,00,
2207462,0000019E,false,Rx,0,8,00,E8,4F,FC,FE,00,00,D3,
2207694,000001A0,false,Rx,0,8,00,80,00,40,01,17,D0,4B,
2207926,000002B2,false,Rx,0,8,00,00,00,00,50,00,00,04,
2210034,000000AA,false,Rx,0,8,5E,54,07,00,B8,0B,94,00,
2210259,000000A8,false,Rx,0,8,FF,02,21,E0,21,1F,0F,04,
2210484,000000A9,false,Rx,0,8,EB,02,79,DF,1D,C7,E0,21,
2210712,000000BA,false,Rx,0,7,03,FF,0F,00,00,4F,82,00,
2216849,000000C4,false,Rx,0,7,42,08,FC,00,00,FF,F1,00,
2220084,000000AA,false,Rx,0,8,60,56,07,00,B8,0B,94,00,
2220309,000000A8,false,Rx,0,8,00,03,21,E0,21,1F,0F,04,
2220534,000000A9,false,Rx,0,8,EC,03,79,DF,1D,C7,E0,21,
2220767,000000BA,false,Rx,0,7,03,FF,0F,00,00,50,83,00,
2226822,000000B6,false,Rx,0,5,0E,0E,80,00,C8,00,00,00,
2227046,000000C4,false,Rx,0,7,42,08,FC,00,00,FF,F1,00,
2227271,000000CE,false,Rx,0,8,00,00,00,00,00,00,00,00,
2227497,0000019E,false,Rx,0,8,00,E8,4F,FC,FE,00,00,D3,
2227726,000001A0,false,Rx,0,8,00,80,00,40,01,17,E0,5B,
2227957,000002B2,false,Rx,0,8,00,00,00,00,50,00,00,04,
2228182,00000130,false,Rx,0,5,45,43,21,8F,87,00,00,00,
2230107,000000AA,false,Rx,0,8,62,58,07,00,B8,0B,94,00,
2230332,000000A8,false,Rx,0,8,02,04,21,E0,21,1F,0F,04,
2230557,000000A9,false,Rx,0,8,ED,04,79,DF,1D,C7,E0,21,
2230795,000000BA,false,Rx,0,7,03,FF,0F,00,00,51,84,00,
2236908,000000C4,false,Rx,0,7,42,08,FC,00,00,FF,F1,00,
2237183,00000194,false,Rx,0,4,E1,F0,00,F0,00,00,00,00,
2237188,000001D6,false,Rx,0,2,FF,F3,00,00,00,00,00,00,
2237413,000002A6,false,Rx,0,2,00,FC,00,00,00,00,00,00,
2240103,000000AA,false,Rx,0,8,64,5A,07,00,B8,0B,94,00,
2240328,000000A8,false,Rx,0,8,03,05,21,E0,21,1F,0F,04,
2240554,000000A9,false,Rx,0,8,EE,05,79,DF,1D,C7,E0,21,
2240824,000000BA,false,Rx,0,7,03,FF,0F,00,00,52,85,00,
2240829,000001FB,false,Rx,0,2,F1,FF,00,00,00,00,00,00,
2246879,000000B6,false,Rx,0,5,FF,00,80,00,C8,00,00,00,
2247104,000000C4,false,Rx,0,7,42,08,FC,00,00,FF,F1,00,
2247329,000000CE,false,Rx,0,8,00,00,00,00,00,00,00,00,
2247748,0000019E,false,Rx,0,8,00,E8,4F,FC,FE,00,00,D3,
2247979,000001A0,false,Rx,0,8,00,80,00,40,01,17,00,7A,
2248204,000002B2,false,Rx,0,8,00,00,00,00,50,00,00,04,
2250123,000000AA,false,Rx,0,8,66,5C,07,00,B8,0B,94,00,
2250348,000000A8,false,Rx,0,8,04,06,21,E0,21,1F,0F,04,
2250573,000000A9,false,Rx,0,8,EF,06,79,DF,1D,C7,E0,21,
2250814,000000BA,false,Rx,0,7,03,FF,0F,00,00,53,86,00,
2256935,000000C4,false,Rx,0,7,42,08,FC,00,00,FF,F1,00,
2259991,000000AA,false,Rx,0,8,68,5E,07,00,B8,0B,94,00,
2260216,000000A8,false,Rx,0,8,05,07,21,E0,21,1F,0F,04,
2260442,000000A9,false,Rx,0,8,F0,07,79,DF,1D,C7,E0,21,
2260672,000000BA,false,Rx,0,7,03,FF,0F,00,00,54,87,00,
2266924,000000B6,false,Rx,0,5,00,01,80,00,C8,00,00,00,
2267149,000000C4,false,Rx,0,7,42,08,FC,00,00,FF,F1,00,
2267374,000000CE,false,Rx,0,8,00,00,00,00,00,00,00,00,
2267599,0000019E,false,Rx,0,8,00,E8,4F,FC,FE,00,00,D3,
2267841,000001A0,false,Rx,0,8,00,80,00,60,01,17,10,AA,
2268067,000002B2,false,Rx,0,8,00,00,00,00,50,00,00,04,
2269991,000000AA,false,Rx,0,8,5A,50,07,00,B8,0B,94,00,
2270216,000000A8,false,Rx,0,8,06,08,21,E0,21,1F,0F,04,
2270441,000000A9,false,Rx,0,8,F1,08,79,DF,1D,C7,E0,21,
2270672,000000BA,false,Rx,0,7,03,FF,0F,00,00,55,88,00,
2274520,000001D0,false,Rx,0,8,3C,76,6D,C3,9C,9E,CD,82,
2276838,000000C4,false,Rx,0,7,42,08,FC,00,00,FF,F1,00,
2279311,000004B0,false,Rx,0,8,00,42,FE,01,FF,FF,FF,FF,
2280110,000000AA,false,Rx,0,8,5C,52,07,00,B8,0B,94,00,
2280335,000000A8,false,Rx,0,8,07,09,21,E0,21,1F,0F,04,
2280560,000000A9,false,Rx,0,8,F2,09,79,DF,1D,C7,E0,21,
2280798,000000BA,false,Rx,0,7,03,FF,0F,00,00,56,89,00,
2286859,000000B6,false,Rx,0,5,02,02,80,00,C8,00,00,00,
2287084,000000C4,false,Rx,0,7,42,08,FC,00,00,FF,F1,00,
2287309,000000CE,false,Rx,0,8,00,00,00,00,00,00,00,00,
2287535,0000019E,false,Rx,0,8,00,E8,4F,FC,FE,00,00,D3,
2287764,000001A0,false,Rx,0,8,00,80,00,60,01,17,20,BA,
2287996,000002B2,false,Rx,0,8,00,00,00,00,50,00,00,04,
2288222,000001A6,false,Rx,0,8,00,00,00,00,00,00,C0,F0,
2288446,00000374,false,Rx,0,5,00,00,00,00,FC,00,00,00,
2289995,000000AA,false,Rx,0,8,5E,54,07,00,B8,0B,94,00,
2290220,000000A8,false,Rx,0,8,08,0A,21,E0,21,1F,0F,04,
2290446,000000A9,false,Rx,0,8,F3,0A,79,DF,1D,C7,E0,21,
2290676,000000BA,false,Rx,0,7,03,FF,0F,00,00,57,8A,00,
2296751,000000C4,false,Rx,0,7,42,08,FC,00,00,FF,F1,00,
2299993,000000AA,false,Rx,0,8,60,56,07,00,B8,0B,94,00,
2300219,000000A8,false,Rx,0,8,09,0B,21,E0,21,1F,0F,04,
2300444,000000A9,false,Rx,0,8,F4,0B,79,DF,1D,C7,E0,21,
2300677,000000BA,false,Rx,0,7,03,FF,0F,00,00,58,8B,00,
2303352,000001B4,false,Rx,0,8,00,D0,E2,F0,44,32,FE,CF,
2306787,000000B6,false,Rx,0,5,03,03,80,00,C8,00,00,00,
2307012,000000C4,false,Rx,0,7,42,08,FC,00,00,FF,F1,00,
2307237,000000CE,false,Rx,0,8,00,00,00,00,00,00,00,00,
2307463,0000019E,false,Rx,0,8,00,E8,5F,FC,FE,00,00,E3,
2307695,000001A0,false,Rx,0,8,00,80,00,60,01,17,30,CA,
2307927,000002B2,false,Rx,0,8,00,00,00,00,50,00,00,04,
2310034,000000AA,false,Rx,0,8,62,58,07,00,B8,0B,94,00,
2310258,000000A8,false,Rx,0,8,0A,0C,21,E0,21,1F,0F,04,
2310483,000000A9,false,Rx,0,8,F5,0C,79,DF,1D,C7,E0,21,
