Time Stamp,ID,Extended,Dir,Bus,LEN,D1,D2,D3,D4,D5,D6,D7,D8
26598602,000001D0,false,Rx,0,8,3C,77,6D,C3,9C,9E,CD,82,
26601063,000000B6,false,Rx,0,5,FF,00,80,00,C8,00,00,00,
26601308,000000C4,false,Rx,0,7,EF,FD,FC,00,00,FF,F1,00,
26601542,000000CE,false,Rx,0,8,00,00,00,00,00,00,00,00,
26601794,0000019E,false,Rx,0,8,00,E0,DF,FC,FE,00,00,5C,
26602014,000001A0,false,Rx,0,8,00,80,00,F0,FF,00,00,13,
26602244,000002B2,false,Rx,0,8,00,00,00,00,50,00,00,04,
26603918,000000AA,false,Rx,0,8,5B,51,07,00,B8,0B,94,00,
26604327,000000A8,false,Rx,0,8,FE,01,21,E0,21,1F,0F,04,
26604547,000000A9,false,Rx,0,8,EA,01,79,DF,1D,C7,E0,21,
26604768,000000BA,false,Rx,0,7,08,FF,0F,00,00,53,81,00,
26611007,000000C4,false,Rx,0,7,EF,FD,FC,00,00,FF,F1,00,
26611238,000001D6,false,Rx,0,2,FF,F3,00,00,00,00,00,00,
26614006,000000AA,false,Rx,0,8,5C,52,07,00,B8,0B,94,00,
26614238,000000A8,false,Rx,0,8,FF,02,21,E0,21,1F,0F,04,
26614458,000000A9,false,Rx,0,8,EB,02,79,DF,1D,C7,E0,21,
26614678,000000BA,false,Rx,0,7,08,FF,0F,00,00,54,82,00,
26621129,000000B6,false,Rx,0,5,00,01,80,00,C8,00,00,00,
26621382,000000C4,false,Rx,0,7,EF,FD,FC,00,00,FF,F1,00,
26621617,000000CE,false,Rx,0,8,00,00,00,00,00,00,00,00,
26621838,0000019E,false,Rx,0,8,00,E0,EF,FC,FE,00,00,6C,
26622058,000001A0,false,Rx,0,8,00,80,00,D0,FF,00,10,02,
26622288,000002B2,false,Rx,0,8,00,00,00,00,50,00,00,04,
26623964,000000AA,false,Rx,0,8,5D,53,07,00,B8,0B,94,00,
26624186,000000A8,false,Rx,0,8,00,03,21,E0,21,1F,0F,04,
26624413,000000A9,false,Rx,0,8,EC,03,79,DF,1D,C7,E0,21,
26624634,000000BA,false,Rx,0,7,08,FF,0F,00,00,55,83,00,
26631061,000000C4,false,Rx,0,7,EF,FD,FC,00,00,FF,F1,00,
26634022,000000AA,false,Rx,0,8,5E,54,07,00,B8,0B,94,00,
26634252,000000A8,false,Rx,0,8,02,04,21,E0,21,1F,0F,04,
26634473,000000A9,false,Rx,0,8,ED,04,79,DF,1D,C7,E0,21,
26634693,000000BA,false,Rx,0,7,08,FF,0F,00,00,56,84,00,
26641094,000000B6,false,Rx,0,5,02,02,80,00,C8,00,00,00,
26641325,000000C4,false,Rx,0,7,EF,FD,FC,00,00,FF,F1,00,
26641545,000000CE,false,Rx,0,8,00,00,00,00,00,00,00,00,
26641771,0000019E,false,Rx,0,8,00,E0,EF,FC,FE,00,00,6C,
26642000,000001A0,false,Rx,0,8,00,80,00,F0,FF,00,20,33,
26642222,000002B2,false,Rx,0,8,00,00,00,00,50,00,00,04,
26643952,000000AA,false,Rx,0,8,5F,55,07,00,B8,0B,94,00,
26644174,000000A8,false,Rx,0,8,03,05,21,E0,21,1F,0F,04,
26644402,000000A9,false,Rx,0,8,EE,05,79,DF,1D,C7,E0,21,
26644622,000000BA,false,Rx,0,7,08,FF,0F,00,00,57,85,00,
26651067,000000C4,false,Rx,0,7,EF,FD,FC,00,00,FF,F1,00,
26654050,000000AA,false,Rx,0,8,60,56,07,00,B8,0B,94,00,
26654281,000000A8,false,Rx,0,8,04,06,21,E0,21,1F,0F,04,
26654502,000000A9,false,Rx,0,8,EF,06,79,DF,1D,C7,E0,21,
26654722,000000BA,false,Rx,0,7,08,FF,0F,00,00,58,86,00,
26661041,000000B6,false,Rx,0,5,03,03,80,00,C8,00,00,00,
26661272,000000C4,false,Rx,0,7,EF,FD,FC,00,00,FF,F1,00,
26661492,000000CE,false,Rx,0,8,00,00,00,00,00,00,00,00,
26661713,0000019E,false,Rx,0,8,00,E0,EF,FC,FE,00,00,6C,
26661934,000001A0,false,Rx,0,8,00,80,00,F0,FF,03,30,46,
26662155,000002B2,false,Rx,0,8,00,00,00,00,50,00,00,04,
26662383,000001A6,false,Rx,0,8,74,05,D8,02,34,08,00,F5,
26662784,000004A9,false,Rx,0,8,30,42,FF,FF,FF,FF,FF,FF,
26663915,000000AA,false,Rx,0,8,61,57,07,00,B8,0B,94,00,
26664324,000000A8,false,Rx,0,8,05,07,21,E0,21,1F,0F,04,
26664544,000000A9,false,Rx,0,8,F0,07,79,DF,1D,C7,E0,21,
26664765,000000BA,false,Rx,0,7,08,FF,0F,00,00,59,87,00,
26669734,00000130,false,Rx,0,5,45,43,21,8F,DC,00,00,00,
26670866,000001B4,false,Rx,0,8,00,D0,E2,F8,00,32,FE,93,
26671090,000000C4,false,Rx,0,7,EF,FD,FC,00,00,FF,F1,00,
26674048,000000AA,false,Rx,0,8,62,58,07,00,B8,0B,94,00,
26674279,000000A8,false,Rx,0,8,06,08,21,E0,21,1F,0F,04,
26674499,000000A9,false,Rx,0,8,F1,08,79,DF,1D,C7,E0,21,
26674719,000000BA,false,Rx,0,7,08,FF,0F,00,00,5A,88,00,
30881,000001B5,false,Rx,0,6,00,FF,02,10,8A,FF,00,00,
33037,000000B6,false,Rx,0,5,04,04,80,00,C8,00,00,00,
33267,000000C4,false,Rx,0,7,EF,FD,FC,00,00,FF,F1,00,
33487,000000CE,false,Rx,0,8,00,00,00,00,00,00,00,00,
33708,0000019E,false,Rx,0,8,00,E0,EF,FC,FE,00,00,6C,
33928,000001A0,false,Rx,0,8,00,80,00,F0,FF,00,40,53,
34153,000002B2,false,Rx,0,8,00,00,00,00,50,00,00,04,
36016,000000AA,false,Rx,0,8,63,59,07,00,B8,0B,94,00,
36248,000000A8,false,Rx,0,8,07,09,21,E0,21,1F,0F,04,
36467,000000A9,false,Rx,0,8,F2,09,79,DF,1D,C7,E0,21,
36687,000000BA,false,Rx,0,7,08,FF,0F,00,00,5B,89,00,
43112,000000C4,false,Rx,0,7,EF,FD,FC,00,00,FF,F1,00,
46072,000000AA,false,Rx,0,8,64,5A,07,00,B8,0B,94,00,
46302,000000A8,false,Rx,0,8,08,0A,21,E0,21,1F,0F,04,
46523,000000A9,false,Rx,0,8,F3,0A,79,DF,1D,C7,E0,21,
46743,000000BA,false,Rx,0,7,08,FF,0F,00,00,5C,8A,00,
50990,000001D0,false,Rx,0,8,3C,77,6E,C3,9C,9E,CD,82,
53067,000000B6,false,Rx,0,5,05,05,80,00,C8,00,00,00,
53300,000000C4,false,Rx,0,7,EF,FD,FC,00,00,FF,F1,00,
53520,000000CE,false,Rx,0,8,00,00,00,00,00,00,00,00,
53740,0000019E,false,Rx,0,8,00,E0,EF,FC,FE,00,00,6C,
53960,000001A0,false,Rx,0,8,00,80,00,F0,FF,00,50,63,
54182,000002B2,false,Rx,0,8,00,00,00,00,50,00,00,04,
56047,000000AA,false,Rx,0,8,65,5B,07,00,B8,0B,94,00,
56282,000000A8,false,Rx,0,8,09,0B,21,E0,21,1F,0F,04,
56511,000000A9,false,Rx,0,8,F4,0B,79,DF,1D,C7,E0,21,
56746,000000BA,false,Rx,0,7,08,FF,0F,00,00,5D,8B,00,
62665,00000335,false,Rx,0,8,00,EC,10,00,00,9B,00,00,
63067,000000C4,false,Rx,0,7,EF,FD,FC,00,00,FF,F1,00,
63330,00000194,false,Rx,0,4,E9,F8,00,F0,00,00,00,00,
63335,000001D6,false,Rx,0,2,FF,F3,00,00,00,00,00,00,
65928,000000AA,false,Rx,0,8,66,5C,07,00,B8,0B,94,00,
66150,000000A8,false,Rx,0,8,0A,0C,21,E0,21,1F,0F,04,
66376,000000A9,false,Rx,0,8,F5,0C,79,DF,1D,C7,E0,21,
66597,000000BA,false,Rx,0,7,08,FF,0F,00,00,5E,8C,00,
73004,000000B6,false,Rx,0,5,06,06,80,00,C8,00,00,00,
73254,000000C4,false,Rx,0,7,EF,FD,FC,00,00,FF,F1,00,
73487,000000CE,false,Rx,0,8,00,00,00,00,00,00,00,00,
73707,0000019E,false,Rx,0,8,00,E0,EF,FC,FE,00,00,6C,
74112,000001A0,false,Rx,0,8,00,80,00,D0,FF,00,60,53,
74338,000002B2,false,Rx,0,8,00,00,00,00,50,00,00,04,
76014,000000AA,false,Rx,0,8,67,5D,07,00,B8,0B,94,00,
76244,000000A8,false,Rx,0,8,0B,0D,21,E0,21,1F,0F,04,
76464,000000A9,false,Rx,0,8,F6,0D,79,DF,1D,C7,E0,21,
76684,000000BA,false,Rx,0,7,08,FF,0F,00,00,5F,8D,00,
83145,000000C4,false,Rx,0,7,EF,FD,FC,00,00,FF,F1,00,
83150,000001FB,false,Rx,0,2,FC,FF,00,00,00,00,00,00,
85927,000000AA,false,Rx,0,8,68,5E,07,00,B8,0B,94,00,
86148,000000A8,false,Rx,0,8,0C,0E,21,E0,21,1F,0F,04,
86557,000000A9,false,Rx,0,8,F7,0E,79,DF,1D,C7,E0,21,
86777,000000BA,false,Rx,0,7,08,FF,0F,00,00,60,8E,00,
93072,000000B6,false,Rx,0,5,07,07,80,00,C8,00,00,00,
93305,000000C4,false,Rx,0,7,EF,FD,FC,00,00,FF,F1,00,
93526,000000CE,false,Rx,0,8,00,00,00,00,00,00,00,00,
93746,0000019E,false,Rx,0,8,00,E0,EF,FC,FE,00,00,6C,
93967,000001A0,false,Rx,0,8,00,80,00,00,00,00,70,92,
94377,000002B2,false,Rx,0,8,00,00,00,00,50,00,00,04,
96052,000000AA,false,Rx,0,8,5A,50,07,00,B8,0B,94,00,
96281,000000A8,false,Rx,0,8,FD,00,21,E0,21,1F,0F,04,
96502,000000A9,false,Rx,0,8,E9,00,79,DF,1D,C7,E0,21,
96721,000000BA,false,Rx,0,7,08,FF,0F,00,00,52,80,00,
103158,000000C4,false,Rx,0,7,EF,FD,FC,00,00,FF,F1,00,
105935,000000AA,false,Rx,0,8,5B,51,07,00,B8,0B,94,00,
106155,000000A8,false,Rx,0,8,FE,01,21,E0,21,1F,0F,04,
106382,000000A9,false,Rx,0,8,EA,01,79,DF,1D,C7,E0,21,
106603,000000BA,false,Rx,0,7,08,FF,0F,00,00,53,81,00,
106823,000001D2,false,Rx,0,5,78,0C,8F,B0,F0,00,00,00,
112282,000004B0,false,Rx,0,8,00,42,FE,01,FF,FF,FF,FF,
113133,000000B6,false,Rx,0,5,08,08,80,00,C8,00,00,00,
113359,000000C4,false,Rx,0,7,EF,FD,FC,00,00,FF,F1,00,
113579,000000CE,false,Rx,0,8,00,00,00,00,00,00,00,00,
113800,0000019E,false,Rx,0,8,00,E0,EF,FC,FE,00,00,6C,
114019,000001A0,false,Rx,0,8,00,80,00,F0,FF,00,80,93,
114248,000002B2,false,Rx,0,8,00,00,00,00,50,00,00,04,
114469,000001A6,false,Rx,0,8,74,05,D8,02,34,08,90,F6,
115964,000000AA,false,Rx,0,8,5C,52,07,00,B8,0B,94,00,
116185,000000A8,false,Rx,0,8,FF,02,21,E0,21,1F,0F,04,
116413,000000A9,false,Rx,0,8,EB,02,79,DF,1D,C7,E0,21,
116633,000000BA,false,Rx,0,7,08,FF,0F,00,00,54,82,00,
121782,00000130,false,Rx,0,5,45,43,21,8F,ED,00,00,00,
123098,000000C4,false,Rx,0,7,EF,FD,FC,00,00,FF,F1,00,
123324,000000C8,false,Rx,0,6,F1,FD,CC,00,00,5C,00,00,
123544,000001B4,false,Rx,0,8,00,D0,E2,F9,00,32,FE,94,
125953,000000AA,false,Rx,0,8,5D,53,07,00,B8,0B,94,00,
126174,000000A8,false,Rx,0,8,00,03,21,E0,21,1F,0F,04,
126402,000000A9,false,Rx,0,8,EC,03,79,DF,1D,C7,E0,21,
126622,000000BA,false,Rx,0,7,08,FF,0F,00,00,55,83,00,
133015,000000B6,false,Rx,0,5,09,09,80,00,C8,00,00,00,
133268,000000C4,false,Rx,0,7,EF,FD,FC,00,00,FF,F1,00,
133516,000000CE,false,Rx,0,8,00,00,00,00,00,00,00,00,
133737,0000019E,false,Rx,0,8,00,E0,EF,FC,FE,00,00,6C,
133957,000001A0,false,Rx,0,8,00,80,00,F0,FF,00,90,A3,
134179,000002B2,false,Rx,0,8,00,00,00,00,50,00,00,04,
136043,000000AA,false,Rx,0,8,5E,54,07,00,B8,0B,94,00,
136272,000000A8,false,Rx,0,8,02,04,21,E0,21,1F,0F,04,
136493,000000A9,false,Rx,0,8,ED,04,79,DF,1D,C7,E0,21,
136713,000000BA,false,Rx,0,7,08,FF,0F,00,00,56,84,00,
143139,000000C4,false,Rx,0,7,EF,FD,FC,00,00,FF,F1,00,
145917,000000AA,false,Rx,0,8,5F,55,07,00,B8,0B,94,00,
146327,000000A8,false,Rx,0,8,03,05,21,E0,21,1F,0F,04,
146547,000000A9,false,Rx,0,8,EE,05,79,DF,1D,C7,E0,21,
146767,000000BA,false,Rx,0,7,08,FF,0F,00,00,57,85,00,
151670,000001D0,false,Rx,0,8,3C,77,6E,C3,9C,9E,CD,82,
153086,000000B6,false,Rx,0,5,0A,0A,80,00,C8,00,00,00,
153315,000000C4,false,Rx,0,7,EF,FD,FC,00,00,FF,F1,00,
153535,000000CE,false,Rx,0,8,00,00,00,00,00,00,00,00,
153756,0000019E,false,Rx,0,8,00,E0,EF,FC,FE,00,00,6C,
153976,000001A0,false,Rx,0,8,00,80,00,F0,FF,00,A0,B3,
154199,000002B2,false,Rx,0,8,00,00,00,00,50,00,00,04,
156063,000000AA,false,Rx,0,8,60,56,07,00,B8,0B,94,00,
156292,000000A8,false,Rx,0,8,04,06,21,E0,21,1F,0F,04,
156512,000000A9,false,Rx,0,8,EF,06,79,DF,1D,C7,E0,21,
156732,000000BA,false,Rx,0,7,08,FF,0F,00,00,58,86,00,
163196,000000C4,false,Rx,0,7,EF,FD,FC,00,00,FF,F1,00,
163202,000001D6,false,Rx,0,2,FF,F3,00,00,00,00,00,00,
165979,000000AA,false,Rx,0,8,61,57,07,00,B8,0B,94,00,
166203,000000A8,false,Rx,0,8,05,07,21,E0,21,1F,0F,04,
166430,000000A9,false,Rx,0,8,F0,07,79,DF,1D,C7,E0,21,
166651,000000BA,false,Rx,0,7,08,FF,0F,00,00,59,87,00,
173034,000000B6,false,Rx,0,5,0B,0B,80,00,C8,00,00,00,
173263,000000C4,false,Rx,0,7,EF,FD,FC,00,00,FF,F1,00,
173688,000000CE,false,Rx,0,8,00,00,00,00,00,00,00,00,
173936,0000019E,false,Rx,0,8,00,E0,0F,FC,FE,00,00,8B,
174157,000001A0,false,Rx,0,8,00,80,00,00,00,00,B0,D2,
174384,000002B2,false,Rx,0,8,00,00,00,00,50,00,00,04,
176061,000000AA,false,Rx,0,8,62,58,07,00,B8,0B,94,00,
176293,000000A8,false,Rx,0,8,06,08,21,E0,21,1F,0F,04,
176513,000000A9,false,Rx,0,8,F1,08,79,DF,1D,C7,E0,21,
176733,000000BA,false,Rx,0,7,08,FF,0F,00,00,5A,88,00,
181886,000002FC,false,Rx,0,7,81,00,00,FF,FF,FF,FF,00,
183203,000000C4,false,Rx,0,7,EF,FD,FC,00,00,FF,F1,00,
185979,000000AA,false,Rx,0,8,63,59,07,00,B8,0B,94,00,
186203,000000A8,false,Rx,0,8,07,09,21,E0,21,1F,0F,04,
186431,000000A9,false,Rx,0,8,F2,09,79,DF,1D,C7,E0,21,
186652,000000BA,false,Rx,0,7,08,FF,0F,00,00,5B,89,00,
193118,000000B6,false,Rx,0,5,0C,0C,80,00,C8,00,00,00,
193343,000000C4,false,Rx,0,7,EF,FD,FC,00,00,FF,F1,00,
193564,000000CE,false,Rx,0,8,00,00,00,00,00,00,00,00,
193784,0000019E,false,Rx,0,8,00,E0,0F,FC,FE,00,00,8B,
194005,000001A0,false,Rx,0,8,00,80,00,D0,FF,03,C0,B6,
194414,000002B2,false,Rx,0,8,00,00,00,00,50,00,00,04,
195908,000000AA,false,Rx,0,8,64,5A,07,00,B8,0B,94,00,
196320,000000A8,false,Rx,0,8,08,0A,21,E0,21,1F,0F,04,
196541,000000A9,false,Rx,0,8,F3,0A,79,DF,1D,C7,E0,21,
196761,000000BA,false,Rx,0,7,08,FF,0F,00,00,5C,8A,00,
197712,00000480,false,Rx,0,8,17,42,FD,FF,FF,FF,FF,FF,
203254,000000C4,false,Rx,0,7,EF,FD,FC,00,00,FF,F1,00,
206026,000000AA,false,Rx,0,8,65,5B,07,00,B8,0B,94,00,
206255,000000A8,false,Rx,0,8,09,0B,21,E0,21,1F,0F,04,
206475,000000A9,false,Rx,0,8,F4,0B,79,DF,1D,C7,E0,21,
206696,000000BA,false,Rx,0,7,08,FF,0F,00,00,5D,8B,00,
213122,000000B6,false,Rx,0,5,0D,0D,80,00,C8,00,00,00,
213370,000000C4,false,Rx,0,7,EF,FD,FC,00,00,FF,F1,00,
213634,000000CE,false,Rx,0,8,00,00,00,00,00,00,00,00,
213879,0000019E,false,Rx,0,8,00,E0,0F,FC,FE,00,00,8B,
214188,000001A0,false,Rx,0,8,00,80,00,F0,FF,00,D0,E3,
214193,000002B2,false,Rx,0,8,00,00,00,00,50,00,00,04,
214428,000001A6,false,Rx,0,8,74,05,D8,02,34,08,20,F8,
215937,000000AA,false,Rx,0,8,66,5C,07,00,B8,0B,94,00,
216160,000000A8,false,Rx,0,8,0A,0C,21,E0,21,1F,0F,04,
216387,000000A9,false,Rx,0,8,F5,0C,79,DF,1D,C7,E0,21,
216606,000000BA,false,Rx,0,7,08,FF,0F,00,00,5E,8C,00,
221754,00000130,false,Rx,0,5,45,43,21,8F,FE,00,00,00,
222887,000001B4,false,Rx,0,8,00,D0,E2,FA,00,32,FE,95,
223112,000000C4,false,Rx,0,7,EF,FD,FC,00,00,FF,F1,00,
226072,000000AA,false,Rx,0,8,67,5D,07,00,B8,0B,94,00,
226302,000000A8,false,Rx,0,8,0B,0D,21,E0,21,1F,0F,04,
226522,000000A9,false,Rx,0,8,F6,0D,79,DF,1D,C7,E0,21,
226742,000000BA,false,Rx,0,7,08,FF,0F,00,00,5F,8D,00,
232982,000000B6,false,Rx,0,5,0E,0E,80,00,C8,00,00,00,
233213,000000C4,false,Rx,0,7,EF,FD,FC,00,00,FF,F1,00,
233448,000000CE,false,Rx,0,8,00,00,00,00,00,00,00,00,
233679,0000019E,false,Rx,0,8,00,E0,0F,FC,FE,00,00,8B,
234084,000001A0,false,Rx,0,8,00,80,00,F0,FF,03,E0,F6,
234323,000002B2,false,Rx,0,8,00,00,00,00,50,00,00,04,
236083,000000AA,false,Rx,0,8,68,5E,07,00,B8,0B,94,00,
236311,000000A8,false,Rx,0,8,0C,0E,21,E0,21,1F,0F,04,
236531,000000A9,false,Rx,0,8,F7,0E,79,DF,1D,C7,E0,21,
236751,000000BA,false,Rx,0,7,08,FF,0F,00,00,60,8E,00,
242998,000000C4,false,Rx,0,7,EF,FD,FC,00,00,FF,F1,00,
245961,000000AA,false,Rx,0,8,5A,50,07,00,B8,0B,94,00,
246183,000000A8,false,Rx,0,8,FD,00,21,E0,21,1F,0F,04,
246410,000000A9,false,Rx,0,8,E9,00,79,DF,1D,C7,E0,21,
246631,000000BA,false,Rx,0,7,08,FF,0F,00,00,52,80,00,
251921,000001D0,false,Rx,0,8,3C,77,60,C3,9C,9E,CD,82,
253077,000000B6,false,Rx,0,5,FF,00,80,00,C8,00,00,00,
253306,000000C4,false,Rx,0,7,EF,FD,FC,00,00,FF,F1,00,
253526,000000CE,false,Rx,0,8,00,00,00,00,00,00,00,00,
253752,0000019E,false,Rx,0,8,00,E0,0F,FC,FE,00,00,8B,
253972,000001A0,false,Rx,0,8,00,80,00,F0,FF,00,00,13,
254194,000002B2,false,Rx,0,8,00,00,00,00,50,00,00,04,
255910,000000AA,false,Rx,0,8,5B,51,07,00,B8,0B,94,00,
256320,000000A8,false,Rx,0,8,FE,01,21,E0,21,1F,0F,04,
256551,000000A9,false,Rx,0,8,EA,01,79,DF,1D,C7,E0,21,
256784,000000BA,false,Rx,0,7,08,FF,0F,00,00,53,81,00,
263072,000000C4,false,Rx,0,7,EF,FD,FC,00,00,FF,F1,00,
263336,00000194,false,Rx,0,4,EA,F9,00,F0,00,00,00,00,
263341,000001D6,false,Rx,0,2,FF,F3,00,00,00,00,00,00,
265930,000000AA,false,Rx,0,8,5C,52,07,00,B8,0B,94,00,
266152,000000A8,false,Rx,0,8,FF,02,21,E0,21,1F,0F,04,
266380,000000A9,false,Rx,0,8,EB,02,79,DF,1D,C7,E0,21,
266600,000000BA,false,Rx,0,7,08,FF,0F,00,00,54,82,00,
273179,000000B6,false,Rx,0,5,00,01,80,00,C8,00,00,00,
273438,000000C4,false,Rx,0,7,EF,FD,FC,00,00,FF,F1,00,
273673,000000CE,false,Rx,0,8,00,00,00,00,00,00,00,00,
273894,0000019E,false,Rx,0,8,00,E0,0F,FC,FE,00,00,8B,
274150,000001A0,false,Rx,0,8,00,80,00,F0,FF,03,10,26,
274156,000001FB,false,Rx,0,2,FD,FF,00,00,00,00,00,00,
274382,000002B2,false,Rx,0,8,00,00,00,00,50,00,00,04,
276061,000000AA,false,Rx,0,8,5D,53,07,00,B8,0B,94,00,
276291,000000A8,false,Rx,0,8,00,03,21,E0,21,1F,0F,04,
276512,000000A9,false,Rx,0,8,EC,03,79,DF,1D,C7,E0,21,
276732,000000BA,false,Rx,0,7,08,FF,0F,00,00,55,83,00,
283163,000000C4,false,Rx,0,7,EF,FD,FC,00,00,FF,F1,00,
285939,000000AA,false,Rx,0,8,5E,54,07,00,B8,0B,94,00,
286163,000000A8,false,Rx,0,8,02,04,21,E0,21,1F,0F,04,
286390,000000A9,false,Rx,0,8,ED,04,79,DF,1D,C7,E0,21,
286611,000000BA,false,Rx,0,7,08,FF,0F,00,00,56,84,00,
289755,00000310,false,Rx,0,7,54,52,5C,83,01,81,23,00,
293034,000000B6,false,Rx,0,5,02,02,80,00,C8,00,00,00,
293266,000000C4,false,Rx,0,7,EF,FD,FC,00,00,FF,F1,00,
293678,000000CE,false,Rx,0,8,00,00,00,00,00,00,00,00,
293902,0000019E,false,Rx,0,8,00,E0,0F,FC,FE,00,00,8B,
294131,000001A0,false,Rx,0,8,00,80,00,F0,FF,03,20,36,
294399,000002B2,false,Rx,0,8,00,00,00,00,50,00,00,04,
296013,000000AA,false,Rx,0,8,5F,55,07,00,B8,0B,94,00,
296244,000000A8,false,Rx,0,8,03,05,21,E0,21,1F,0F,04,
296464,000000A9,false,Rx,0,8,EE,05,79,DF,1D,C7,E0,21,
296684,000000BA,false,Rx,0,7,08,FF,0F,00,00,57,85,00,
297637,00000497,false,Rx,0,8,29,42,FF,FF,FF,FF,FF,FF,
303158,000000C4,false,Rx,0,7,EF,FD,FC,00,00,FF,F1,00,
305935,000000AA,false,Rx,0,8,60,56,07,00,B8,0B,94,00,
306157,000000A8,false,Rx,0,8,04,06,21,E0,21,1F,0F,04,
306385,000000A9,false,Rx,0,8,EF,06,79,DF,1D,C7,E0,21,
306605,000000BA,false,Rx,0,7,08,FF,0F,00,00,58,86,00,
306826,000001D2,false,Rx,0,5,78,0C,8F,C0,F0,00,00,00,
313072,000000B6,false,Rx,0,5,03,03,80,00,C8,00,00,00,
313305,000000C4,false,Rx,0,7,EF,FD,FC,00,00,FF,F1,00,
313526,000000CE,false,Rx,0,8,00,00,00,00,00,00,00,00,
313746,0000019E,false,Rx,0,8,00,E0,0F,FC,FE,00,00,8B,
313967,000001A0,false,Rx,0,8,00,80,00,F0,FF,00,30,43,
314189,000002B2,false,Rx,0,8,00,00,00,00,50,00,00,04,
314417,000001A6,false,Rx,0,8,74,05,D8,02,34,08,B0,F9,
315943,000000AA,false,Rx,0,8,61,57,07,00,B8,0B,94,00,
316177,000000A8,false,Rx,0,8,05,07,21,E0,21,1F,0F,04,
316404,000000A9,false,Rx,0,8,F0,07,79,DF,1D,C7,E0,21,
316625,000000BA,false,Rx,0,7,08,FF,0F,00,00,59,87,00,
317661,000003B5,false,Rx,0,2,A0,FF,00,00,00,00,00,00,
321900,00000130,false,Rx,0,5,45,43,21,8F,00,00,00,00,
323036,000000C4,false,Rx,0,7,EF,FD,FC,00,00,FF,F1,00,
323259,000000C8,false,Rx,0,6,F1,FD,2C,00,00,5C,00,00,
323478,000001B4,false,Rx,0,8,00,D0,E2,FB,00,32,FE,96,
326072,000000AA,false,Rx,0,8,62,58,07,00,B8,0B,94,00,
326303,000000A8,false,Rx,0,8,06,08,21,E0,21,1F,0F,04,
326523,000000A9,false,Rx,0,8,F1,08,79,DF,1D,C7,E0,21,
326743,000000BA,false,Rx,0,7,08,FF,0F,00,00,5A,88,00,
332970,000000B6,false,Rx,0,5,04,04,80,00,C8,00,00,00,
333197,000000C4,false,Rx,0,7,EF,FD,FC,00,00,FF,F1,00,
333606,000000CE,false,Rx,0,8,00,00,00,00,00,00,00,00,
333841,0000019E,false,Rx,0,8,00,E0,0F,FC,FE,00,00,8B,
334066,000001A0,false,Rx,0,8,00,80,00,F0,FF,00,40,53,
334307,000002B2,false,Rx,0,8,00,00,00,00,50,00,00,04,
336066,000000AA,false,Rx,0,8,63,59,07,00,B8,0B,94,00,
336297,000000A8,false,Rx,0,8,07,09,21,E0,21,1F,0F,04,
336516,000000A9,false,Rx,0,8,F2,09,79,DF,1D,C7,E0,21,
336737,000000BA,false,Rx,0,7,08,FF,0F,00,00,5B,89,00,
343171,000000C4,false,Rx,0,7,EF,FD,FC,00,00,FF,F1,00,
345949,000000AA,false,Rx,0,8,64,5A,07,00,B8,0B,94,00,
346170,000000A8,false,Rx,0,8,08,0A,21,E0,21,1F,0F,04,
346398,000000A9,false,Rx,0,8,F3,0A,79,DF,1D,C7,E0,21,
346618,000000BA,false,Rx,0,7,08,FF,0F,00,00,5C,8A,00,
350493,000001D0,false,Rx,0,8,3C,77,60,C3,9C,9E,CD,82,
353048,000000B6,false,Rx,0,5,05,05,80,00,C8,00,00,00,
353283,000000C4,false,Rx,0,7,EF,FD,FC,00,00,FF,F1,00,
353518,000000CE,false,Rx,0,8,00,00,00,00,00,00,00,00,
353755,0000019E,false,Rx,0,8,00,E0,0F,FC,FE,00,00,8B,
353985,000001A0,false,Rx,0,8,00,80,00,F0,FF,00,50,63,
354218,000002B2,false,Rx,0,8,00,00,00,00,50,00,00,04,
356083,000000AA,false,Rx,0,8,65,5B,07,00,B8,0B,94,00,
356310,000000A8,false,Rx,0,8,09,0B,21,E0,21,1F,0F,04,
356531,000000A9,false,Rx,0,8,F4,0B,79,DF,1D,C7,E0,21,
356751,000000BA,false,Rx,0,7,08,FF,0F,00,00,5D,8B,00,
363085,000000C4,false,Rx,0,7,EF,FD,FC,00,00,FF,F1,00,
363312,000001D6,false,Rx,0,2,FF,F3,00,00,00,00,00,00,
365918,000000AA,false,Rx,0,8,66,5C,07,00,B8,0B,94,00,
366327,000000A8,false,Rx,0,8,0A,0C,21,E0,21,1F,0F,04,
366547,000000A9,false,Rx,0,8,F5,0C,79,DF,1D,C7,E0,21,
366768,000000BA,false,Rx,0,7,08,FF,0F,00,00,5E,8C,00,
373145,000000B6,false,Rx,0,5,06,06,80,00,C8,00,00,00,
373388,000000C4,false,Rx,0,7,EF,FD,FC,00,00,FF,F1,00,
373609,000000CE,false,Rx,0,8,00,00,00,00,00,00,00,00,
373829,0000019E,false,Rx,0,8,00,E0,0F,FC,FE,00,00,8B,
374050,000001A0,false,Rx,0,8,00,80,00,F0,FF,00,60,73,
374281,000002B2,false,Rx,0,8,00,00,00,00,50,00,00,04,
376047,000000AA,false,Rx,0,8,67,5D,07,00,B8,0B,94,00,
376278,000000A8,false,Rx,0,8,0B,0D,21,E0,21,1F,0F,04,
376499,000000A9,false,Rx,0,8,F6,0D,79,DF,1D,C7,E0,21,
376718,000000BA,false,Rx,0,7,08,FF,0F,00,00,5F,8D,00,
383143,000000C4,false,Rx,0,7,EF,FD,FC,00,00,FF,F1,00,
385920,000000AA,false,Rx,0,8,68,5E,07,00,B8,0B,94,00,
386329,000000A8,false,Rx,0,8,0C,0E,21,E0,21,1F,0F,04,
386549,000000A9,false,Rx,0,8,F7,0E,79,DF,1D,C7,E0,21,
386770,000000BA,false,Rx,0,7,08,FF,0F,00,00,60,8E,00,
393171,000000B6,false,Rx,0,5,07,07,80,00,C8,00,00,00,
393401,000000C4,false,Rx,0,7,EF,FD,FC,00,00,FF,F1,00,
393621,000000CE,false,Rx,0,8,00,00,00,00,00,00,00,00,
393845,0000019E,false,Rx,0,8,00,E0,1F,FC,FE,00,00,9B,
394074,000001A0,false,Rx,0,8,00,80,00,00,00,00,70,92,
394315,000002B2,false,Rx,0,8,00,00,00,00,50,00,00,04,
394544,000004A9,false,Rx,0,8,30,42,FF,FF,FF,FF,FF,FF,
396080,000000AA,false,Rx,0,8,5A,50,07,00,B8,0B,94,00,
396307,000000A8,false,Rx,0,8,FD,00,21,E0,21,1F,0F,04,
396527,000000A9,false,Rx,0,8,E9,00,79,DF,1D,C7,E0,21,
396748,000000BA,false,Rx,0,7,08,FF,0F,00,00,52,80,00,
403196,000000C4,false,Rx,0,7,EF,FD,FC,00,00,FF,F1,00,
405976,000000AA,false,Rx,0,8,5B,51,07,00,B8,0B,94,00,
406200,000000A8,false,Rx,0,8,FE,01,21,E0,21,1F,0F,04,
406428,000000A9,false,Rx,0,8,EA,01,79,DF,1D,C7,E0,21,
406649,000000BA,false,Rx,0,7,08,FF,0F,00,00,53,81,00,
413043,000000B6,false,Rx,0,5,08,08,80,00,C8,00,00,00,
413277,000000C4,false,Rx,0,7,EF,FD,FC,00,00,FF,F1,00,
413497,000000CE,false,Rx,0,8,00,00,00,00,00,00,00,00,
413728,0000019E,false,Rx,0,8,00,E0,1F,FC,FE,00,00,9B,
413963,000001A0,false,Rx,0,8,00,80,00,F0,FF,00,80,93,
414216,000002B2,false,Rx,0,8,00,00,00,00,50,00,00,04,
414455,000001A6,false,Rx,0,8,74,05,D8,02,34,08,40,FB,
415971,000000AA,false,Rx,0,8,5C,52,07,00,B8,0B,94,00,
416193,000000A8,false,Rx,0,8,FF,02,21,E0,21,1F,0F,04,
416421,000000A9,false,Rx,0,8,EB,02,79,DF,1D,C7,E0,21,
416643,000000BA,false,Rx,0,7,08,FF,0F,00,00,54,82,00,
421618,00000130,false,Rx,0,5,45,43,21,8F,11,00,00,00,
422932,000001B4,false,Rx,0,8,00,D0,E2,FC,00,32,FE,97,
423154,000000C4,false,Rx,0,7,EF,FD,FC,00,00,FF,F1,00,
425933,000000AA,false,Rx,0,8,5D,53,07,00,B8,0B,94,00,
426154,000000A8,false,Rx,0,8,00,03,21,E0,21,1F,0F,04,
426380,000000A9,false,Rx,0,8,EC,03,79,DF,1D,C7,E0,21,
426601,000000BA,false,Rx,0,7,08,FF,0F,00,00,55,83,00,
433035,000000B6,false,Rx,0,5,09,09,80,00,C8,00,00,00,
433284,000000C4,false,Rx,0,7,EF,FD,FC,00,00,FF,F1,00,
433504,000000CE,false,Rx,0,8,00,00,00,00,00,00,00,00,
433723,0000019E,false,Rx,0,8,00,E0,1F,FC,FE,00,00,9B,
434138,000001A0,false,Rx,0,8,00,80,00,00,00,00,90,B2,
434383,000002B2,false,Rx,0,8,00,00,00,00,50,00,00,04,
436079,000000AA,false,Rx,0,8,5E,54,07,00,B8,0B,94,00,
436306,000000A8,false,Rx,0,8,02,04,21,E0,21,1F,0F,04,
436527,000000A9,false,Rx,0,8,ED,04,79,DF,1D,C7,E0,21,
436747,000000BA,false,Rx,0,7,08,FF,0F,00,00,56,84,00,
443177,000000C4,false,Rx,0,7,EF,FD,FC,00,00,FF,F1,00,
445956,000000AA,false,Rx,0,8,5F,55,07,00,B8,0B,94,00,
446178,000000A8,false,Rx,0,8,03,05,21,E0,21,1F,0F,04,
446404,000000A9,false,Rx,0,8,EE,05,79,DF,1D,C7,E0,21,
446624,000000BA,false,Rx,0,7,08,FF,0F,00,00,57,85,00,
450497,000001D0,false,Rx,0,8,3C,77,61,C3,9C,9E,CD,82,
453027,000000B6,false,Rx,0,5,0A,0A,80,00,C8,00,00,00,
453262,000000C4,false,Rx,0,7,EF,FD,FC,00,00,FF,F1,00,
453483,000000CE,false,Rx,0,8,00,00,00,00,00,00,00,00,
453703,0000019E,false,Rx,0,8,00,E0,1F,FC,FE,00,00,9B,
454105,000001A0,false,Rx,0,8,00,80,00,F0,FF,00,A0,B3,
454332,000002B2,false,Rx,0,8,00,00,00,00,50,00,00,04,
456007,000000AA,false,Rx,0,8,60,56,07,00,B8,0B,94,00,
456238,000000A8,false,Rx,0,8,04,06,21,E0,21,1F,0F,04,
456463,000000A9,false,Rx,0,8,EF,06,79,DF,1D,C7,E0,21,
456689,000000BA,false,Rx,0,7,08,FF,0F,00,00,58,86,00,
463174,000000C4,false,Rx,0,7,EF,FD,FC,00,00,FF,F1,00,
463434,00000194,false,Rx,0,4,EB,FA,00,F0,00,00,00,00,
463439,000001FB,false,Rx,0,2,FE,FF,00,00,00,00,00,00,
463658,000001D6,false,Rx,0,2,FF,F3,00,00,00,00,00,00,
466067,000000AA,false,Rx,0,8,61,57,07,00,B8,0B,94,00,
466297,000000A8,false,Rx,0,8,05,07,21,E0,21,1F,0F,04,
466517,000000A9,false,Rx,0,8,F0,07,79,DF,1D,C7,E0,21,
466737,000000BA,false,Rx,0,7,08,FF,0F,00,00,59,87,00,
473106,000000B6,false,Rx,0,5,0B,0B,80,00,C8,00,00,00,
473354,000000C4,false,Rx,0,7,EF,FD,FC,00,00,FF,F1,00,
473575,000000CE,false,Rx,0,8,00,00,00,00,00,00,00,00,
473798,0000019E,false,Rx,0,8,00,E0,1F,FC,FE,00,00,9B,
474027,000001A0,false,Rx,0,8,00,80,00,F0,FF,00,B0,C3,
474283,000002B2,false,Rx,0,8,00,00,00,00,50,00,00,04,
475971,000000AA,false,Rx,0,8,62,58,07,00,B8,0B,94,00,
476193,000000A8,false,Rx,0,8,06,08,21,E0,21,1F,0F,04,
476421,000000A9,false,Rx,0,8,F1,08,79,DF,1D,C7,E0,21,
476641,000000BA,false,Rx,0,7,08,FF,0F,00,00,5A,88,00,
483072,000000C4,false,Rx,0,7,EF,FD,FC,00,00,FF,F1,00,
486031,000000AA,false,Rx,0,8,63,59,07,00,B8,0B,94,00,
486261,000000A8,false,Rx,0,8,07,09,21,E0,21,1F,0F,04,
486482,000000A9,false,Rx,0,8,F2,09,79,DF,1D,C7,E0,21,
486702,000000BA,false,Rx,0,7,08,FF,0F,00,00,5B,89,00,
493128,000004B0,false,Rx,0,8,00,42,FE,01,FF,FF,FF,FF,
493135,000000B6,false,Rx,0,5,0C,0C,80,00,C8,00,00,00,
493379,000000C4,false,Rx,0,7,EF,FD,FC,00,00,FF,F1,00,
493609,000000CE,false,Rx,0,8,00,00,00,00,00,00,00,00,
493830,0000019E,false,Rx,0,8,00,E0,1F,FC,FE,00,00,9B,
494050,000001A0,false,Rx,0,8,00,80,00,F0,FF,00,C0,D3,
494462,000002B2,false,Rx,0,8,00,00,00,00,50,00,00,04,
495993,000000AA,false,Rx,0,8,64,5A,07,00,B8,0B,94,00,
496221,000000A8,false,Rx,0,8,08,0A,21,E0,21,1F,0F,04,
496468,000000A9,false,Rx,0,8,F3,0A,79,DF,1D,C7,E0,21,
496736,000000BA,false,Rx,0,7,08,FF,0F,00,00,5C,8A,00,
503177,000000C4,false,Rx,0,7,EF,FD,FC,00,00,FF,F1,00,
505956,000000AA,false,Rx,0,8,65,5B,07,00,B8,0B,94,00,
506178,000000A8,false,Rx,0,8,09,0B,21,E0,21,1F,0F,04,
506405,000000A9,false,Rx,0,8,F4,0B,79,DF,1D,C7,E0,21,
506625,000000BA,false,Rx,0,7,08,FF,0F,00,00,5D,8B,00,
506845,000001D2,false,Rx,0,5,78,0C,8F,D0,F0,00,00,00,
513244,000000B6,false,Rx,0,5,0D,0D,80,00,C8,00,00,00,
513251,000000C4,false,Rx,0,7,EF,FD,FC,00,00,FF,F1,00,
513479,000000CE,false,Rx,0,8,00,00,00,00,00,00,00,00,
513700,0000019E,false,Rx,0,8,00,E0,1F,FC,FE,00,00,9B,
513921,000001A0,false,Rx,0,8,00,80,00,00,00,03,D0,F5,
514143,000002B2,false,Rx,0,8,00,00,00,00,50,00,00,04,
514369,000001A6,false,Rx,0,8,74,05,D8,02,34,08,D0,FC,
516063,000000AA,false,Rx,0,8,66,5C,07,00,B8,0B,94,00,
516292,000000A8,false,Rx,0,8,0A,0C,21,E0,21,1F,0F,04,
516513,000000A9,false,Rx,0,8,F5,0C,79,DF,1D,C7,E0,21,
516733,000000BA,false,Rx,0,7,08,FF,0F,00,00,5E,8C,00,
521994,00000130,false,Rx,0,5,45,43,21,8F,22,00,00,00,
523131,000000C4,false,Rx,0,7,EF,FD,FC,00,00,FF,F1,00,
523349,000000C8,false,Rx,0,6,F1,FD,7C,00,00,5C,00,00,
523577,000001B4,false,Rx,0,8,00,D0,E2,FD,00,32,FE,98,
525991,000000AA,false,Rx,0,8,67,5D,07,00,B8,0B,94,00,
526215,000000A8,false,Rx,0,8,0B,0D,21,E0,21,1F,0F,04,
526443,000000A9,false,Rx,0,8,F6,0D,79,DF,1D,C7,E0,21,
526662,000000BA,false,Rx,0,7,08,FF,0F,00,00,5F,8D,00,
533441,000000B6,false,Rx,0,5,0E,0E,80,00,C8,00,00,00,
533447,000000C4,false,Rx,0,7,EF,FD,FC,00,00,FF,F1,00,
533452,000000CE,false,Rx,0,8,00,00,00,00,00,00,00,00,
533687,0000019E,false,Rx,0,8,00,E0,1F,FC,FE,00,00,9B,
534098,000001A0,false,Rx,0,8,00,80,00,F0,FF,00,E0,F3,
534326,000002B2,false,Rx,0,8,00,00,00,00,50,00,00,04,
536037,000000AA,false,Rx,0,8,68,5E,07,00,B8,0B,94,00,
536281,000000A8,false,Rx,0,8,0C,0E,21,E0,21,1F,0F,04,
536513,000000A9,false,Rx,0,8,F7,0E,79,DF,1D,C7,E0,21,
536746,000000BA,false,Rx,0,7,08,FF,0F,00,00,60,8E,00,
543108,000000C4,false,Rx,0,7,EF,FD,FC,00,00,FF,F1,00,
546066,000000AA,false,Rx,0,8,5A,50,07,00,B8,0B,94,00,
546297,000000A8,false,Rx,0,8,FD,00,21,E0,21,1F,0F,04,
546517,000000A9,false,Rx,0,8,E9,00,79,DF,1D,C7,E0,21,
546737,000000BA,false,Rx,0,7,08,FF,0F,00,00,52,80,00,
550614,000001D0,false,Rx,0,8,3C,77,61,C3,9C,9E,CD,82,
553528,000000B6,false,Rx,0,5,FF,00,80,00,C8,00,00,00,
553534,000000C4,false,Rx,0,7,EF,FD,FC,00,00,FF,F1,00,
553539,000000CE,false,Rx,0,8,00,00,00,00,00,00,00,00,
553781,0000019E,false,Rx,0,8,00,E0,1F,FC,FE,00,00,9B,
554002,000001A0,false,Rx,0,8,00,80,00,F0,FF,00,00,13,
554232,000002B2,false,Rx,0,8,00,00,00,00,50,00,00,04,
555944,000000AA,false,Rx,0,8,5B,51,07,00,B8,0B,94,00,
556173,000000A8,false,Rx,0,8,FE,01,21,E0,21,1F,0F,04,
556425,000000A9,false,Rx,0,8,EA,01,79,DF,1D,C7,E0,21,
556666,000000BA,false,Rx,0,7,08,FF,0F,00,00,53,81,00,
563146,000000C4,false,Rx,0,7,EF,FD,FC,00,00,FF,F1,00,
563151,000001D6,false,Rx,0,2,FF,F3,00,00,00,00,00,00,
565930,000000AA,false,Rx,0,8,5C,52,07,00,B8,0B,94,00,
566153,000000A8,false,Rx,0,8,FF,02,21,E0,21,1F,0F,04,
566379,000000A9,false,Rx,0,8,EB,02,79,DF,1D,C7,E0,21,
566599,000000BA,false,Rx,0,7,08,FF,0F,00,00,54,82,00,
573700,000000B6,false,Rx,0,5,00,01,80,00,C8,00,00,00,
573741,000000C4,false,Rx,0,7,EF,FD,FC,00,00,FF,F1,00,
573746,000000CE,false,Rx,0,8,00,00,00,00,00,00,00,00,
573751,0000019E,false,Rx,0,8,00,E0,1F,FC,FE,00,00,9B,
573994,000001A0,false,Rx,0,8,00,80,00,F0,FF,00,10,23,
574406,000002B2,false,Rx,0,8,00,00,00,00,50,00,00,04,
576082,000000AA,false,Rx,0,8,5D,53,07,00,B8,0B,94,00,
576310,000000A8,false,Rx,0,8,00,03,21,E0,21,1F,0F,04,
576531,000000A9,false,Rx,0,8,EC,03,79,DF,1D,C7,E0,21,
576751,000000BA,false,Rx,0,7,08,FF,0F,00,00,55,83,00,
577897,00000480,false,Rx,0,8,17,42,FD,FF,FF,FF,FF,FF,
583075,000000C4,false,Rx,0,7,EF,FD,FC,00,00,FF,F1,00,
585930,000000AA,false,Rx,0,8,5E,54,07,00,B8,0B,94,00,
586152,000000A8,false,Rx,0,8,02,04,21,E0,21,1F,0F,04,
586380,000000A9,false,Rx,0,8,ED,04,79,DF,1D,C7,E0,21,
586599,000000BA,false,Rx,0,7,08,FF,0F,00,00,56,84,00,
593861,000000B6,false,Rx,0,5,02,02,80,00,C8,00,00,00,
593867,000000C4,false,Rx,0,7,EF,FD,FC,00,00,FF,F1,00,
593872,000000CE,false,Rx,0,8,00,00,00,00,00,00,00,00,
593877,0000019E,false,Rx,0,8,00,E0,2F,FC,FE,00,00,AB,
594106,000001A0,false,Rx,0,8,00,80,00,F0,FF,03,20,36,
594334,000002B2,false,Rx,0,8,00,00,00,00,50,00,00,04,
596025,000000AA,false,Rx,0,8,5F,55,07,00,B8,0B,94,00,
596256,000000A8,false,Rx,0,8,03,05,21,E0,21,1F,0F,04,
596476,000000A9,false,Rx,0,8,EE,05,79,DF,1D,C7,E0,21,
596697,000000BA,false,Rx,0,7,08,FF,0F,00,00,57,85,00,
603211,000000C4,false,Rx,0,7,EF,FD,FC,00,00,FF,F1,00,
605987,000000AA,false,Rx,0,8,60,56,07,00,B8,0B,94,00,
606212,000000A8,false,Rx,0,8,04,06,21,E0,21,1F,0F,04,
606439,000000A9,false,Rx,0,8,EF,06,79,DF,1D,C7,E0,21,
606660,000000BA,false,Rx,0,7,08,FF,0F,00,00,58,86,00,
613983,000000B6,false,Rx,0,5,03,03,80,00,C8,00,00,00,
613989,000000C4,false,Rx,0,7,EF,FD,FC,00,00,FF,F1,00,
613995,000000CE,false,Rx,0,8,00,00,00,00,00,00,00,00,
614000,0000019E,false,Rx,0,8,00,E0,2F,FC,FE,00,00,AB,
614005,000001A0,false,Rx,0,8,00,80,00,D0,FF,00,30,23,
614255,000002B2,false,Rx,0,8,00,00,00,00,50,00,00,04,
614477,000001A6,false,Rx,0,8,74,05,D8,02,34,08,60,FE,
615998,000000AA,false,Rx,0,8,61,57,07,00,B8,0B,94,00,
616222,000000A8,false,Rx,0,8,05,07,21,E0,21,1F,0F,04,
616450,000000A9,false,Rx,0,8,F0,07,79,DF,1D,C7,E0,21,
616674,000000BA,false,Rx,0,7,08,FF,0F,00,00,59,87,00,
621539,00000130,false,Rx,0,5,45,43,21,8F,33,00,00,00,
622866,000001B4,false,Rx,0,8,00,D0,E2,FE,00,32,FE,99,
623090,000000C4,false,Rx,0,7,EF,FD,FC,00,00,FF,F1,00,
626049,000000AA,false,Rx,0,8,62,58,07,00,B8,0B,94,00,
626278,000000A8,false,Rx,0,8,06,08,21,E0,21,1F,0F,04,
626498,000000A9,false,Rx,0,8,F1,08,79,DF,1D,C7,E0,21,
626718,000000BA,false,Rx,0,7,08,FF,0F,00,00,5A,88,00,
634028,000000B6,false,Rx,0,5,04,04,80,00,C8,00,00,00,
634034,000000C4,false,Rx,0,7,EF,FD,FC,00,00,FF,F1,00,
634039,000000CE,false,Rx,0,8,00,00,00,00,00,00,00,00,
634045,0000019E,false,Rx,0,8,00,E0,2F,FC,FE,00,00,AB,
634050,000001A0,false,Rx,0,8,00,80,00,D0,FF,00,40,33,
634294,000002B2,false,Rx,0,8,00,00,00,00,50,00,00,04,
635999,000000AA,false,Rx,0,8,63,59,07,00,B8,0B,94,00,
636222,000000A8,false,Rx,0,8,07,09,21,E0,21,1F,0F,04,
636450,000000A9,false,Rx,0,8,F2,09,79,DF,1D,C7,E0,21,
636681,000000BA,false,Rx,0,7,08,FF,0F,00,00,5B,89,00,
643139,000000C4,false,Rx,0,7,EF,FD,FC,00,00,FF,F1,00,
645915,000000AA,false,Rx,0,8,64,5A,07,00,B8,0B,94,00,
646324,000000A8,false,Rx,0,8,08,0A,21,E0,21,1F,0F,04,
646545,000000A9,false,Rx,0,8,F3,0A,79,DF,1D,C7,E0,21,
646583,000000BA,false,Rx,0,7,08,FF,0F,00,00,5C,8A,00,
650461,000001D0,false,Rx,0,8,3C,77,62,C3,9C,9E,CD,82,
652324,000001FB,false,Rx,0,2,F0,FF,00,00,00,00,00,00,
654197,000000B6,false,Rx,0,5,05,05,80,00,C8,00,00,00,
654203,000000C4,false,Rx,0,7,EF,FD,FC,00,00,FF,F1,00,
654208,000000CE,false,Rx,0,8,00,00,00,00,00,00,00,00,
654214,0000019E,false,Rx,0,8,00,E0,2F,FC,FE,00,00,AB,
654219,000001A0,false,Rx,0,8,00,80,00,00,00,00,50,72,
654231,000002B2,false,Rx,0,8,00,00,00,00,50,00,00,04,
655943,000000AA,false,Rx,0,8,65,5B,07,00,B8,0B,94,00,
656165,000000A8,false,Rx,0,8,09,0B,21,E0,21,1F,0F,04,
656393,000000A9,false,Rx,0,8,F4,0B,79,DF,1D,C7,E0,21,
656613,000000BA,false,Rx,0,7,08,FF,0F,00,00,5D,8B,00,
658480,000003B0,false,Rx,0,2,FD,FF,00,00,00,00,00,00,
663141,000000C4,false,Rx,0,7,EF,FD,FC,00,00,FF,F1,00,
663453,00000194,false,Rx,0,4,EC,FB,00,F0,00,00,00,00,
663458,000001D6,false,Rx,0,2,FF,F3,00,00,00,00,00,00,
663677,000002A6,false,Rx,0,2,00,FC,00,00,00,00,00,00,
665903,000000AA,false,Rx,0,8,66,5C,07,00,B8,0B,94,00,
666313,000000A8,false,Rx,0,8,0A,0C,21,E0,21,1F,0F,04,
666533,000000A9,false,Rx,0,8,F5,0C,79,DF,1D,C7,E0,21,
666753,000000BA,false,Rx,0,7,08,FF,0F,00,00,5E,8C,00,
674310,000000B6,false,Rx,0,5,06,06,80,00,C8,00,00,00,
674317,000000C4,false,Rx,0,7,EF,FD,FC,00,00,FF,F1,00,
674322,000000CE,false,Rx,0,8,00,00,00,00,00,00,00,00,
674327,0000019E,false,Rx,0,8,00,E0,2F,FC,FE,00,00,AB,
674333,000001A0,false,Rx,0,8,00,80,00,F0,FF,00,60,73,
674338,000002B2,false,Rx,0,8,00,00,00,00,50,00,00,04,
676036,000000AA,false,Rx,0,8,67,5D,07,00,B8,0B,94,00,
676267,000000A8,false,Rx,0,8,0B,0D,21,E0,21,1F,0F,04,
676488,000000A9,false,Rx,0,8,F6,0D,79,DF,1D,C7,E0,21,
676713,000000BA,false,Rx,0,7,08,FF,0F,00,00,5F,8D,00,
677522,00000497,false,Rx,0,8,29,42,FF,FF,FF,FF,FF,FF,
683219,000000C4,false,Rx,0,7,EF,FD,FC,00,00,FF,F1,00,
685995,000000AA,false,Rx,0,8,68,5E,07,00,B8,0B,94,00,
686219,000000A8,false,Rx,0,8,0C,0E,21,E0,21,1F,0F,04,
686445,000000A9,false,Rx,0,8,F7,0E,79,DF,1D,C7,E0,21,
686665,000000BA,false,Rx,0,7,08,FF,0F,00,00,60,8E,00,
694349,000000B6,false,Rx,0,5,07,07,80,00,C8,00,00,00,
694355,000000C4,false,Rx,0,7,EF,FD,FC,00,00,FF,F1,00,
694360,000000CE,false,Rx,0,8,00,00,00,00,00,00,00,00,
694365,0000019E,false,Rx,0,8,00,E0,2F,FC,FE,00,00,AB,
694371,000001A0,false,Rx,0,8,00,80,00,F0,FF,00,70,83,
694376,000002B2,false,Rx,0,8,00,00,00,00,50,00,00,04,
695902,000000AA,false,Rx,0,8,5A,50,07,00,B8,0B,94,00,
696320,000000A8,false,Rx,0,8,FD,00,21,E0,21,1F,0F,04,
696540,000000A9,false,Rx,0,8,E9,00,79,DF,1D,C7,E0,21,
696761,000000BA,false,Rx,0,7,08,FF,0F,00,00,52,80,00,
703254,000000C4,false,Rx,0,7,EF,FD,FC,00,00,FF,F1,00,
706028,000000AA,false,Rx,0,8,5B,51,07,00,B8,0B,94,00,
706256,000000A8,false,Rx,0,8,FE,01,21,E0,21,1F,0F,04,
706476,000000A9,false,Rx,0,8,EA,01,79,DF,1D,C7,E0,21,
706696,000000BA,false,Rx,0,7,08,FF,0F,00,00,53,81,00,
706916,000001D2,false,Rx,0,5,78,0C,8F,E0,F0,00,00,00,
714488,000000B6,false,Rx,0,5,08,08,80,00,C8,00,00,00,
714494,000000C4,false,Rx,0,7,EF,FD,FC,00,00,FF,F1,00,
714499,000000CE,false,Rx,0,8,00,00,00,00,00,00,00,00,
714505,0000019E,false,Rx,0,8,00,E0,2F,FC,FE,00,00,AB,
714510,000001A0,false,Rx,0,8,00,80,00,D0,FF,00,80,73,
714515,000002B2,false,Rx,0,8,00,00,00,00,50,00,00,04,
714521,000001A6,false,Rx,0,8,74,05,D8,02,34,08,F0,FF,
714748,00000374,false,Rx,0,5,00,FB,00,FC,FD,00,00,00,
716063,000000AA,false,Rx,0,8,5C,52,07,00,B8,0B,94,00,
716292,000000A8,false,Rx,0,8,FF,02,21,E0,21,1F,0F,04,
716513,000000A9,false,Rx,0,8,EB,02,79,DF,1D,C7,E0,21,
716743,000000BA,false,Rx,0,7,08,FF,0F,00,00,54,82,00,
721538,00000130,false,Rx,0,5,45,43,21,8F,44,00,00,00,
723249,000000C4,false,Rx,0,7,EF,FD,FC,00,00,FF,F1,00,
723469,000000C8,false,Rx,0,6,F1,FD,CC,00,00,5C,00,00,
723689,000001B4,false,Rx,0,8,00,D0,E2,F0,00,32,FE,8B,
725950,000000AA,false,Rx,0,8,5D,53,07,00,B8,0B,94,00,
726171,000000A8,false,Rx,0,8,00,03,21,E0,21,1F,0F,04,
726398,000000A9,false,Rx,0,8,EC,03,79,DF,1D,C7,E0,21,
726626,000000BA,false,Rx,0,7,08,FF,0F,00,00,55,83,00,
734594,000000B6,false,Rx,0,5,09,09,80,00,C8,00,00,00,
734601,000000C4,false,Rx,0,7,EF,FD,FC,00,00,FF,F1,00,
734606,000000CE,false,Rx,0,8,00,00,00,00,00,00,00,00,
734611,0000019E,false,Rx,0,8,00,E0,2F,FC,FE,00,00,AB,
734617,000001A0,false,Rx,0,8,00,80,00,D0,FF,00,90,83,
734622,000002B2,false,Rx,0,8,00,00,00,00,50,00,00,04,
736038,000000AA,false,Rx,0,8,5E,54,07,00,B8,0B,94,00,
736270,000000A8,false,Rx,0,8,02,04,21,E0,21,1F,0F,04,
736491,000000A9,false,Rx,0,8,ED,04,79,DF,1D,C7,E0,21,
736710,000000BA,false,Rx,0,7,08,FF,0F,00,00,56,84,00,
743135,000000C4,false,Rx,0,7,EF,FD,FC,00,00,FF,F1,00,
745910,000000AA,false,Rx,0,8,5F,55,07,00,B8,0B,94,00,
746320,000000A8,false,Rx,0,8,03,05,21,E0,21,1F,0F,04,
746540,000000A9,false,Rx,0,8,EE,05,79,DF,1D,C7,E0,21,
746761,000000BA,false,Rx,0,7,08,FF,0F,00,00,57,85,00,
750452,000001D0,false,Rx,0,8,3C,77,62,C3,9C,9E,CD,82,
753044,000000B6,false,Rx,0,5,0A,0A,80,00,C8,00,00,00,
754754,000000C4,false,Rx,0,7,EF,FD,FC,00,00,FF,F1,00,
754761,000000CE,false,Rx,0,8,00,00,00,00,00,00,00,00,
754766,0000019E,false,Rx,0,8,00,E0,2F,FC,FE,00,00,AB,
754771,000001A0,false,Rx,0,8,00,80,00,D0,FF,00,A0,93,
754777,000002B2,false,Rx,0,8,00,00,00,00,50,00,00,04,
755922,000000AA,false,Rx,0,8,60,56,07,00,B8,0B,94,00,
756154,000000A8,false,Rx,0,8,04,06,21,E0,21,1F,0F,04,
756381,000000A9,false,Rx,0,8,EF,06,79,DF,1D,C7,E0,21,
756601,000000BA,false,Rx,0,7,08,FF,0F,00,00,58,86,00,
763076,000000C4,false,Rx,0,7,EF,FD,FC,00,00,FF,F1,00,
763305,000001D6,false,Rx,0,2,FF,F3,00,00,00,00,00,00,
766076,000000AA,false,Rx,0,8,61,57,07,00,B8,0B,94,00,
766305,000000A8,false,Rx,0,8,05,07,21,E0,21,1F,0F,04,
766525,000000A9,false,Rx,0,8,F0,07,79,DF,1D,C7,E0,21,
766745,000000BA,false,Rx,0,7,08,FF,0F,00,00,59,87,00,
773177,000000B6,false,Rx,0,5,0B,0B,80,00,C8,00,00,00,
774915,000000C4,false,Rx,0,7,EF,FD,FC,00,00,FF,F1,00,
774921,000000CE,false,Rx,0,8,00,00,00,00,00,00,00,00,
774927,0000019E,false,Rx,0,8,00,E0,2F,FC,FE,00,00,AB,
774932,000001A0,false,Rx,0,8,00,80,00,D0,FF,00,B0,A3,
774937,000002B2,false,Rx,0,8,00,00,00,00,50,00,00,04,
774942,000004A9,false,Rx,0,8,30,42,FF,FF,FF,FF,FF,FF,
775902,000000AA,false,Rx,0,8,62,58,07,00,B8,0B,94,00,
776316,000000A8,false,Rx,0,8,06,08,21,E0,21,1F,0F,04,
776538,000000A9,false,Rx,0,8,F1,08,79,DF,1D,C7,E0,21,
776762,000000BA,false,Rx,0,7,08,FF,0F,00,00,5A,88,00,
783098,000000C4,false,Rx,0,7,EF,FD,FC,00,00,FF,F1,00,
786061,000000AA,false,Rx,0,8,63,59,07,00,B8,0B,94,00,
786291,000000A8,false,Rx,0,8,07,09,21,E0,21,1F,0F,04,
786512,000000A9,false,Rx,0,8,F2,09,79,DF,1D,C7,E0,21,
786732,000000BA,false,Rx,0,7,08,FF,0F,00,00,5B,89,00,
793163,000000B6,false,Rx,0,5,0C,0C,80,00,C8,00,00,00,
793384,000000C4,false,Rx,0,7,EF,FD,FC,00,00,FF,F1,00,
795071,000000CE,false,Rx,0,8,00,00,00,00,00,00,00,00,
795077,0000019E,false,Rx,0,8,00,E0,2F,FC,FE,00,00,AB,
795083,000001A0,false,Rx,0,8,00,80,00,F0,FF,00,C0,D3,
795088,000002B2,false,Rx,0,8,00,00,00,00,50,00,00,04,
796061,000000AA,false,Rx,0,8,64,5A,07,00,B8,0B,94,00,
796292,000000A8,false,Rx,0,8,08,0A,21,E0,21,1F,0F,04,
796528,000000A9,false,Rx,0,8,F3,0A,79,DF,1D,C7,E0,21,
796771,000000BA,false,Rx,0,7,08,FF,0F,00,00,5C,8A,00,
803230,000000C4,false,Rx,0,7,EF,FD,FC,00,00,FF,F1,00,
806002,000000AA,false,Rx,0,8,65,5B,07,00,B8,0B,94,00,
806232,000000A8,false,Rx,0,8,09,0B,21,E0,21,1F,0F,04,
806452,000000A9,false,Rx,0,8,F4,0B,79,DF,1D,C7,E0,21,
806673,000000BA,false,Rx,0,7,08,FF,0F,00,00,5D,8B,00,
812995,000000B6,false,Rx,0,5,0D,0D,80,00,C8,00,00,00,
813218,000000C4,false,Rx,0,7,EF,FD,FC,00,00,FF,F1,00,
813445,000000CE,false,Rx,0,8,00,00,00,00,00,00,00,00,
815133,0000019E,false,Rx,0,8,00,E0,3F,FC,FE,00,00,BB,
815140,000001A0,false,Rx,0,8,00,80,00,F0,FF,00,D0,E3,
815145,000002B2,false,Rx,0,8,00,00,00,00,50,00,00,04,
815151,000001A6,false,Rx,0,8,74,05,D8,02,34,08,80,F1,
815930,000000AA,false,Rx,0,8,66,5C,07,00,B8,0B,94,00,
816155,000000A8,false,Rx,0,8,0A,0C,21,E0,21,1F,0F,04,
816383,000000A9,false,Rx,0,8,F5,0C,79,DF,1D,C7,E0,21,
816604,000000BA,false,Rx,0,7,08,FF,0F,00,00,5E,8C,00,
821637,00000130,false,Rx,0,5,45,43,21,8F,55,00,00,00,
822953,000001B4,false,Rx,0,8,00,D0,E2,F1,00,32,FE,8C,
823174,000000C4,false,Rx,0,7,EF,FD,FC,00,00,FF,F1,00,
825979,000000AA,false,Rx,0,8,67,5D,07,00,B8,0B,94,00,
826203,000000A8,false,Rx,0,8,0B,0D,21,E0,21,1F,0F,04,
826431,000000A9,false,Rx,0,8,F6,0D,79,DF,1D,C7,E0,21,
826657,000000BA,false,Rx,0,7,08,FF,0F,00,00,5F,8D,00,
833094,000000B6,false,Rx,0,5,0E,0E,80,00,C8,00,00,00,
833321,000000C4,false,Rx,0,7,EF,FD,FC,00,00,FF,F1,00,
833542,000000CE,false,Rx,0,8,00,00,00,00,00,00,00,00,
835269,0000019E,false,Rx,0,8,00,E0,3F,FC,FE,00,00,BB,
835275,000001A0,false,Rx,0,8,00,80,00,F0,FF,00,E0,F3,
835280,000002B2,false,Rx,0,8,00,00,00,00,50,00,00,04,
836068,000000AA,false,Rx,0,8,68,5E,07,00,B8,0B,94,00,
836309,000000A8,false,Rx,0,8,0C,0E,21,E0,21,1F,0F,04,
836604,000000A9,false,Rx,0,8,F7,0E,79,DF,1D,C7,E0,21,
836609,000000BA,false,Rx,0,7,08,FF,0F,00,00,60,8E,00,
843067,000000C4,false,Rx,0,7,EF,FD,FC,00,00,FF,F1,00,
843296,000001FB,false,Rx,0,2,F1,FF,00,00,00,00,00,00,
846067,000000AA,false,Rx,0,8,5A,50,07,00,B8,0B,94,00,
846297,000000A8,false,Rx,0,8,FD,00,21,E0,21,1F,0F,04,
846517,000000A9,false,Rx,0,8,E9,00,79,DF,1D,C7,E0,21,
846738,000000BA,false,Rx,0,7,08,FF,0F,00,00,52,80,00,
850614,000001D0,false,Rx,0,8,3C,77,63,C3,9C,9E,CD,82,
853025,000000B6,false,Rx,0,5,FF,00,80,00,C8,00,00,00,
853256,000000C4,false,Rx,0,7,EF,FD,FC,00,00,FF,F1,00,
853476,000000CE,false,Rx,0,8,00,00,00,00,00,00,00,00,
853697,0000019E,false,Rx,0,8,00,E0,3F,FC,FE,00,00,BB,
855352,000001A0,false,Rx,0,8,00,80,00,F0,FF,00,00,13,
855359,000002B2,false,Rx,0,8,00,00,00,00,50,00,00,04,
855949,000000AA,false,Rx,0,8,5B,51,07,00,B8,0B,94,00,
856172,000000A8,false,Rx,0,8,FE,01,21,E0,21,1F,0F,04,
856400,000000A9,false,Rx,0,8,EA,01,79,DF,1D,C7,E0,21,
856620,000000BA,false,Rx,0,7,08,FF,0F,00,00,53,81,00,
863160,000000C4,false,Rx,0,7,EF,FD,FC,00,00,FF,F1,00,
863446,00000194,false,Rx,0,4,ED,FC,00,F0,00,00,00,00,
863451,000001D6,false,Rx,0,2,FF,F3,00,00,00,00,00,00,
866076,000000AA,false,Rx,0,8,5C,52,07,00,B8,0B,94,00,
866305,000000A8,false,Rx,0,8,FF,02,21,E0,21,1F,0F,04,
866526,000000A9,false,Rx,0,8,EB,02,79,DF,1D,C7,E0,21,
866746,000000BA,false,Rx,0,7,08,FF,0F,00,00,54,82,00,
872270,000004B0,false,Rx,0,8,00,42,FE,01,FF,FF,FF,FF,
873215,000000B6,false,Rx,0,5,00,01,80,00,C8,00,00,00,
873442,000000C4,false,Rx,0,7,EF,FD,FC,00,00,FF,F1,00,
873662,000000CE,false,Rx,0,8,00,00,00,00,00,00,00,00,
873882,0000019E,false,Rx,0,8,00,E0,3F,FC,FE,00,00,BB,
875539,000001A0,false,Rx,0,8,00,80,00,D0,FF,00,10,02,
875545,000002B2,false,Rx,0,8,00,00,00,00,50,00,00,04,
875967,000000AA,false,Rx,0,8,5D,53,07,00,B8,0B,94,00,
876190,000000A8,false,Rx,0,8,00,03,21,E0,21,1F,0F,04,
876428,000000A9,false,Rx,0,8,EC,03,79,DF,1D,C7,E0,21,
876660,000000BA,false,Rx,0,7,08,FF,0F,00,00,55,83,00,
883138,000000C4,false,Rx,0,7,EF,FD,FC,00,00,FF,F1,00,
885914,000000AA,false,Rx,0,8,5E,54,07,00,B8,0B,94,00,
886323,000000A8,false,Rx,0,8,02,04,21,E0,21,1F,0F,04,
886544,000000A9,false,Rx,0,8,ED,04,79,DF,1D,C7,E0,21,
886764,000000BA,false,Rx,0,7,08,FF,0F,00,00,56,84,00,
893191,000000B6,false,Rx,0,5,02,02,80,00,C8,00,00,00,
893412,000000C4,false,Rx,0,7,EF,FD,FC,00,00,FF,F1,00,
893633,000000CE,false,Rx,0,8,00,00,00,00,00,00,00,00,
893853,0000019E,false,Rx,0,8,00,E0,3F,FC,FE,00,00,BB,
894073,000001A0,false,Rx,0,8,00,80,00,D0,FF,00,20,13,
895685,000002B2,false,Rx,0,8,00,00,00,00,50,00,00,04,
895915,000000AA,false,Rx,0,8,5F,55,07,00,B8,0B,94,00,
896325,000000A8,false,Rx,0,8,03,05,21,E0,21,1F,0F,04,
896546,000000A9,false,Rx,0,8,EE,05,79,DF,1D,C7,E0,21,
896766,000000BA,false,Rx,0,7,08,FF,0F,00,00,57,85,00,
903236,000000C4,false,Rx,0,7,EF,FD,FC,00,00,FF,F1,00,
906790,000000AA,false,Rx,0,8,60,56,07,00,B8,0B,94,00,
906796,000000A8,false,Rx,0,8,04,06,21,E0,21,1F,0F,04,
906802,000000A9,false,Rx,0,8,EF,06,79,DF,1D,C7,E0,21,
906807,000000BA,false,Rx,0,7,08,FF,0F,00,00,58,86,00,
906812,000001D2,false,Rx,0,5,78,0C,8F,F0,F0,00,00,00,
913113,000000B6,false,Rx,0,5,03,03,80,00,C8,00,00,00,
913339,000000C4,false,Rx,0,7,EF,FD,FC,00,00,FF,F1,00,
913560,000000CE,false,Rx,0,8,00,00,00,00,00,00,00,00,
913780,0000019E,false,Rx,0,8,00,E0,3F,FC,FE,00,00,BB,
914001,000001A0,false,Rx,0,8,00,80,00,F0,FF,00,30,43,
914233,000002B2,false,Rx,0,8,00,00,00,00,50,00,00,04,
915907,000001A6,false,Rx,0,8,74,05,D8,02,34,08,10,F3,
915913,000000AA,false,Rx,0,8,61,57,07,00,B8,0B,94,00,
916150,000000A8,false,Rx,0,8,05,07,21,E0,21,1F,0F,04,
916388,000000A9,false,Rx,0,8,F0,07,79,DF,1D,C7,E0,21,
916608,000000BA,false,Rx,0,7,08,FF,0F,00,00,59,87,00,
921618,00000130,false,Rx,0,5,45,43,21,8F,76,00,00,00,
923153,000000C4,false,Rx,0,7,EF,FD,FC,00,00,FF,F1,00,
923390,000000C8,false,Rx,0,6,F1,FD,2C,00,00,5C,00,00,
923610,000001B4,false,Rx,0,8,00,D0,E2,F2,00,32,FE,8D,
926031,000000AA,false,Rx,0,8,62,58,07,00,B8,0B,94,00,
926261,000000A8,false,Rx,0,8,06,08,21,E0,21,1F,0F,04,
926481,000000A9,false,Rx,0,8,F1,08,79,DF,1D,C7,E0,21,
926710,000000BA,false,Rx,0,7,08,FF,0F,00,00,5A,88,00,
932995,000000B6,false,Rx,0,5,04,04,80,00,C8,00,00,00,
933234,000000C4,false,Rx,0,7,EF,FD,FC,00,00,FF,F1,00,
933464,000000CE,false,Rx,0,8,00,00,00,00,00,00,00,00,
933866,0000019E,false,Rx,0,8,00,E0,3F,FC,FE,00,00,BB,
934090,000001A0,false,Rx,0,8,00,80,00,F0,FF,00,40,53,
934316,000002B2,false,Rx,0,8,00,00,00,00,50,00,00,04,
935998,000000AA,false,Rx,0,8,63,59,07,00,B8,0B,94,00,
936244,000000A8,false,Rx,0,8,07,09,21,E0,21,1F,0F,04,
936477,000000A9,false,Rx,0,8,F2,09,79,DF,1D,C7,E0,21,
936696,000000BA,false,Rx,0,7,08,FF,0F,00,00,5B,89,00,
943184,000000C4,false,Rx,0,7,EF,FD,FC,00,00,FF,F1,00,
945961,000000AA,false,Rx,0,8,64,5A,07,00,B8,0B,94,00,
946183,000000A8,false,Rx,0,8,08,0A,21,E0,21,1F,0F,04,
946411,000000A9,false,Rx,0,8,F3,0A,79,DF,1D,C7,E0,21,
946632,000000BA,false,Rx,0,7,08,FF,0F,00,00,5C,8A,00,
950506,000001D0,false,Rx,0,8,3C,77,63,C3,9C,9E,CD,82,
953098,000000B6,false,Rx,0,5,05,05,80,00,C8,00,00,00,
953325,000000C4,false,Rx,0,7,EF,FD,FC,00,00,FF,F1,00,
953545,000000CE,false,Rx,0,8,00,00,00,00,00,00,00,00,
953765,0000019E,false,Rx,0,8,00,E0,3F,FC,FE,00,00,BB,
953986,000001A0,false,Rx,0,8,00,80,00,F0,FF,00,50,63,
954209,000002B2,false,Rx,0,8,00,00,00,00,50,00,00,04,
956001,000000AA,false,Rx,0,8,65,5B,07,00,B8,0B,94,00,
956246,000000A8,false,Rx,0,8,09,0B,21,E0,21,1F,0F,04,
956476,000000A9,false,Rx,0,8,F4,0B,79,DF,1D,C7,E0,21,
956697,000000BA,false,Rx,0,7,08,FF,0F,00,00,5D,8B,00,
958012,00000480,false,Rx,0,8,17,42,FD,FF,FF,FF,FF,FF,
963094,000000C4,false,Rx,0,7,EF,FD,FC,00,00,FF,F1,00,
963320,000001D6,false,Rx,0,2,FF,F3,00,00,00,00,00,00,
965907,000000AA,false,Rx,0,8,66,5C,07,00,B8,0B,94,00,
966316,000000A8,false,Rx,0,8,0A,0C,21,E0,21,1F,0F,04,
966536,000000A9,false,Rx,0,8,F5,0C,79,DF,1D,C7,E0,21,
966757,000000BA,false,Rx,0,7,08,FF,0F,00,00,5E,8C,00,
973184,000000B6,false,Rx,0,5,06,06,80,00,C8,00,00,00,
973410,000000C4,false,Rx,0,7,EF,FD,FC,00,00,FF,F1,00,
973630,000000CE,false,Rx,0,8,00,00,00,00,00,00,00,00,
973850,0000019E,false,Rx,0,8,00,E0,3F,FC,FE,00,00,BB,
974071,000001A0,false,Rx,0,8,00,80,00,00,00,00,60,82,
974302,000002B2,false,Rx,0,8,00,00,00,00,50,00,00,04,
976070,000000AA,false,Rx,0,8,67,5D,07,00,B8,0B,94,00,
976316,000000A8,false,Rx,0,8,0B,0D,21,E0,21,1F,0F,04,
976582,000000A9,false,Rx,0,8,F6,0D,79,DF,1D,C7,E0,21,
976587,000000BA,false,Rx,0,7,08,FF,0F,00,00,5F,8D,00,
983117,000000C4,false,Rx,0,7,EF,FD,FC,00,00,FF,F1,00,
985927,000000AA,false,Rx,0,8,68,5E,07,00,B8,0B,94,00,
986149,000000A8,false,Rx,0,8,0C,0E,21,E0,21,1F,0F,04,
986376,000000A9,false,Rx,0,8,F7,0E,79,DF,1D,C7,E0,21,
986596,000000BA,false,Rx,0,7,08,FF,0F,00,00,60,8E,00,
993206,000000B6,false,Rx,0,5,07,07,80,00,C8,00,00,00,
993433,000000C4,false,Rx,0,7,EF,FD,FC,00,00,FF,F1,00,
993653,000000CE,false,Rx,0,8,00,00,00,00,00,00,00,00,
993874,0000019E,false,Rx,0,8,00,E0,3F,FC,FE,00,00,BB,
994098,000001A0,false,Rx,0,8,00,80,00,F0,FF,03,70,86,
994326,000002B2,false,Rx,0,8,00,00,00,00,50,00,00,04,
996142,000000AA,false,Rx,0,8,5A,50,07,00,B8,0B,94,00,
996149,000000A8,false,Rx,0,8,FD,00,21,E0,21,1F,0F,04,
996390,000000A9,false,Rx,0,8,E9,00,79,DF,1D,C7,E0,21,
996613,000000BA,false,Rx,0,7,08,FF,0F,00,00,52,80,00,
1003154,000000C4,false,Rx,0,7,EF,FD,FC,00,00,FF,F1,00,
1005933,000000AA,false,Rx,0,8,5B,51,07,00,B8,0B,94,00,
1006156,000000A8,false,Rx,0,8,FE,01,21,E0,21,1F,0F,04,
1006383,000000A9,false,Rx,0,8,EA,01,79,DF,1D,C7,E0,21,
1006604,000000BA,false,Rx,0,7,08,FF,0F,00,00,53,81,00,
1013027,000000B6,false,Rx,0,5,08,08,80,00,C8,00,00,00,
1013255,000000C4,false,Rx,0,7,EF,FD,FC,00,00,FF,F1,00,
1013476,000000CE,false,Rx,0,8,00,00,00,00,00,00,00,00,
1013877,0000019E,false,Rx,0,8,00,E0,4F,FC,FE,00,00,CB,
1014098,000001A0,false,Rx,0,8,00,80,00,F0,FF,00,80,93,
1014325,000002B2,false,Rx,0,8,00,00,00,00,50,00,00,04,
1014545,000001A6,false,Rx,0,8,74,05,D8,02,34,08,A0,F4,
1016175,000000AA,false,Rx,0,8,5C,52,07,00,B8,0B,94,00,
1016182,000000A8,false,Rx,0,8,FF,02,21,E0,21,1F,0F,04,
1016424,000000A9,false,Rx,0,8,EB,02,79,DF,1D,C7,E0,21,
1016653,000000BA,false,Rx,0,7,08,FF,0F,00,00,54,82,00,
1021625,00000130,false,Rx,0,5,45,43,21,8F,87,00,00,00,
1022941,000001B4,false,Rx,0,8,00,D0,E2,F3,00,32,FE,8E,
1023164,000000C4,false,Rx,0,7,EF,FD,FC,00,00,FF,F1,00,
1025997,000000AA,false,Rx,0,8,5D,53,07,00,B8,0B,94,00,
1026237,000000A8,false,Rx,0,8,00,03,21,E0,21,1F,0F,04,
1026457,000000A9,false,Rx,0,8,EC,03,79,DF,1D,C7,E0,21,
1026677,000000BA,false,Rx,0,7,08,FF,0F,00,00,55,83,00,
1030935,000001B5,false,Rx,0,6,00,FF,02,10,8A,FF,00,00,
1033177,000000B6,false,Rx,0,5,09,09,80,00,C8,00,00,00,
1033403,000000C4,false,Rx,0,7,EF,FD,FC,00,00,FF,F1,00,
1033623,000000CE,false,Rx,0,8,00,00,00,00,00,00,00,00,
1033844,0000019E,false,Rx,0,8,00,E0,4F,FC,FE,00,00,CB,
1034102,000001A0,false,Rx,0,8,00,80,00,F0,FF,00,90,A3,
1034107,000001FB,false,Rx,0,2,F2,FF,00,00,00,00,00,00,
1034515,000002B2,false,Rx,0,8,00,00,00,00,50,00,00,04,
1036330,000000AA,false,Rx,0,8,5E,54,07,00,B8,0B,94,00,
1036371,000000A8,false,Rx,0,8,02,04,21,E0,21,1F,0F,04,
1036376,000000A9,false,Rx,0,8,ED,04,79,DF,1D,C7,E0,21,
1036614,000000BA,false,Rx,0,7,08,FF,0F,00,00,56,84,00,
1043190,000000C4,false,Rx,0,7,EF,FD,FC,00,00,FF,F1,00,
1045971,000000AA,false,Rx,0,8,5F,55,07,00,B8,0B,94,00,
1046193,000000A8,false,Rx,0,8,03,05,21,E0,21,1F,0F,04,
1046420,000000A9,false,Rx,0,8,EE,05,79,DF,1D,C7,E0,21,
1046641,000000BA,false,Rx,0,7,08,FF,0F,00,00,57,85,00,
1050518,000001D0,false,Rx,0,8,3C,77,64,C3,9C,9E,CD,82,
1053112,000000B6,false,Rx,0,5,0A,0A,80,00,C8,00,00,00,
1053339,000000C4,false,Rx,0,7,EF,FD,FC,00,00,FF,F1,00,
1053559,000000CE,false,Rx,0,8,00,00,00,00,00,00,00,00,
1053780,0000019E,false,Rx,0,8,00,E0,4F,FC,FE,00,00,CB,
1054000,000001A0,false,Rx,0,8,00,80,00,F0,FF,00,A0,B3,
1054232,000002B2,false,Rx,0,8,00,00,00,00,50,00,00,04,
1056409,000000AA,false,Rx,0,8,60,56,07,00,B8,0B,94,00,
1056415,000000A8,false,Rx,0,8,04,06,21,E0,21,1F,0F,04,
1056421,000000A9,false,Rx,0,8,EF,06,79,DF,1D,C7,E0,21,
1056663,000000BA,false,Rx,0,7,08,FF,0F,00,00,58,86,00,
1057617,00000497,false,Rx,0,8,29,42,FF,FF,FF,FF,FF,FF,
1062696,00000335,false,Rx,0,8,00,0C,10,00,00,9B,00,00,
1063097,000000C4,false,Rx,0,7,EF,FD,FC,00,00,FF,F1,00,
1063319,00000194,false,Rx,0,4,EE,FD,00,F0,00,00,00,00,
1063538,000001D6,false,Rx,0,2,FF,F3,00,00,00,00,00,00,
1065949,000000AA,false,Rx,0,8,61,57,07,00,B8,0B,94,00,
1066170,000000A8,false,Rx,0,8,05,07,21,E0,21,1F,0F,04,
1066397,000000A9,false,Rx,0,8,F0,07,79,DF,1D,C7,E0,21,
1066618,000000BA,false,Rx,0,7,08,FF,0F,00,00,59,87,00,
1073044,000000B6,false,Rx,0,5,0B,0B,80,00,C8,00,00,00,
1073271,000000C4,false,Rx,0,7,EF,FD,FC,00,00,FF,F1,00,
1073673,000000CE,false,Rx,0,8,00,00,00,00,00,00,00,00,
1073893,0000019E,false,Rx,0,8,00,E0,4F,FC,FE,00,00,CB,
1074115,000001A0,false,Rx,0,8,00,80,00,00,00,00,B0,D2,
1074341,000002B2,false,Rx,0,8,00,00,00,00,50,00,00,04,
1076516,000000AA,false,Rx,0,8,62,58,07,00,B8,0B,94,00,
1076523,000000A8,false,Rx,0,8,06,08,21,E0,21,1F,0F,04,
1076528,000000A9,false,Rx,0,8,F1,08,79,DF,1D,C7,E0,21,
1076771,000000BA,false,Rx,0,7,08,FF,0F,00,00,5A,88,00,
1083147,000000C4,false,Rx,0,7,EF,FD,FC,00,00,FF,F1,00,
1085928,000000AA,false,Rx,0,8,63,59,07,00,B8,0B,94,00,
1086152,000000A8,false,Rx,0,8,07,09,21,E0,21,1F,0F,04,
1086380,000000A9,false,Rx,0,8,F2,09,79,DF,1D,C7,E0,21,
1086600,000000BA,false,Rx,0,7,08,FF,0F,00,00,5B,89,00,
1093206,000000B6,false,Rx,0,5,0C,0C,80,00,C8,00,00,00,
1093433,000000C4,false,Rx,0,7,EF,FD,FC,00,00,FF,F1,00,
1093654,000000CE,false,Rx,0,8,00,00,00,00,00,00,00,00,
1093874,0000019E,false,Rx,0,8,00,E0,4F,FC,FE,00,00,CB,
1094098,000001A0,false,Rx,0,8,00,80,00,F0,FF,FD,CF,E0,
1094326,000002B2,false,Rx,0,8,00,00,00,00,40,00,00,04,
1096672,000000AA,false,Rx,0,8,64,5A,07,00,B8,0B,94,00,
1096678,000000A8,false,Rx,0,8,08,0A,21,E0,21,1F,0F,04,
1096684,000000A9,false,Rx,0,8,F3,0A,79,DF,1D,C7,E0,21,
1096689,000000BA,false,Rx,0,7,08,FF,0F,00,00,5C,8A,00,
1103233,000000C4,false,Rx,0,7,EF,FD,FC,00,00,FF,F1,00,
1106005,000000AA,false,Rx,0,8,65,5B,07,00,B8,0B,94,00,
1106234,000000A8,false,Rx,0,8,09,0B,21,E0,21,1F,0F,04,
1106454,000000A9,false,Rx,0,8,F4,0B,79,DF,1D,C7,E0,21,
1106674,000000BA,false,Rx,0,7,08,FF,0F,00,00,5D,8B,00,
1106894,000001D2,false,Rx,0,5,78,0C,8F,00,F0,00,00,00,
1113139,000000B6,false,Rx,0,5,0D,0D,80,00,C8,00,00,00,
1113367,000000C4,false,Rx,0,7,EF,FD,FC,00,00,FF,F1,00,
1113587,000000CE,false,Rx,0,8,00,00,00,00,00,00,00,00,
1113807,0000019E,false,Rx,0,8,00,E0,4F,FC,FE,00,00,CB,
1114028,000001A0,false,Rx,0,8,00,80,00,00,00,00,D0,F2,
1114256,000002B2,false,Rx,0,8,00,00,00,00,50,00,00,04,
1114477,000001A6,false,Rx,0,8,74,05,D8,02,34,08,30,F6,
1116852,000000AA,false,Rx,0,8,66,5C,07,00,B8,0B,94,00,
1116859,000000A8,false,Rx,0,8,0A,0C,21,E0,21,1F,0F,04,
1116864,000000A9,false,Rx,0,8,F5,0C,79,DF,1D,C7,E0,21,
1116869,000000BA,false,Rx,0,7,08,FF,0F,00,00,5E,8C,00,
1121726,00000130,false,Rx,0,5,45,43,21,8F,98,00,00,00,
1123234,000000C4,false,Rx,0,7,EF,FD,FC,00,00,FF,F1,00,
1123454,000000C8,false,Rx,0,6,F1,FD,7C,00,00,5C,00,00,
1123674,000001B4,false,Rx,0,8,00,D0,E2,F4,00,32,FE,8F,
1125901,000000AA,false,Rx,0,8,67,5D,07,00,B8,0B,94,00,
1126312,000000A8,false,Rx,0,8,0B,0D,21,E0,21,1F,0F,04,
1126532,000000A9,false,Rx,0,8,F6,0D,79,DF,1D,C7,E0,21,
1126752,000000BA,false,Rx,0,7,08,FF,0F,00,00,5F,8D,00,
1133027,000000B6,false,Rx,0,5,0E,0E,80,00,C8,00,00,00,
1133256,000000C4,false,Rx,0,7,EF,FD,FC,00,00,FF,F1,00,
1133476,000000CE,false,Rx,0,8,00,00,00,00,00,00,00,00,
1133877,0000019E,false,Rx,0,8,00,E0,4F,FC,FE,00,00,CB,
1134102,000001A0,false,Rx,0,8,00,80,00,D0,FF,00,E0,D3,
1134341,000002B2,false,Rx,0,8,00,00,00,00,50,00,00,04,
1136904,000000AA,false,Rx,0,8,68,5E,07,00,B8,0B,94,00,
1136911,000000A8,false,Rx,0,8,0C,0E,21,E0,21,1F,0F,04,
1136916,000000A9,false,Rx,0,8,F7,0E,79,DF,1D,C7,E0,21,
1136921,000000BA,false,Rx,0,7,08,FF,0F,00,00,60,8E,00,
1143102,000000C4,false,Rx,0,7,EF,FD,FC,00,00,FF,F1,00,
1146063,000000AA,false,Rx,0,8,5A,50,07,00,B8,0B,94,00,
1146292,000000A8,false,Rx,0,8,FD,00,21,E0,21,1F,0F,04,
1146513,000000A9,false,Rx,0,8,E9,00,79,DF,1D,C7,E0,21,
1146733,000000BA,false,Rx,0,7,08,FF,0F,00,00,52,80,00,
1150608,000001D0,false,Rx,0,8,3C,77,64,C3,9C,9E,CD,82,
1153015,000000B6,false,Rx,0,5,FF,00,80,00,C8,00,00,00,
1153245,000000C4,false,Rx,0,7,EF,FD,FC,00,00,FF,F1,00,
1153465,000000CE,false,Rx,0,8,00,00,00,00,00,00,00,00,
1153685,0000019E,false,Rx,0,8,00,E0,4F,FC,FE,00,00,CB,
1154090,000001A0,false,Rx,0,8,00,80,00,00,00,00,00,22,
1154318,000002B2,false,Rx,0,8,00,00,00,00,50,00,00,04,
1154538,000004A9,false,Rx,0,8,30,42,FF,FF,FF,FF,FF,FF,
1156915,000000AA,false,Rx,0,8,5B,51,07,00,B8,0B,94,00,
1156922,000000A8,false,Rx,0,8,FE,01,21,E0,21,1F,0F,04,
1156927,000000A9,false,Rx,0,8,EA,01,79,DF,1D,C7,E0,21,
1156933,000000BA,false,Rx,0,7,08,FF,0F,00,00,53,81,00,
1163121,000000C4,false,Rx,0,7,EF,FD,FC,00,00,FF,F1,00,
1163349,000001D6,false,Rx,0,2,FF,F3,00,00,00,00,00,00,
1165938,000000AA,false,Rx,0,8,5C,52,07,00,B8,0B,94,00,
1166161,000000A8,false,Rx,0,8,FF,02,21,E0,21,1F,0F,04,
1166388,000000A9,false,Rx,0,8,EB,02,79,DF,1D,C7,E0,21,
1166608,000000BA,false,Rx,0,7,08,FF,0F,00,00,54,82,00,
1173214,000000B6,false,Rx,0,5,00,01,80,00,C8,00,00,00,
1173441,000000C4,false,Rx,0,7,EF,FD,FC,00,00,FF,F1,00,
1173661,000000CE,false,Rx,0,8,00,00,00,00,00,00,00,00,
1173881,0000019E,false,Rx,0,8,00,E0,4F,FC,FE,00,00,CB,
1174102,000001A0,false,Rx,0,8,00,80,00,00,00,00,10,32,
1174329,000002B2,false,Rx,0,8,00,00,00,00,50,00,00,04,
1177095,000000AA,false,Rx,0,8,5D,53,07,00,B8,0B,94,00,
1177101,000000A8,false,Rx,0,8,00,03,21,E0,21,1F,0F,04,
1177107,000000A9,false,Rx,0,8,EC,03,79,DF,1D,C7,E0,21,
1177112,000000BA,false,Rx,0,7,08,FF,0F,00,00,55,83,00,
1183094,000000C4,false,Rx,0,7,EF,FD,FC,00,00,FF,F1,00,
1185961,000000AA,false,Rx,0,8,5E,54,07,00,B8,0B,94,00,
1186183,000000A8,false,Rx,0,8,02,04,21,E0,21,1F,0F,04,
1186411,000000A9,false,Rx,0,8,ED,04,79,DF,1D,C7,E0,21,
1186631,000000BA,false,Rx,0,7,08,FF,0F,00,00,56,84,00,
1193058,000000B6,false,Rx,0,5,02,02,80,00,C8,00,00,00,
1193283,000000C4,false,Rx,0,7,EF,FD,FC,00,00,FF,F1,00,
1193684,000000CE,false,Rx,0,8,00,00,00,00,00,00,00,00,
1193904,0000019E,false,Rx,0,8,00,E0,4F,FC,FE,00,00,CB,
1194126,000001A0,false,Rx,0,8,00,80,00,D0,FF,00,20,13,
1194353,000002B2,false,Rx,0,8,00,00,00,00,50,00,00,04,
1197121,000000AA,false,Rx,0,8,5F,55,07,00,B8,0B,94,00,
1197128,000000A8,false,Rx,0,8,03,05,21,E0,21,1F,0F,04,
1197133,000000A9,false,Rx,0,8,EE,05,79,DF,1D,C7,E0,21,
1197139,000000BA,false,Rx,0,7,08,FF,0F,00,00,57,85,00,
1203139,000000C4,false,Rx,0,7,EF,FD,FC,00,00,FF,F1,00,
1205917,000000AA,false,Rx,0,8,60,56,07,00,B8,0B,94,00,
1206138,000000A8,false,Rx,0,8,04,06,21,E0,21,1F,0F,04,
1206365,000000A9,false,Rx,0,8,EF,06,79,DF,1D,C7,E0,21,
1206585,000000BA,false,Rx,0,7,08,FF,0F,00,00,58,86,00,
1213047,000000B6,false,Rx,0,5,03,03,80,00,C8,00,00,00,
1213276,000000C4,false,Rx,0,7,EF,FD,FC,00,00,FF,F1,00,
1213497,000000CE,false,Rx,0,8,00,00,00,00,00,00,00,00,
1213717,0000019E,false,Rx,0,8,00,E0,4F,FC,FE,00,00,CB,
1213937,000001A0,false,Rx,0,8,00,80,00,00,00,00,30,52,
1214348,000002B2,false,Rx,0,8,00,00,00,00,50,00,00,04,
1214567,000001A6,false,Rx,0,8,74,05,D8,02,34,08,C0,F7,
1217156,000000AA,false,Rx,0,8,61,57,07,00,B8,0B,94,00,
1217162,000000A8,false,Rx,0,8,05,07,21,E0,21,1F,0F,04,
1217167,000000A9,false,Rx,0,8,F0,07,79,DF,1D,C7,E0,21,
1217173,000000BA,false,Rx,0,7,08,FF,0F,00,00,59,87,00,
1221663,00000130,false,Rx,0,5,45,43,21,8F,A9,00,00,00,
1222798,000001B4,false,Rx,0,8,00,D0,E2,F5,00,32,FE,90,
1223243,000000C4,false,Rx,0,7,EF,FD,FC,00,00,FF,F1,00,
1223249,000001FB,false,Rx,0,2,F3,FF,00,00,00,00,00,00,
1226020,000000AA,false,Rx,0,8,62,58,07,00,B8,0B,94,00,
1226248,000000A8,false,Rx,0,8,06,08,21,E0,21,1F,0F,04,
1226468,000000A9,false,Rx,0,8,F1,08,79,DF,1D,C7,E0,21,
1226694,000000BA,false,Rx,0,7,08,FF,0F,00,00,5A,88,00,
1232994,000000B6,false,Rx,0,5,04,04,80,00,C8,00,00,00,
1233406,000000C4,false,Rx,0,7,EF,FD,FC,00,00,FF,F1,00,
1233626,000000CE,false,Rx,0,8,00,00,00,00,00,00,00,00,
1233847,0000019E,false,Rx,0,8,00,E0,5F,FC,FE,00,00,DB,
1234067,000001A0,false,Rx,0,8,00,80,00,00,00,00,40,62,
1234305,000002B2,false,Rx,0,8,00,00,00,00,50,00,00,04,
1237341,000000AA,false,Rx,0,8,63,59,07,00,B8,0B,94,00,
1237347,000000A8,false,Rx,0,8,07,09,21,E0,21,1F,0F,04,
1237353,000000A9,false,Rx,0,8,F2,09,79,DF,1D,C7,E0,21,
1237358,000000BA,false,Rx,0,7,08,FF,0F,00,00,5B,89,00,
1243196,000000C4,false,Rx,0,7,EF,FD,FC,00,00,FF,F1,00,
1245976,000000AA,false,Rx,0,8,64,5A,07,00,B8,0B,94,00,
1246200,000000A8,false,Rx,0,8,08,0A,21,E0,21,1F,0F,04,
1246428,000000A9,false,Rx,0,8,F3,0A,79,DF,1D,C7,E0,21,
1246649,000000BA,false,Rx,0,7,08,FF,0F,00,00,5C,8A,00,
1250529,000001D0,false,Rx,0,8,3C,77,65,C3,9C,9E,CD,82,
1252209,000004B0,false,Rx,0,8,00,42,FE,01,FF,FF,FF,FF,
1253163,000000B6,false,Rx,0,5,05,05,80,00,C8,00,00,00,
1253387,000000C4,false,Rx,0,7,EF,FD,FC,00,00,FF,F1,00,
1253607,000000CE,false,Rx,0,8,00,00,00,00,00,00,00,00,
1253828,0000019E,false,Rx,0,8,00,E0,5F,FC,FE,00,00,DB,
1254048,000001A0,false,Rx,0,8,00,80,00,F0,FF,00,50,63,
1254278,000002B2,false,Rx,0,8,00,00,00,00,50,00,00,04,
1257442,000000AA,false,Rx,0,8,65,5B,07,00,B8,0B,94,00,
1257448,000000A8,false,Rx,0,8,09,0B,21,E0,21,1F,0F,04,
1257454,000000A9,false,Rx,0,8,F4,0B,79,DF,1D,C7,E0,21,
1257459,000000BA,false,Rx,0,7,08,FF,0F,00,00,5D,8B,00,
1263198,000000C4,false,Rx,0,7,EF,FD,FC,00,00,FF,F1,00,
1263474,00000194,false,Rx,0,4,EF,FE,00,F0,00,00,00,00,
1263479,000001D6,false,Rx,0,2,FF,F3,00,00,00,00,00,00,
1265932,000000AA,false,Rx,0,8,66,5C,07,00,B8,0B,94,00,
1266155,000000A8,false,Rx,0,8,0A,0C,21,E0,21,1F,0F,04,
1266383,000000A9,false,Rx,0,8,F5,0C,79,DF,1D,C7,E0,21,
1266603,000000BA,false,Rx,0,7,08,FF,0F,00,00,5E,8C,00,
1273211,000000B6,false,Rx,0,5,06,06,80,00,C8,00,00,00,
1273438,000000C4,false,Rx,0,7,EF,FD,FC,00,00,FF,F1,00,
1273657,000000CE,false,Rx,0,8,00,00,00,00,00,00,00,00,
1273878,0000019E,false,Rx,0,8,00,E0,5F,FC,FE,00,00,DB,
1274102,000001A0,false,Rx,0,8,00,80,00,F0,FF,00,60,73,
1274329,000002B2,false,Rx,0,8,00,00,00,00,50,00,00,04,
1277524,000000AA,false,Rx,0,8,67,5D,07,00,B8,0B,94,00,
1277531,000000A8,false,Rx,0,8,0B,0D,21,E0,21,1F,0F,04,
1277536,000000A9,false,Rx,0,8,F6,0D,79,DF,1D,C7,E0,21,
1277541,000000BA,false,Rx,0,7,08,FF,0F,00,00,5F,8D,00,
1283111,000000C4,false,Rx,0,7,EF,FD,FC,00,00,FF,F1,00,
1285894,000000AA,false,Rx,0,8,68,5E,07,00,B8,0B,94,00,
1286305,000000A8,false,Rx,0,8,0C,0E,21,E0,21,1F,0F,04,
1286526,000000A9,false,Rx,0,8,F7,0E,79,DF,1D,C7,E0,21,
1286746,000000BA,false,Rx,0,7,08,FF,0F,00,00,60,8E,00,
1289710,00000310,false,Rx,0,7,54,53,5C,83,01,81,23,00,
1293339,000000B6,false,Rx,0,5,07,07,80,00,C8,00,00,00,
1293344,000000C4,false,Rx,0,7,EF,FD,FC,00,00,FF,F1,00,
1293750,000000CE,false,Rx,0,8,00,00,00,00,00,00,00,00,
1293971,0000019E,false,Rx,0,8,00,E0,5F,FC,FE,00,00,DB,
1294192,000001A0,false,Rx,0,8,00,80,00,D0,FF,00,70,63,
1294419,000002B2,false,Rx,0,8,00,00,00,00,50,00,00,04,
1295915,000000AA,false,Rx,0,8,5A,50,07,00,B8,0B,94,00,
1297616,000000A8,false,Rx,0,8,FD,00,21,E0,21,1F,0F,04,
1297623,000000A9,false,Rx,0,8,E9,00,79,DF,1D,C7,E0,21,
1297628,000000BA,false,Rx,0,7,08,FF,0F,00,00,52,80,00,
1303219,000000C4,false,Rx,0,7,F1,FD,FC,04,00,FF,F1,00,
1305999,000000AA,false,Rx,0,8,5B,51,07,00,B8,0B,94,00,
1306222,000000A8,false,Rx,0,8,FE,01,21,E0,21,1F,0F,04,
1306449,000000A9,false,Rx,0,8,EA,01,79,DF,1D,C7,E0,21,
1306669,000000BA,false,Rx,0,7,08,FF,0F,00,00,53,81,00,
1306889,000001D2,false,Rx,0,5,78,0C,8F,10,F0,00,00,00,
1313146,000000B6,false,Rx,0,5,08,08,80,00,C8,00,00,00,
1313373,000000C4,false,Rx,0,7,F1,FD,FC,04,00,FF,F1,00,
1313593,000000CE,false,Rx,0,8,00,00,00,00,00,00,00,00,
1313813,0000019E,false,Rx,0,8,00,E0,5F,FC,FE,00,00,DB,
1314033,000001A0,false,Rx,0,8,00,80,00,00,00,00,80,A2,
1314264,000002B2,false,Rx,0,8,00,00,00,00,50,00,00,04,
1314484,000001A6,false,Rx,0,8,74,05,D8,02,34,08,50,F9,
1315978,000000AA,false,Rx,0,8,5C,52,07,00,B8,0B,94,00,
1317676,000000A8,false,Rx,0,8,FF,02,21,E0,21,1F,0F,04,
1317684,000000A9,false,Rx,0,8,EB,02,79,DF,1D,C7,E0,21,
1317689,000000BA,false,Rx,0,7,08,FF,0F,00,00,54,82,00,
1321628,00000130,false,Rx,0,5,45,43,21,8F,BA,00,00,00,
1323130,000000C4,false,Rx,0,7,F1,FD,FC,00,00,FF,F1,00,
1323356,000000C8,false,Rx,0,6,F3,FD,CC,00,00,5C,00,00,
1323577,000001B4,false,Rx,0,8,00,D0,E2,F6,00,32,FE,91,
1325987,000000AA,false,Rx,0,8,5D,53,07,00,B8,0B,94,00,
1326211,000000A8,false,Rx,0,8,00,03,21,E0,21,1F,0F,04,
1326438,000000A9,false,Rx,0,8,EC,03,79,DF,1D,C7,E0,21,
1326658,000000BA,false,Rx,0,7,08,FF,0F,00,00,55,83,00,
1333176,000000B6,false,Rx,0,5,09,09,80,00,C8,00,00,00,
1333405,000000C4,false,Rx,0,7,F1,FD,FC,00,00,FF,F1,00,
1333625,000000CE,false,Rx,0,8,00,00,00,00,00,00,00,00,
1333846,0000019E,false,Rx,0,8,00,E0,5F,FC,FE,00,00,DB,
1334066,000001A0,false,Rx,0,8,00,80,00,00,00,00,90,B2,
1334297,000002B2,false,Rx,0,8,00,00,00,00,50,00,00,04,
1335971,000000AA,false,Rx,0,8,5E,54,07,00,B8,0B,94,00,
1336193,000000A8,false,Rx,0,8,02,04,21,E0,21,1F,0F,04,
1337954,000000A9,false,Rx,0,8,ED,04,79,DF,1D,C7,E0,21,
1337960,000000BA,false,Rx,0,7,08,FF,0F,00,00,56,84,00,
1337965,00000480,false,Rx,0,8,17,42,FD,FF,FF,FF,FF,FF,
1343249,000000C4,false,Rx,0,7,F1,FD,FC,00,00,FF,F1,00,
1346023,000000AA,false,Rx,0,8,5F,55,07,00,B8,0B,94,00,
1346252,000000A8,false,Rx,0,8,03,05,21,E0,21,1F,0F,04,
1346472,000000A9,false,Rx,0,8,EE,05,79,DF,1D,C7,E0,21,
1346692,000000BA,false,Rx,0,7,08,FF,0F,00,00,57,85,00,
1350566,000001D0,false,Rx,0,8,3C,77,65,C3,9C,9E,CD,82,
1352976,000000B6,false,Rx,0,5,0A,0A,80,00,C8,00,00,00,
1353200,000000C4,false,Rx,0,7,F1,FD,FC,00,00,FF,F1,00,
1353608,000000CE,false,Rx,0,8,00,00,00,00,00,00,00,00,
1353829,0000019E,false,Rx,0,8,00,E0,5F,FC,FE,00,00,DB,
1354049,000001A0,false,Rx,0,8,00,80,00,00,00,00,A0,C2,
1354279,000002B2,false,Rx,0,8,00,00,00,00,50,00,00,04,
1355955,000000AA,false,Rx,0,8,60,56,07,00,B8,0B,94,00,
1356176,000000A8,false,Rx,0,8,04,06,21,E0,21,1F,0F,04,
1356404,000000A9,false,Rx,0,8,EF,06,79,DF,1D,C7,E0,21,
1358029,000000BA,false,Rx,0,7,08,FF,0F,00,00,58,86,00,
1363082,000000C4,false,Rx,0,7,EF,FD,FC,DC,FF,FF,F1,00,
1363310,000001D6,false,Rx,0,2,FF,F3,00,00,00,00,00,00,
1365899,000000AA,false,Rx,0,8,61,57,07,00,B8,0B,94,00,
1366309,000000A8,false,Rx,0,8,05,07,21,E0,21,1F,0F,04,
1366528,000000A9,false,Rx,0,8,F0,07,79,DF,1D,C7,E0,21,
1366749,000000BA,false,Rx,0,7,08,FF,0F,00,00,59,87,00,
1373177,000000B6,false,Rx,0,5,0B,0B,80,00,C8,00,00,00,
1373403,000000C4,false,Rx,0,7,EF,FD,FC,DC,FF,FF,F1,00,
1373624,000000CE,false,Rx,0,8,00,00,00,00,00,00,00,00,
1373844,0000019E,false,Rx,0,8,00,E0,5F,FC,FE,00,00,DB,
1374065,000001A0,false,Rx,0,8,00,80,00,00,00,00,B0,D2,
1374291,000002B2,false,Rx,0,8,00,00,00,00,50,00,00,04,
1375968,000000AA,false,Rx,0,8,62,58,07,00,B8,0B,94,00,
1376190,000000A8,false,Rx,0,8,06,08,21,E0,21,1F,0F,04,
1376417,000000A9,false,Rx,0,8,F1,08,79,DF,1D,C7,E0,21,
1378032,000000BA,false,Rx,0,7,08,FF,0F,00,00,5A,88,00,
1383127,000000C4,false,Rx,0,7,EC,FD,FC,8F,FF,FF,F1,00,
1385907,000000AA,false,Rx,0,8,63,59,07,00,B8,0B,94,00,
1386316,000000A8,false,Rx,0,8,07,09,21,E0,21,1F,0F,04,
1386536,000000A9,false,Rx,0,8,F2,09,79,DF,1D,C7,E0,21,
1386756,000000BA,false,Rx,0,7,08,FF,0F,00,00,5B,89,00,
1393184,000000B6,false,Rx,0,5,0C,0C,80,00,C8,00,00,00,
1393410,000000C4,false,Rx,0,7,EF,FD,FC,8F,FF,FF,F1,00,
1393630,000000CE,false,Rx,0,8,00,00,00,00,00,00,00,00,
1393849,0000019E,false,Rx,0,8,00,E0,5F,FC,FE,00,00,DB,
1394070,000001A0,false,Rx,0,8,00,80,00,F0,FF,00,C0,D3,
1394294,000002B2,false,Rx,0,8,00,00,00,00,50,00,00,04,
1395971,000000AA,false,Rx,0,8,64,5A,07,00,B8,0B,94,00,
1396193,000000A8,false,Rx,0,8,08,0A,21,E0,21,1F,0F,04,
1396420,000000A9,false,Rx,0,8,F3,0A,79,DF,1D,C7,E0,21,
1398035,000000BA,false,Rx,0,7,08,FF,0F,00,00,5C,8A,00,
1403090,000000C4,false,Rx,0,7,E8,FD,FC,53,FD,FF,F1,00,
1406048,000000AA,false,Rx,0,8,65,5B,07,00,B8,0B,94,00,
1406279,000000A8,false,Rx,0,8,09,0B,21,E0,21,1F,0F,04,
1406498,000000A9,false,Rx,0,8,F4,0B,79,DF,1D,C7,E0,21,
1406718,000000BA,false,Rx,0,7,08,FF,0F,00,00,5D,8B,00,
1412418,000001FB,false,Rx,0,2,F4,FF,00,00,00,00,00,00,
1412999,000000B6,false,Rx,0,5,0D,0D,80,00,C8,00,00,00,
1413222,000000C4,false,Rx,0,7,E5,FD,FC,53,FD,FF,F1,00,
1413448,000000CE,false,Rx,0,8,00,00,00,00,00,00,00,00,
1413849,0000019E,false,Rx,0,8,00,E0,5F,FC,FE,00,00,DB,
1414070,000001A0,false,Rx,0,8,00,80,00,F0,FF,00,D0,E3,
1414299,000002B2,false,Rx,0,8,00,00,00,00,50,00,00,04,
1414519,000001A6,false,Rx,0,8,74,05,D8,02,34,08,E0,FA,
1416014,000000AA,false,Rx,0,8,66,5C,07,00,B8,0B,94,00,
1416245,000000A8,false,Rx,0,8,0A,0C,21,E0,21,1F,0F,04,
1416464,000000A9,false,Rx,0,8,F5,0C,79,DF,1D,C7,E0,21,
1418086,000000BA,false,Rx,0,7,08,FF,0F,00,00,5E,8C,00,
1421658,00000130,false,Rx,0,5,45,43,21,8F,CB,00,00,00,
1422792,000001B4,false,Rx,0,8,00,D0,E2,F7,00,32,FE,92,
1423196,000000C4,false,Rx,0,7,E5,FD,FC,00,00,FF,F1,00,
1425976,000000AA,false,Rx,0,8,67,5D,07,00,B8,0B,94,00,
1426200,000000A8,false,Rx,0,8,0B,0D,21,E0,21,1F,0F,04,
1426428,000000A9,false,Rx,0,8,F6,0D,79,DF,1D,C7,E0,21,
1426649,000000BA,false,Rx,0,7,08,FF,0F,00,00,5F,8D,00,
1433121,000000B6,false,Rx,0,5,0E,0E,80,00,C8,00,00,00,
1433347,000000C4,false,Rx,0,7,E3,FD,FC,00,00,FF,F1,00,
1433567,000000CE,false,Rx,0,8,00,00,00,00,00,00,00,00,
1433787,0000019E,false,Rx,0,8,00,E0,6F,FC,FE,00,00,EB,
1434008,000001A0,false,Rx,0,8,00,80,00,F0,FF,00,E0,F3,
1434238,000002B2,false,Rx,0,8,00,00,00,00,50,00,00,04,
1435188,0000034F,false,Rx,0,2,FD,FF,00,00,00,00,00,00,
1435958,000000AA,false,Rx,0,8,68,5E,07,00,B8,0B,94,00,
1436180,000000A8,false,Rx,0,8,0C,0E,21,E0,21,1F,0F,04,
1436408,000000A9,false,Rx,0,8,F7,0E,79,DF,1D,C7,E0,21,
1436629,000000BA,false,Rx,0,7,08,FF,0F,00,00,60,8E,00,
1438252,00000497,false,Rx,0,8,29,42,FF,FF,FF,FF,FF,FF,
1443132,000000C4,false,Rx,0,7,E3,FD,FC,00,00,FF,F1,00,
1445908,000000AA,false,Rx,0,8,5A,50,07,00,B8,0B,94,00,
1446320,000000A8,false,Rx,0,8,FD,00,21,E0,21,1F,0F,04,
1446540,000000A9,false,Rx,0,8,E9,00,79,DF,1D,C7,E0,21,
1446761,000000BA,false,Rx,0,7,08,FF,0F,00,00,52,80,00,
1450452,000001D0,false,Rx,0,8,3C,77,66,C3,9C,9E,CD,82,
1453044,000000B6,false,Rx,0,5,FF,00,80,00,C8,00,00,00,
1453276,000000C4,false,Rx,0,7,E1,FD,FC,00,00,FF,F1,00,
1453496,000000CE,false,Rx,0,8,00,00,00,00,00,00,00,00,
1453716,0000019E,false,Rx,0,8,00,E0,6F,FC,FE,00,00,EB,
1454121,000001A0,false,Rx,0,8,00,80,00,00,00,00,00,22,
1454349,000002B2,false,Rx,0,8,00,00,00,00,50,00,00,04,
1456026,000000AA,false,Rx,0,8,5B,51,07,00,B8,0B,94,00,
1456256,000000A8,false,Rx,0,8,FE,01,21,E0,21,1F,0F,04,
1456476,000000A9,false,Rx,0,8,EA,01,79,DF,1D,C7,E0,21,
1456696,000000BA,false,Rx,0,7,08,FF,0F,00,00,53,81,00,
1463147,000000C4,false,Rx,0,7,E1,FD,FC,00,00,FF,F1,00,
1463411,00000194,false,Rx,0,4,E1,F0,00,F0,00,00,00,00,
1463416,000001D6,false,Rx,0,2,FF,F3,00,00,00,00,00,00,
1466005,000000AA,false,Rx,0,8,5C,52,07,00,B8,0B,94,00,
1466234,000000A8,false,Rx,0,8,FF,02,21,E0,21,1F,0F,04,
1466454,000000A9,false,Rx,0,8,EB,02,79,DF,1D,C7,E0,21,
1466674,000000BA,false,Rx,0,7,08,FF,0F,00,00,54,82,00,
1473098,000000B6,false,Rx,0,5,00,01,80,00,C8,00,00,00,
1473326,000000C4,false,Rx,0,7,DF,FD,FC,00,00,FF,F1,00,
1473546,000000CE,false,Rx,0,8,00,00,00,00,00,00,00,00,
1473947,0000019E,false,Rx,0,8,00,E0,6F,FC,FE,00,00,EB,
1474171,000001A0,false,Rx,0,8,00,80,00,D0,FF,00,10,02,
1474398,000002B2,false,Rx,0,8,00,00,00,00,50,00,00,04,
1475894,000000AA,false,Rx,0,8,5D,53,07,00,B8,0B,94,00,
1476306,000000A8,false,Rx,0,8,00,03,21,E0,21,1F,0F,04,
1476525,000000A9,false,Rx,0,8,EC,03,79,DF,1D,C7,E0,21,
1476745,000000BA,false,Rx,0,7,08,FF,0F,00,00,55,83,00,
1483091,000000C4,false,Rx,0,7,DC,FD,FC,1C,FF,FF,F1,00,
1486058,000000AA,false,Rx,0,8,5E,54,07,00,B8,0B,94,00,
1486288,000000A8,false,Rx,0,8,02,04,21,E0,21,1F,0F,04,
1486508,000000A9,false,Rx,0,8,ED,04,79,DF,1D,C7,E0,21,
1486728,000000BA,false,Rx,0,7,08,FF,0F,00,00,56,84,00,
1493229,000000B6,false,Rx,0,5,02,02,80,00,C8,00,00,00,
1493449,000000C4,false,Rx,0,7,DC,FD,FC,1C,FF,FF,F1,00,
1493669,000000CE,false,Rx,0,8,00,00,00,00,00,00,00,00,
1493890,0000019E,false,Rx,0,8,00,E0,6F,FC,FE,00,00,EB,
1494112,000001A0,false,Rx,0,8,00,80,00,00,00,00,20,42,
1494339,000002B2,false,Rx,0,8,00,00,00,00,50,00,00,04,
1496014,000000AA,false,Rx,0,8,5F,55,07,00,B8,0B,94,00,
1496245,000000A8,false,Rx,0,8,03,05,21,E0,21,1F,0F,04,
1496465,000000A9,false,Rx,0,8,EE,05,79,DF,1D,C7,E0,21,
1496685,000000BA,false,Rx,0,7,08,FF,0F,00,00,57,85,00,
1503190,000000C4,false,Rx,0,7,DC,FD,FC,00,00,FF,F1,00,
1505971,000000AA,false,Rx,0,8,60,56,07,00,B8,0B,94,00,
1506192,000000A8,false,Rx,0,8,04,06,21,E0,21,1F,0F,04,
1506420,000000A9,false,Rx,0,8,EF,06,79,DF,1D,C7,E0,21,
1506641,000000BA,false,Rx,0,7,08,FF,0F,00,00,58,86,00,
1506860,000001D2,false,Rx,0,5,78,0C,8F,20,F0,00,00,00,
1513102,000000B6,false,Rx,0,5,03,03,80,00,C8,00,00,00,
1513323,000000C4,false,Rx,0,7,DA,FD,FC,00,00,FF,F1,00,
1513543,000000CE,false,Rx,0,8,00,00,00,00,00,00,00,00,
1513763,0000019E,false,Rx,0,8,00,E0,6F,FC,FE,00,00,EB,
1513983,000001A0,false,Rx,0,8,00,80,00,F0,FF,00,30,43,
1514393,000002B2,false,Rx,0,8,00,00,00,00,50,00,00,04,
1514614,000001A6,false,Rx,0,8,74,05,D8,02,34,08,70,FC,
1515930,000000AA,false,Rx,0,8,61,57,07,00,B8,0B,94,00,
1516152,000000A8,false,Rx,0,8,05,07,21,E0,21,1F,0F,04,
1516380,000000A9,false,Rx,0,8,F0,07,79,DF,1D,C7,E0,21,
1516600,000000BA,false,Rx,0,7,08,FF,0F,00,00,59,87,00,
1521609,00000130,false,Rx,0,5,45,43,21,8F,DC,00,00,00,
1523333,000000C4,false,Rx,0,7,DA,FD,FC,00,00,FF,F1,00,
1523339,000000C8,false,Rx,0,6,DC,FD,2C,00,00,5C,00,00,
1523740,000001B4,false,Rx,0,8,00,D0,E2,F8,00,30,FC,8F,
1525967,000000AA,false,Rx,0,8,62,58,07,00,B8,0B,94,00,
1526190,000000A8,false,Rx,0,8,06,08,21,E0,21,1F,0F,04,
1526417,000000A9,false,Rx,0,8,F1,08,79,DF,1D,C7,E0,21,
1526638,000000BA,false,Rx,0,7,08,FF,0F,00,00,5A,88,00,
1533067,000000B6,false,Rx,0,5,04,04,80,00,C8,00,00,00,
1533296,000000C4,false,Rx,0,7,DA,FD,FC,00,00,FF,F1,00,
1533698,000000CE,false,Rx,0,8,00,00,00,00,00,00,00,00,
1533918,0000019E,false,Rx,0,8,00,E0,6F,FC,FE,00,00,EB,
1534140,000001A0,false,Rx,0,8,00,80,00,00,00,00,40,62,
1534367,000002B2,false,Rx,0,8,00,00,00,00,50,00,00,04,
1534587,000004A9,false,Rx,0,8,30,42,FF,FF,FF,FF,FF,FF,
1535901,000000AA,false,Rx,0,8,63,59,07,00,B8,0B,94,00,
1536313,000000A8,false,Rx,0,8,07,09,21,E0,21,1F,0F,04,
1536533,000000A9,false,Rx,0,8,F2,09,79,DF,1D,C7,E0,21,
1536754,000000BA,false,Rx,0,7,08,FF,0F,00,00,5B,89,00,
1543143,000000C4,false,Rx,0,7,D8,FD,FC,B5,FF,FF,F1,00,
1545940,000000AA,false,Rx,0,8,64,5A,07,00,B8,0B,94,00,
1546164,000000A8,false,Rx,0,8,08,0A,21,E0,21,1F,0F,04,
1546392,000000A9,false,Rx,0,8,F3,0A,79,DF,1D,C7,E0,21,
1546611,000000BA,false,Rx,0,7,08,FF,0F,00,00,5C,8A,00,
1550485,000001D0,false,Rx,0,8,3C,77,66,C3,9C,9E,CD,82,
1553075,000000B6,false,Rx,0,5,05,05,80,00,C8,00,00,00,
1553304,000000C4,false,Rx,0,7,D6,FD,FC,B5,FF,FF,F1,00,
1553524,000000CE,false,Rx,0,8,00,00,00,00,00,00,00,00,
1553745,0000019E,false,Rx,0,8,00,E0,6F,FC,FE,00,00,EB,
1554147,000001A0,false,Rx,0,8,00,80,00,F0,FF,00,50,63,
1554369,000002B2,false,Rx,0,8,00,00,00,00,50,00,00,04,
1556047,000000AA,false,Rx,0,8,65,5B,07,00,B8,0B,94,00,
1556277,000000A8,false,Rx,0,8,09,0B,21,E0,21,1F,0F,04,
1556498,000000A9,false,Rx,0,8,F4,0B,79,DF,1D,C7,E0,21,
1556718,000000BA,false,Rx,0,7,08,FF,0F,00,00,5D,8B,00,
1563296,000000C4,false,Rx,0,7,D6,FD,FC,00,00,FF,F1,00,
1563304,000001D6,false,Rx,0,2,FF,F3,00,00,00,00,00,00,
1565894,000000AA,false,Rx,0,8,66,5C,07,00,B8,0B,94,00,
1566305,000000A8,false,Rx,0,8,0A,0C,21,E0,21,1F,0F,04,
1566526,000000A9,false,Rx,0,8,F5,0C,79,DF,1D,C7,E0,21,
1566746,000000BA,false,Rx,0,7,08,FF,0F,00,00,5E,8C,00,
1573177,000000B6,false,Rx,0,5,06,06,80,00,C8,00,00,00,
1573403,000000C4,false,Rx,0,7,D3,FD,FC,00,00,FF,F1,00,
1573624,000000CE,false,Rx,0,8,00,00,00,00,00,00,00,00,
1573844,0000019E,false,Rx,0,8,00,E0,6F,FC,FE,00,00,EB,
1574065,000001A0,false,Rx,0,8,00,80,00,F0,FF,00,60,73,
1574296,000002B2,false,Rx,0,8,00,00,00,00,50,00,00,04,
1575972,000000AA,false,Rx,0,8,67,5D,07,00,B8,0B,94,00,
1576193,000000A8,false,Rx,0,8,0B,0D,21,E0,21,1F,0F,04,
1576421,000000A9,false,Rx,0,8,F6,0D,79,DF,1D,C7,E0,21,
1576642,000000BA,false,Rx,0,7,08,FF,0F,00,00,5F,8D,00,
1583131,000000C4,false,Rx,0,7,D3,FD,FC,00,00,FF,F1,00,
1585912,000000AA,false,Rx,0,8,68,5E,07,00,B8,0B,94,00,
1586136,000000A8,false,Rx,0,8,0C,0E,21,E0,21,1F,0F,04,
1586363,000000A9,false,Rx,0,8,F7,0E,79,DF,1D,C7,E0,21,
1586584,000000BA,false,Rx,0,7,08,FF,0F,00,00,60,8E,00,
1593191,000000B6,false,Rx,0,5,07,07,80,00,C8,00,00,00,
1593418,000000C4,false,Rx,0,7,D1,FD,FC,00,00,FF,F1,00,
1593639,000000CE,false,Rx,0,8,00,00,00,00,00,00,00,00,
1593859,0000019E,false,Rx,0,8,00,E0,6F,FC,FE,00,00,EB,
1594081,000001A0,false,Rx,0,8,00,80,00,F0,FF,00,70,83,
1594307,000002B2,false,Rx,0,8,00,00,00,00,50,00,00,04,
1595984,000000AA,false,Rx,0,8,5A,50,07,00,B8,0B,94,00,
1596208,000000A8,false,Rx,0,8,FD,00,21,E0,21,1F,0F,04,
1596436,000000A9,false,Rx,0,8,E9,00,79,DF,1D,C7,E0,21,
1596656,000000BA,false,Rx,0,7,08,FF,0F,00,00,52,80,00,
1603153,000000C4,false,Rx,0,7,CF,FD,FC,1C,FF,FF,F1,00,
1603383,000001FB,false,Rx,0,2,F5,FF,00,00,00,00,00,00,
1605976,000000AA,false,Rx,0,8,5B,51,07,00,B8,0B,94,00,
1606200,000000A8,false,Rx,0,8,FE,01,21,E0,21,1F,0F,04,
1606428,000000A9,false,Rx,0,8,EA,01,79,DF,1D,C7,E0,21,
1606649,000000BA,false,Rx,0,7,08,FF,0F,00,00,53,81,00,
1613081,000000B6,false,Rx,0,5,08,08,80,00,C8,00,00,00,
1613308,000000C4,false,Rx,0,7,CF,FD,FC,1C,FF,FF,F1,00,
1613529,000000CE,false,Rx,0,8,00,00,00,00,00,00,00,00,
1613749,0000019E,false,Rx,0,8,00,E0,6F,FC,FE,00,00,EB,
1613969,000001A0,false,Rx,0,8,00,80,00,F0,FF,00,80,93,
1614378,000002B2,false,Rx,0,8,00,00,00,00,50,00,00,04,
1614598,000001A6,false,Rx,0,8,74,05,D8,02,34,08,00,FE,
1615912,000000AA,false,Rx,0,8,5C,52,07,00,B8,0B,94,00,
1616136,000000A8,false,Rx,0,8,FF,02,21,E0,21,1F,0F,04,
1616363,000000A9,false,Rx,0,8,EB,02,79,DF,1D,C7,E0,21,
1616583,000000BA,false,Rx,0,7,08,FF,0F,00,00,54,82,00,
1621551,00000130,false,Rx,0,5,45,43,21,8F,ED,00,00,00,
1622930,000001B4,false,Rx,0,8,00,D0,E2,F9,00,30,FC,90,
1623151,000000C4,false,Rx,0,7,CC,FD,FC,8F,FF,FF,F1,00,
1625930,000000AA,false,Rx,0,8,5D,53,07,00,B8,0B,94,00,
1626153,000000A8,false,Rx,0,8,00,03,21,E0,21,1F,0F,04,
1626378,000000A9,false,Rx,0,8,EC,03,79,DF,1D,C7,E0,21,
1626598,000000BA,false,Rx,0,7,08,FF,0F,00,00,55,83,00,
1632480,000004B0,false,Rx,0,8,00,42,FE,01,FF,FF,FF,FF,
1633062,000000B6,false,Rx,0,5,09,09,80,00,C8,00,00,00,
1633291,000000C4,false,Rx,0,7,CC,FD,FC,8F,FF,FF,F1,00,
1633511,000000CE,false,Rx,0,8,00,00,00,00,00,00,00,00,
1633912,0000019E,false,Rx,0,8,00,E0,6F,FC,FE,00,00,EB,
1634133,000001A0,false,Rx,0,8,00,80,00,F0,FF,00,90,A3,
1634360,000002B2,false,Rx,0,8,00,00,00,00,50,00,00,04,
1636035,000000AA,false,Rx,0,8,5E,54,07,00,B8,0B,94,00,
1636264,000000A8,false,Rx,0,8,02,04,21,E0,21,1F,0F,04,
1636483,000000A9,false,Rx,0,8,ED,04,79,DF,1D,C7,E0,21,
1636704,000000BA,false,Rx,0,7,08,FF,0F,00,00,56,84,00,
1643156,000000C4,false,Rx,0,7,C8,FD,FC,1C,FF,FF,F1,00,
1645984,000000AA,false,Rx,0,8,5F,55,07,00,B8,0B,94,00,
1646215,000000A8,false,Rx,0,8,03,05,21,E0,21,1F,0F,04,
1646471,000000A9,false,Rx,0,8,EE,05,79,DF,1D,C7,E0,21,
1646699,000000BA,false,Rx,0,7,08,FF,0F,00,00,57,85,00,
1650576,000001D0,false,Rx,0,8,3C,77,67,C3,9C,9E,CD,82,
1652987,000000B6,false,Rx,0,5,0A,0A,80,00,C8,00,00,00,
1653211,000000C4,false,Rx,0,7,C6,FD,FC,1C,FF,FF,F1,00,
1653620,000000CE,false,Rx,0,8,00,00,00,00,00,00,00,00,
1653840,0000019E,false,Rx,0,8,00,E0,7F,FC,FE,00,00,FB,
1654060,000001A0,false,Rx,0,8,00,80,00,F0,FF,03,A0,B6,
1654291,000002B2,false,Rx,0,8,00,00,00,00,50,00,00,04,
1655968,000000AA,false,Rx,0,8,60,56,07,00,B8,0B,94,00,
1656190,000000A8,false,Rx,0,8,04,06,21,E0,21,1F,0F,04,
1656417,000000A9,false,Rx,0,8,EF,06,79,DF,1D,C7,E0,21,
1656638,000000BA,false,Rx,0,7,08,FF,0F,00,00,58,86,00,
1663308,000000C4,false,Rx,0,7,C3,FD,FC,1C,FF,FF,F1,00,
1663317,00000194,false,Rx,0,4,E2,F1,00,F0,00,00,00,00,
1663594,000001D6,false,Rx,0,2,FF,F3,00,00,00,00,00,00,
1663599,000002A6,false,Rx,0,2,00,FC,00,00,00,00,00,00,
1666031,000000AA,false,Rx,0,8,61,57,07,00,B8,0B,94,00,
1666261,000000A8,false,Rx,0,8,05,07,21,E0,21,1F,0F,04,
1666482,000000A9,false,Rx,0,8,F0,07,79,DF,1D,C7,E0,21,
1666702,000000BA,false,Rx,0,7,08,FF,0F,00,00,59,87,00,
1668199,000003B0,false,Rx,0,2,FD,FF,00,00,00,00,00,00,
1673170,000000B6,false,Rx,0,5,0B,0B,80,00,C8,00,00,00,
1673397,000000C4,false,Rx,0,7,C1,FD,FC,1C,FF,FF,F1,00,
1673618,000000CE,false,Rx,0,8,00,00,00,00,00,00,00,00,
1674019,0000019E,false,Rx,0,8,00,E0,7F,FC,FE,00,00,FB,
1674249,000001A0,false,Rx,0,8,00,80,00,00,00,00,B0,D2,
1674469,000002B2,false,Rx,0,8,00,00,00,00,50,00,00,04,
1675964,000000AA,false,Rx,0,8,62,58,07,00,B8,0B,94,00,
1676186,000000A8,false,Rx,0,8,06,08,21,E0,21,1F,0F,04,
1676413,000000A9,false,Rx,0,8,F1,08,79,DF,1D,C7,E0,21,
1676634,000000BA,false,Rx,0,7,08,FF,0F,00,00,5A,88,00,
1683129,000000C4,false,Rx,0,7,BF,FD,FC,1C,FF,FF,F1,00,
1685908,000000AA,false,Rx,0,8,63,59,07,00,B8,0B,94,00,
1686132,000000A8,false,Rx,0,8,07,09,21,E0,21,1F,0F,04,
1686358,000000A9,false,Rx,0,8,F2,09,79,DF,1D,C7,E0,21,
1686579,000000BA,false,Rx,0,7,08,FF,0F,00,00,5B,89,00,
1693184,000000B6,false,Rx,0,5,0C,0C,80,00,C8,00,00,00,
1693411,000000C4,false,Rx,0,7,BD,FD,FC,1C,FF,FF,F1,00,
1693632,000000CE,false,Rx,0,8,00,00,00,00,00,00,00,00,
1693852,0000019E,false,Rx,0,8,00,E0,7F,FC,FE,00,00,FB,
1694072,000001A0,false,Rx,0,8,00,80,00,F0,FF,00,C0,D3,
1694302,000002B2,false,Rx,0,8,00,00,00,00,50,00,00,04,
1695979,000000AA,false,Rx,0,8,64,5A,07,00,B8,0B,94,00,
1696202,000000A8,false,Rx,0,8,08,0A,21,E0,21,1F,0F,04,
1696430,000000A9,false,Rx,0,8,F3,0A,79,DF,1D,C7,E0,21,
1696650,000000BA,false,Rx,0,7,08,FF,0F,00,00,5C,8A,00,
1703137,000000C4,false,Rx,0,7,BA,FD,FC,1C,FF,FF,F1,00,
1705916,000000AA,false,Rx,0,8,65,5B,07,00,B8,0B,94,00,
1706138,000000A8,false,Rx,0,8,09,0B,21,E0,21,1F,0F,04,
1706365,000000A9,false,Rx,0,8,F4,0B,79,DF,1D,C7,E0,21,
1706586,000000BA,false,Rx,0,7,08,FF,0F,00,00,5D,8B,00,
1706806,000001D2,false,Rx,0,5,78,0C,8F,30,F0,00,00,00,
1713049,000000B6,false,Rx,0,5,0D,0D,80,00,C8,00,00,00,
1713279,000000C4,false,Rx,0,7,B8,FD,FC,1C,FF,FF,F1,00,
1713498,000000CE,false,Rx,0,8,00,00,00,00,00,00,00,00,
1713719,0000019E,false,Rx,0,8,00,E0,7F,FC,FE,00,00,FB,
1714121,000001A0,false,Rx,0,8,00,80,00,F0,FF,00,D0,E3,
1714348,000002B2,false,Rx,0,8,00,00,00,00,50,00,00,04,
1714568,000001A6,false,Rx,0,8,74,05,D8,02,34,08,90,FF,
1714788,00000374,false,Rx,0,5,00,FB,00,FC,FD,00,00,00,
1715920,000000AA,false,Rx,0,8,66,5C,07,00,B8,0B,94,00,
1716141,000000A8,false,Rx,0,8,0A,0C,21,E0,21,1F,0F,04,
1716367,000000A9,false,Rx,0,8,F5,0C,79,DF,1D,C7,E0,21,
1716587,000000BA,false,Rx,0,7,08,FF,0F,00,00,5E,8C,00,
1718083,00000480,false,Rx,0,8,17,42,FD,FF,FF,FF,FF,FF,
1721581,00000130,false,Rx,0,5,45,43,21,8F,FE,00,00,00,
1723150,000000C4,false,Rx,0,7,B3,FD,FC,37,FE,FF,F1,00,
1723377,000000C8,false,Rx,0,6,B5,FD,7C,39,FE,5C,00,00,
1723597,000001B4,false,Rx,0,8,00,D0,E2,FA,00,30,FC,91,
1726005,000000AA,false,Rx,0,8,67,5D,07,00,B8,0B,94,00,
1726233,000000A8,false,Rx,0,8,0B,0D,21,E0,21,1F,0F,04,
1726454,000000A9,false,Rx,0,8,F6,0D,79,DF,1D,C7,E0,21,
1726674,000000BA,false,Rx,0,7,08,FF,0F,00,00,5F,8D,00,
1733102,000000B6,false,Rx,0,5,0E,0E,80,00,C8,00,00,00,
1733328,000000C4,false,Rx,0,7,B1,FD,FC,37,FE,FF,F1,00,
1733549,000000CE,false,Rx,0,8,00,00,00,00,00,00,00,00,
1733769,0000019E,false,Rx,0,8,00,E0,7F,FC,FE,00,00,FB,
1734175,000001A0,false,Rx,0,8,00,80,00,F0,FF,00,E0,F3,
1734394,000002B2,false,Rx,0,8,00,00,00,00,50,00,00,04,
1735899,000000AA,false,Rx,0,8,68,5E,07,00,B8,0B,94,00,
1736309,000000A8,false,Rx,0,8,0C,0E,21,E0,21,1F,0F,04,
1736528,000000A9,false,Rx,0,8,F7,0E,79,DF,1D,C7,E0,21,
1736749,000000BA,false,Rx,0,7,08,FF,0F,00,00,60,8E,00,
1743181,000000C4,false,Rx,0,7,AD,FD,FC,37,FE,FF,F1,00,
1746036,000000AA,false,Rx,0,8,5A,50,07,00,B8,0B,94,00,
1746267,000000A8,false,Rx,0,8,FD,00,21,E0,21,1F,0F,04,
1746488,000000A9,false,Rx,0,8,E9,00,79,DF,1D,C7,E0,21,
1746719,000000BA,false,Rx,0,7,08,FF,0F,00,00,52,80,00,
1750437,000001D0,false,Rx,0,8,3C,77,67,C3,9C,9E,CD,82,
1753028,000000B6,false,Rx,0,5,FF,00,80,00,C8,00,00,00,
1753256,000000C4,false,Rx,0,7,AA,FD,FC,37,FE,FF,F1,00,
1753476,000000CE,false,Rx,0,8,00,00,00,00,00,00,00,00,
1753877,0000019E,false,Rx,0,8,00,E0,7F,FC,FE,00,00,FB,
1754098,000001A0,false,Rx,0,8,00,80,00,F0,FF,00,00,13,
1754325,000002B2,false,Rx,0,8,00,00,00,00,50,00,00,04,
1756002,000000AA,false,Rx,0,8,5B,51,07,00,B8,0B,94,00,
1756232,000000A8,false,Rx,0,8,FE,01,21,E0,21,1F,0F,04,
1756452,000000A9,false,Rx,0,8,EA,01,79,DF,1D,C7,E0,21,
1756672,000000BA,false,Rx,0,7,08,FF,0F,00,00,53,81,00,
1763150,000000C4,false,Rx,0,7,A8,FD,FC,1C,FF,FF,F1,00,
1763380,000001D6,false,Rx,0,2,FF,F3,00,00,00,00,00,00,
1765971,000000AA,false,Rx,0,8,5C,52,07,00,B8,0B,94,00,
1766193,000000A8,false,Rx,0,8,FF,02,21,E0,21,1F,0F,04,
1766421,000000A9,false,Rx,0,8,EB,02,79,DF,1D,C7,E0,21,
1766641,000000BA,false,Rx,0,7,08,FF,0F,00,00,54,82,00,
1773262,000000B6,false,Rx,0,5,00,01,80,00,C8,00,00,00,
1773482,000000C4,false,Rx,0,7,A6,FD,FC,1C,FF,FF,F1,00,
1773702,000000CE,false,Rx,0,8,00,00,00,00,00,00,00,00,
1773923,0000019E,false,Rx,0,8,00,E0,7F,FC,FE,00,00,FB,
1774150,000001A0,false,Rx,0,8,00,80,00,F0,FF,00,10,23,
1774377,000002B2,false,Rx,0,8,00,00,00,00,50,00,00,04,
1776052,000000AA,false,Rx,0,8,5D,53,07,00,B8,0B,94,00,
1776281,000000A8,false,Rx,0,8,00,03,21,E0,21,1F,0F,04,
1776502,000000A9,false,Rx,0,8,EC,03,79,DF,1D,C7,E0,21,
1776722,000000BA,false,Rx,0,7,08,FF,0F,00,00,55,83,00,
1783143,000000C4,false,Rx,0,7,A3,FD,FC,1C,FF,FF,F1,00,
1785949,000000AA,false,Rx,0,8,5E,54,07,00,B8,0B,94,00,
1786170,000000A8,false,Rx,0,8,02,04,21,E0,21,1F,0F,04,
1786397,000000A9,false,Rx,0,8,ED,04,79,DF,1D,C7,E0,21,
1786618,000000BA,false,Rx,0,7,08,FF,0F,00,00,56,84,00,
1793278,000000B6,false,Rx,0,5,02,02,80,00,C8,00,00,00,
1793502,000000C4,false,Rx,0,7,A1,FD,FC,1C,FF,FF,F1,00,
1793721,000000CE,false,Rx,0,8,00,00,00,00,00,00,00,00,
1793941,0000019E,false,Rx,0,8,00,E0,7F,FC,FE,00,00,FB,
1794166,000001A0,false,Rx,0,8,00,80,00,F0,FF,00,20,33,
1794393,000001FB,false,Rx,0,2,F6,FF,00,00,00,00,00,00,
1794613,000002B2,false,Rx,0,8,00,00,00,00,50,00,00,04,
1795957,000000AA,false,Rx,0,8,5F,55,07,00,B8,0B,94,00,
1796179,000000A8,false,Rx,0,8,03,05,21,E0,21,1F,0F,04,
1796407,000000A9,false,Rx,0,8,EE,05,79,DF,1D,C7,E0,21,
1796627,000000BA,false,Rx,0,7,08,FF,0F,00,00,57,85,00,
1803330,000000C4,false,Rx,0,7,9F,FD,FC,1C,FF,FF,F1,00,
1805927,000000AA,false,Rx,0,8,60,56,07,00,B8,0B,94,00,
1806149,000000A8,false,Rx,0,8,04,06,21,E0,21,1F,0F,04,
1806377,000000A9,false,Rx,0,8,EF,06,79,DF,1D,C7,E0,21,
1806597,000000BA,false,Rx,0,7,08,FF,0F,00,00,58,86,00,
1813211,000000B6,false,Rx,0,5,03,03,80,00,C8,00,00,00,
1813433,000000C4,false,Rx,0,7,9D,FD,FC,1C,FF,FF,F1,00,
1813653,000000CE,false,Rx,0,8,00,00,00,00,00,00,00,00,
1813874,0000019E,false,Rx,0,8,00,E0,7F,FC,FE,00,00,FB,
1814098,000001A0,false,Rx,0,8,00,80,00,F0,FF,00,30,43,
1814325,000002B2,false,Rx,0,8,00,00,00,00,50,00,00,04,
1814558,000001A6,false,Rx,0,8,74,05,D8,02,34,08,20,F1,
1815892,000000AA,false,Rx,0,8,61,57,07,00,B8,0B,94,00,
1816302,000000A8,false,Rx,0,8,05,07,21,E0,21,1F,0F,04,
1816523,000000A9,false,Rx,0,8,F0,07,79,DF,1D,C7,E0,21,
1816743,000000BA,false,Rx,0,7,08,FF,0F,00,00,59,87,00,
1817711,00000497,false,Rx,0,8,29,42,FF,FF,FF,FF,FF,FF,
1822222,00000130,false,Rx,0,5,45,43,21,8F,00,00,00,00,
1823177,000000C4,false,Rx,0,7,9D,FD,FC,00,00,FF,F1,00,
1824679,000001B4,false,Rx,0,8,00,D0,E2,FB,00,30,FC,92,
1825993,000000AA,false,Rx,0,8,62,58,07,00,B8,0B,94,00,
1826216,000000A8,false,Rx,0,8,06,08,21,E0,21,1F,0F,04,
1826443,000000A9,false,Rx,0,8,F1,08,79,DF,1D,C7,E0,21,
1826663,000000BA,false,Rx,0,7,08,FF,0F,00,00,5A,88,00,
1833094,000000B6,false,Rx,0,5,04,04,80,00,C8,00,00,00,
1833316,000000C4,false,Rx,0,7,9A,FD,FC,00,00,FF,F1,00,
1833535,000000CE,false,Rx,0,8,00,00,00,00,00,00,00,00,
1833937,0000019E,false,Rx,0,8,00,E0,7F,FC,FE,00,00,FB,
1834158,000001A0,false,Rx,0,8,00,80,00,00,00,00,40,62,
1834380,000002B2,false,Rx,0,8,00,00,00,00,50,00,00,04,
1836058,000000AA,false,Rx,0,8,63,59,07,00,B8,0B,94,00,
1836288,000000A8,false,Rx,0,8,07,09,21,E0,21,1F,0F,04,
1836509,000000A9,false,Rx,0,8,F2,09,79,DF,1D,C7,E0,21,
1836729,000000BA,false,Rx,0,7,08,FF,0F,00,00,5B,89,00,
1843174,000000C4,false,Rx,0,7,98,FD,FC,1C,FF,FF,F1,00,
1845957,000000AA,false,Rx,0,8,64,5A,07,00,B8,0B,94,00,
1846179,000000A8,false,Rx,0,8,08,0A,21,E0,21,1F,0F,04,
1846407,000000A9,false,Rx,0,8,F3,0A,79,DF,1D,C7,E0,21,
1846627,000000BA,false,Rx,0,7,08,FF,0F,00,00,5C,8A,00,
1850524,000001D0,false,Rx,0,8,3C,77,68,C3,9C,9E,CD,82,
1853127,000000B6,false,Rx,0,5,05,05,80,00,C8,00,00,00,
1853353,000000C4,false,Rx,0,7,98,FD,FC,1C,FF,FF,F1,00,
1853573,000000CE,false,Rx,0,8,00,00,00,00,00,00,00,00,
1853794,0000019E,false,Rx,0,8,00,E0,8F,FC,FE,00,00,0C,
1854015,000001A0,false,Rx,0,8,00,80,00,00,00,00,50,72,
1854244,000002B2,false,Rx,0,8,00,00,00,00,50,00,00,04,
1855920,000000AA,false,Rx,0,8,65,5B,07,00,B8,0B,94,00,
1856142,000000A8,false,Rx,0,8,09,0B,21,E0,21,1F,0F,04,
1856369,000000A9,false,Rx,0,8,F4,0B,79,DF,1D,C7,E0,21,
1856590,000000BA,false,Rx,0,7,08,FF,0F,00,00,5D,8B,00,
1862683,00000330,false,Rx,0,8,F3,57,06,1F,20,1F,1C,49,
1863089,000000C4,false,Rx,0,7,95,FD,FC,8F,FF,FF,F1,00,
1863315,00000194,false,Rx,0,4,E3,F2,00,F0,00,00,00,00,
1863534,000001D6,false,Rx,0,2,FF,F3,00,00,00,00,00,00,
1864666,000002F8,false,Rx,0,8,0B,09,15,13,BF,E8,07,FD,
1865980,000000AA,false,Rx,0,8,66,5C,07,00,B8,0B,94,00,
1866203,000000A8,false,Rx,0,8,0A,0C,21,E0,21,1F,0F,04,
1866430,000000A9,false,Rx,0,8,F5,0C,79,DF,1D,C7,E0,21,
1866650,000000BA,false,Rx,0,7,08,FF,0F,00,00,5E,8C,00,
1873276,000000B6,false,Rx,0,5,06,06,80,00,C8,00,00,00,
1873496,000000C4,false,Rx,0,7,95,FD,FC,8F,FF,FF,F1,00,
1873716,000000CE,false,Rx,0,8,00,00,00,00,00,00,00,00,
1873936,0000019E,false,Rx,0,8,00,E0,8F,FC,FE,00,00,0C,
1874157,000001A0,false,Rx,0,8,00,80,00,00,00,00,60,82,
1874385,000002B2,false,Rx,0,8,00,00,00,00,50,00,00,04,
1876061,000000AA,false,Rx,0,8,67,5D,07,00,B8,0B,94,00,
1876292,000000A8,false,Rx,0,8,0B,0D,21,E0,21,1F,0F,04,
1876512,000000A9,false,Rx,0,8,F6,0D,79,DF,1D,C7,E0,21,
1876732,000000BA,false,Rx,0,7,08,FF,0F,00,00,5F,8D,00,
1883138,000000C4,false,Rx,0,7,95,FD,FC,00,00,FF,F1,00,
1885976,000000AA,false,Rx,0,8,68,5E,07,00,B8,0B,94,00,
1886209,000000A8,false,Rx,0,8,0C,0E,21,E0,21,1F,0F,04,
1886439,000000A9,false,Rx,0,8,F7,0E,79,DF,1D,C7,E0,21,
1886671,000000BA,false,Rx,0,7,08,FF,0F,00,00,60,8E,00,
1893098,000000B6,false,Rx,0,5,07,07,80,00,C8,00,00,00,
1893326,000000C4,false,Rx,0,7,95,FD,FC,00,00,FF,F1,00,
1893727,000000CE,false,Rx,0,8,00,00,00,00,00,00,00,00,
1893947,0000019E,false,Rx,0,8,00,E0,8F,FC,FE,00,00,0C,
1894171,000001A0,false,Rx,0,8,00,80,00,00,00,00,70,92,
1894398,000002B2,false,Rx,0,8,00,00,00,00,50,00,00,04,
1895894,000000AA,false,Rx,0,8,5A,50,07,00,B8,0B,94,00,
1896305,000000A8,false,Rx,0,8,FD,00,21,E0,21,1F,0F,04,
1896524,000000A9,false,Rx,0,8,E9,00,79,DF,1D,C7,E0,21,
1896744,000000BA,false,Rx,0,7,08,FF,0F,00,00,52,80,00,
1903106,000000C4,false,Rx,0,7,95,FD,FC,00,00,FF,F1,00,
1905891,000000AA,false,Rx,0,8,5B,51,07,00,B8,0B,94,00,
1906795,000000A8,false,Rx,0,8,FE,01,21,E0,21,1F,0F,04,
1906801,000000A9,false,Rx,0,8,EA,01,79,DF,1D,C7,E0,21,
1906807,000000BA,false,Rx,0,7,08,FF,0F,00,00,53,81,00,
1906812,000001D2,false,Rx,0,5,78,0C,8F,40,F0,00,00,00,
1913076,000000B6,false,Rx,0,5,08,08,80,00,C8,00,00,00,
1913304,000000C4,false,Rx,0,7,95,FD,FC,00,00,FF,F1,00,
1913525,000000CE,false,Rx,0,8,00,00,00,00,00,00,00,00,
1913745,0000019E,false,Rx,0,8,00,E0,8F,FC,FE,00,00,0C,
1914148,000001A0,false,Rx,0,8,00,80,00,F0,FF,00,80,93,
1914376,000002B2,false,Rx,0,8,00,00,00,00,50,00,00,04,
1914596,000001A6,false,Rx,0,8,74,05,D8,02,34,08,B0,F2,
1914816,000004A9,false,Rx,0,8,30,42,FF,FF,FF,FF,FF,FF,
1915949,000000AA,false,Rx,0,8,5C,52,07,00,B8,0B,94,00,
1916171,000000A8,false,Rx,0,8,FF,02,21,E0,21,1F,0F,04,
1916398,000000A9,false,Rx,0,8,EB,02,79,DF,1D,C7,E0,21,
1916619,000000BA,false,Rx,0,7,08,FF,0F,00,00,54,82,00,
1921543,00000130,false,Rx,0,5,45,43,21,8F,11,00,00,00,
1923136,000000C4,false,Rx,0,7,95,FD,FC,00,00,FF,F1,00,
1923363,000000C8,false,Rx,0,6,98,FD,CC,00,00,5C,00,00,
1923583,000001B4,false,Rx,0,8,00,D0,E2,FC,00,30,FC,93,
1925990,000000AA,false,Rx,0,8,5D,53,07,00,B8,0B,94,00,
1926212,000000A8,false,Rx,0,8,00,03,21,E0,21,1F,0F,04,
1926439,000000A9,false,Rx,0,8,EC,03,79,DF,1D,C7,E0,21,
1926659,000000BA,false,Rx,0,7,08,FF,0F,00,00,55,83,00,
1933091,000000B6,false,Rx,0,5,09,09,80,00,C8,00,00,00,
1933313,000000C4,false,Rx,0,7,95,FD,FC,00,00,FF,F1,00,
1933533,000000CE,false,Rx,0,8,00,00,00,00,00,00,00,00,
1933753,0000019E,false,Rx,0,8,00,E0,8F,FC,FE,00,00,0C,
1934156,000001A0,false,Rx,0,8,00,80,00,F0,FF,00,90,A3,
1934375,000002B2,false,Rx,0,8,00,00,00,00,50,00,00,04,
1936057,000000AA,false,Rx,0,8,5E,54,07,00,B8,0B,94,00,
1936289,000000A8,false,Rx,0,8,02,04,21,E0,21,1F,0F,04,
1936509,000000A9,false,Rx,0,8,ED,04,79,DF,1D,C7,E0,21,
1936729,000000BA,false,Rx,0,7,08,FF,0F,00,00,56,84,00,
1943158,000000C4,false,Rx,0,7,95,FD,FC,00,00,FF,F1,00,
1945939,000000AA,false,Rx,0,8,5F,55,07,00,B8,0B,94,00,
1946164,000000A8,false,Rx,0,8,03,05,21,E0,21,1F,0F,04,
1946392,000000A9,false,Rx,0,8,EE,05,79,DF,1D,C7,E0,21,
1946612,000000BA,false,Rx,0,7,08,FF,0F,00,00,57,85,00,
1950489,000001D0,false,Rx,0,8,3C,77,68,C3,9C,9E,CD,82,
1953112,000000B6,false,Rx,0,5,0A,0A,80,00,C8,00,00,00,
1953339,000000C4,false,Rx,0,7,95,FD,FC,00,00,FF,F1,00,
1953560,000000CE,false,Rx,0,8,00,00,00,00,00,00,00,00,
1953780,0000019E,false,Rx,0,8,00,E0,8F,FC,FE,00,00,0C,
1954000,000001A0,false,Rx,0,8,00,80,00,F0,FF,00,A0,B3,
1954232,000002B2,false,Rx,0,8,00,00,00,00,50,00,00,04,
1955908,000000AA,false,Rx,0,8,60,56,07,00,B8,0B,94,00,
1956133,000000A8,false,Rx,0,8,04,06,21,E0,21,1F,0F,04,
1956360,000000A9,false,Rx,0,8,EF,06,79,DF,1D,C7,E0,21,
1956580,000000BA,false,Rx,0,7,08,FF,0F,00,00,58,86,00,
1963208,000000C4,false,Rx,0,7,95,FD,FC,00,00,FF,F1,00,
1963215,000001D6,false,Rx,0,2,FF,F3,00,00,00,00,00,00,
1966048,000000AA,false,Rx,0,8,61,57,07,00,B8,0B,94,00,
1966280,000000A8,false,Rx,0,8,05,07,21,E0,21,1F,0F,04,
1966500,000000A9,false,Rx,0,8,F0,07,79,DF,1D,C7,E0,21,
1966720,000000BA,false,Rx,0,7,08,FF,0F,00,00,59,87,00,
1973146,000000B6,false,Rx,0,5,0B,0B,80,00,C8,00,00,00,
1973373,000000C4,false,Rx,0,7,95,FD,FC,00,00,FF,F1,00,
1973592,000000CE,false,Rx,0,8,00,00,00,00,00,00,00,00,
1973813,0000019E,false,Rx,0,8,00,E0,8F,FC,FE,00,00,0C,
1974215,000001A0,false,Rx,0,8,00,80,00,F0,FF,00,B0,C3,
1974442,000002B2,false,Rx,0,8,00,00,00,00,50,00,00,04,
1975939,000000AA,false,Rx,0,8,62,58,07,00,B8,0B,94,00,
1976161,000000A8,false,Rx,0,8,06,08,21,E0,21,1F,0F,04,
1976388,000000A9,false,Rx,0,8,F1,08,79,DF,1D,C7,E0,21,
1976608,000000BA,false,Rx,0,7,08,FF,0F,00,00,5A,88,00,
1983256,000000C4,false,Rx,0,7,95,FD,FC,00,00,FF,F1,00,
1983263,000001FB,false,Rx,0,2,F7,FF,00,00,00,00,00,00,
1986034,000000AA,false,Rx,0,8,63,59,07,00,B8,0B,94,00,
1986263,000000A8,false,Rx,0,8,07,09,21,E0,21,1F,0F,04,
1986483,000000A9,false,Rx,0,8,F2,09,79,DF,1D,C7,E0,21,
1986703,000000BA,false,Rx,0,7,08,FF,0F,00,00,5B,89,00,
1993134,000000B6,false,Rx,0,5,0C,0C,80,00,C8,00,00,00,
1993362,000000C4,false,Rx,0,7,95,FD,FC,00,00,FF,F1,00,
1993582,000000CE,false,Rx,0,8,00,00,00,00,00,00,00,00,
1993983,0000019E,false,Rx,0,8,00,E0,8F,FC,FE,00,00,0C,
1994206,000001A0,false,Rx,0,8,00,80,00,F0,FF,00,C0,D3,
1994433,000002B2,false,Rx,0,8,00,00,00,00,50,00,00,04,
1995931,000000AA,false,Rx,0,8,64,5A,07,00,B8,0B,94,00,
1996155,000000A8,false,Rx,0,8,08,0A,21,E0,21,1F,0F,04,
1996382,000000A9,false,Rx,0,8,F3,0A,79,DF,1D,C7,E0,21,
1996602,000000BA,false,Rx,0,7,08,FF,0F,00,00,5C,8A,00,
2003099,000000C4,false,Rx,0,7,95,FD,FC,00,00,FF,F1,00,
2006063,000000AA,false,Rx,0,8,65,5B,07,00,B8,0B,94,00,
2006292,000000A8,false,Rx,0,8,09,0B,21,E0,21,1F,0F,04,
2006512,000000A9,false,Rx,0,8,F4,0B,79,DF,1D,C7,E0,21,
2006732,000000BA,false,Rx,0,7,08,FF,0F,00,00,5D,8B,00,
2012256,000004B0,false,Rx,0,8,00,42,FE,01,FF,FF,FF,FF,
2013204,000000B6,false,Rx,0,5,0D,0D,80,00,C8,00,00,00,
2013425,000000C4,false,Rx,0,7,95,FD,FC,00,00,FF,F1,00,
2013646,000000CE,false,Rx,0,8,00,00,00,00,00,00,00,00,
2013866,0000019E,false,Rx,0,8,00,E0,8F,FC,FE,00,00,0C,
2014090,000001A0,false,Rx,0,8,00,80,00,F0,FF,00,D0,E3,
2014317,000002B2,false,Rx,0,8,00,00,00,00,50,00,00,04,
2014538,000001A6,false,Rx,0,8,74,05,D8,02,34,08,40,F4,
2016036,000000AA,false,Rx,0,8,66,5C,07,00,B8,0B,94,00,
2016268,000000A8,false,Rx,0,8,0A,0C,21,E0,21,1F,0F,04,
2016488,000000A9,false,Rx,0,8,F5,0C,79,DF,1D,C7,E0,21,
2016708,000000BA,false,Rx,0,7,08,FF,0F,00,00,5E,8C,00,
2021630,00000130,false,Rx,0,5,45,43,21,8F,22,00,00,00,
2022783,000001B4,false,Rx,0,8,00,D0,E2,FD,00,30,FC,94,
2023205,000000C4,false,Rx,0,7,95,FD,FC,00,00,FF,F1,00,
2026040,000000AA,false,Rx,0,8,67,5D,07,00,B8,0B,94,00,
2026270,000000A8,false,Rx,0,8,0B,0D,21,E0,21,1F,0F,04,
2026491,000000A9,false,Rx,0,8,F6,0D,79,DF,1D,C7,E0,21,
2026710,000000BA,false,Rx,0,7,08,FF,0F,00,00,5F,8D,00,
2030949,000001B5,false,Rx,0,6,00,FF,02,10,8A,FF,00,00,
2033177,000000B6,false,Rx,0,5,0E,0E,80,00,C8,00,00,00,
2033398,000000C4,false,Rx,0,7,95,FD,FC,00,00,FF,F1,00,
2033618,000000CE,false,Rx,0,8,00,00,00,00,00,00,00,00,
2033839,0000019E,false,Rx,0,8,00,E0,8F,FC,FE,00,00,0C,
2034060,000001A0,false,Rx,0,8,00,80,00,00,00,00,E0,03,
2034291,000002B2,false,Rx,0,8,00,00,00,00,50,00,00,04,
2035968,000000AA,false,Rx,0,8,68,5E,07,00,B8,0B,94,00,
2036190,000000A8,false,Rx,0,8,0C,0E,21,E0,21,1F,0F,04,
2036417,000000A9,false,Rx,0,8,F7,0E,79,DF,1D,C7,E0,21,
2036638,000000BA,false,Rx,0,7,08,FF,0F,00,00,60,8E,00,
2043112,000000C4,false,Rx,0,7,95,FD,FC,00,00,FF,F1,00,
2045932,000000AA,false,Rx,0,8,5A,50,07,00,B8,0B,94,00,
2046155,000000A8,false,Rx,0,8,FD,00,21,E0,21,1F,0F,04,
2046386,000000A9,false,Rx,0,8,E9,00,79,DF,1D,C7,E0,21,
2046616,000000BA,false,Rx,0,7,08,FF,0F,00,00,52,80,00,
2050555,000001D0,false,Rx,0,8,3C,77,69,C3,9C,9E,CD,82,
2053146,000000B6,false,Rx,0,5,FF,00,80,00,C8,00,00,00,
2053373,000000C4,false,Rx,0,7,95,FD,FC,00,00,FF,F1,00,
2053592,000000CE,false,Rx,0,8,00,00,00,00,00,00,00,00,
2053813,0000019E,false,Rx,0,8,00,E0,8F,FC,FE,00,00,0C,
2054045,000001A0,false,Rx,0,8,00,80,00,F0,FF,00,00,13,
2054282,000002B2,false,Rx,0,8,00,00,00,00,50,00,00,04,
2055959,000000AA,false,Rx,0,8,5B,51,07,00,B8,0B,94,00,
2056189,000000A8,false,Rx,0,8,FE,01,21,E0,21,1F,0F,04,
2056416,000000A9,false,Rx,0,8,EA,01,79,DF,1D,C7,E0,21,
2056636,000000BA,false,Rx,0,7,08,FF,0F,00,00,53,81,00,
2062620,00000335,false,Rx,0,8,00,1C,10,00,00,9B,00,00,
2063244,000000C4,false,Rx,0,7,95,FD,FC,00,00,FF,F1,00,
2063517,00000194,false,Rx,0,4,E4,F3,00,F0,00,00,00,00,
2063523,000001D6,false,Rx,0,2,FF,F3,00,00,00,00,00,00,
2065956,000000AA,false,Rx,0,8,5C,52,07,00,B8,0B,94,00,
2066178,000000A8,false,Rx,0,8,FF,02,21,E0,21,1F,0F,04,
2066405,000000A9,false,Rx,0,8,EB,02,79,DF,1D,C7,E0,21,
2066626,000000BA,false,Rx,0,7,08,FF,0F,00,00,54,82,00,
2073240,000000B6,false,Rx,0,5,00,01,80,00,C8,00,00,00,
2073460,000000C4,false,Rx,0,7,95,FD,FC,00,00,FF,F1,00,
2073680,000000CE,false,Rx,0,8,00,00,00,00,00,00,00,00,
2073901,0000019E,false,Rx,0,8,00,E0,9F,FC,FE,00,00,1C,
2074127,000001A0,false,Rx,0,8,00,80,00,F0,FF,00,10,23,
2074355,000002B2,false,Rx,0,8,00,00,00,00,50,00,00,04,
2076030,000000AA,false,Rx,0,8,5D,53,07,00,B8,0B,94,00,
2076261,000000A8,false,Rx,0,8,00,03,21,E0,21,1F,0F,04,
2076482,000000A9,false,Rx,0,8,EC,03,79,DF,1D,C7,E0,21,
2076702,000000BA,false,Rx,0,7,08,FF,0F,00,00,55,83,00,
2083127,000000C4,false,Rx,0,7,95,FD,FC,00,00,FF,F1,00,
2085907,000000AA,false,Rx,0,8,5E,54,07,00,B8,0B,94,00,
2086129,000000A8,false,Rx,0,8,02,04,21,E0,21,1F,0F,04,
2086570,000000A9,false,Rx,0,8,ED,04,79,DF,1D,C7,E0,21,
2086576,000000BA,false,Rx,0,7,08,FF,0F,00,00,56,84,00,
2093264,000000B6,false,Rx,0,5,02,02,80,00,C8,00,00,00,
2093484,000000C4,false,Rx,0,7,95,FD,FC,00,00,FF,F1,00,
2093704,000000CE,false,Rx,0,8,00,00,00,00,00,00,00,00,
2093925,0000019E,false,Rx,0,8,00,E0,9F,FC,FE,00,00,1C,
2094147,000001A0,false,Rx,0,8,00,80,00,F0,FF,00,20,33,
2094374,000002B2,false,Rx,0,8,00,00,00,00,50,00,00,04,
2096049,000000AA,false,Rx,0,8,5F,55,07,00,B8,0B,94,00,
2096278,000000A8,false,Rx,0,8,03,05,21,E0,21,1F,0F,04,
2096499,000000A9,false,Rx,0,8,EE,05,79,DF,1D,C7,E0,21,
2096719,000000BA,false,Rx,0,7,08,FF,0F,00,00,57,85,00,
2098229,00000480,false,Rx,0,8,17,42,FD,FF,FF,FF,FF,FF,
2103222,000000C4,false,Rx,0,7,95,FD,FC,00,00,FF,F1,00,
2106002,000000AA,false,Rx,0,8,60,56,07,00,B8,0B,94,00,
2106232,000000A8,false,Rx,0,8,04,06,21,E0,21,1F,0F,04,
2106452,000000A9,false,Rx,0,8,EF,06,79,DF,1D,C7,E0,21,
2106672,000000BA,false,Rx,0,7,08,FF,0F,00,00,58,86,00,
2106892,000001D2,false,Rx,0,5,78,0C,8F,50,F0,00,00,00,
2113139,000000B6,false,Rx,0,5,03,03,80,00,C8,00,00,00,
2113367,000000C4,false,Rx,0,7,95,FD,FC,00,00,FF,F1,00,
2113587,000000CE,false,Rx,0,8,00,00,00,00,00,00,00,00,
2113807,0000019E,false,Rx,0,8,00,E0,9F,FC,FE,00,00,1C,
2114027,000001A0,false,Rx,0,8,00,80,00,F0,FF,00,30,43,
2114256,000002B2,false,Rx,0,8,00,00,00,00,50,00,00,04,
2114476,000001A6,false,Rx,0,8,74,05,D8,02,34,08,D0,F5,
2115971,000000AA,false,Rx,0,8,61,57,07,00,B8,0B,94,00,
2116193,000000A8,false,Rx,0,8,05,07,21,E0,21,1F,0F,04,
2116421,000000A9,false,Rx,0,8,F0,07,79,DF,1D,C7,E0,21,
2116640,000000BA,false,Rx,0,7,08,FF,0F,00,00,59,87,00,
2121542,00000130,false,Rx,0,5,45,43,21,8F,33,00,00,00,
2123351,000000C4,false,Rx,0,7,95,FD,FC,00,00,FF,F1,00,
2123356,000000C8,false,Rx,0,6,98,FD,2C,00,00,5C,00,00,
2123577,000001B4,false,Rx,0,8,00,D0,E2,FE,00,30,FC,95,
2125990,000000AA,false,Rx,0,8,62,58,07,00,B8,0B,94,00,
2126212,000000A8,false,Rx,0,8,06,08,21,E0,21,1F,0F,04,
2126439,000000A9,false,Rx,0,8,F1,08,79,DF,1D,C7,E0,21,
2126659,000000BA,false,Rx,0,7,08,FF,0F,00,00,5A,88,00,
